Command: /fetools/work_area/frontend/Batch_11/ananyaganesh/system_verilog/AXI4_LITE_SLAVE/src/work/simv +UVM_TESTNAME=axi4_lite_test_write +UVM_VERBOSITY=UVM_HIGH +ntb_random_seed=23417 -cm line+cond+fsm+tgl+branch+assert -cm_dir work/regression.vdb -cm_name axi4_lite_test_write_23417 -l work/logs/axi4_lite_test_write_23417.log +UVM_NO_RELNOTES
Chronologic VCS simulator copyright 1991-2020
Contains Synopsys proprietary information.
Compiler version Q-2020.03-SP2-8_Full64; Runtime version Q-2020.03-SP2-8_Full64;  Sep 17 16:26 2026
----------------------------------------------------------------
UVM-1.1d.Synopsys
(C) 2007-2013 Mentor Graphics Corporation
(C) 2007-2013 Cadence Design Systems, Inc.
(C) 2006-2013 Synopsys, Inc.
(C) 2011-2013 Cypress Semiconductor Corp.
----------------------------------------------------------------
UVM_INFO @ 0: reporter [RNTST] Running test axi4_lite_test_write...
UVM_INFO @ 0: reporter [UVMTOP] UVM testbench topology:
---------------------------------------------------------------
Name                       Type                     Size  Value
---------------------------------------------------------------
uvm_test_top               axi4_lite_test_write     -     @469 
  env                      axi4_lite_environment    -     @477 
    aa                     axi4_lite_active_agent   -     @489 
      drv                  axi4_lite_driver         -     @569 
        rsp_port           uvm_analysis_port        -     @586 
        seq_item_port      uvm_seq_item_pull_port   -     @577 
      inp_mon              axi4_lite_inp_monitor    -     @552 
        inp_mon_port       uvm_analysis_port        -     @560 
      seqr                 axi4_lite_seqr           -     @595 
        rsp_export         uvm_analysis_export      -     @603 
        seq_item_export    uvm_seq_item_pull_imp    -     @709 
        arbitration_queue  array                    0     -    
        lock_queue         array                    0     -    
        num_last_reqs      integral                 32    'd1  
        num_last_rsps      integral                 32    'd1  
    pa                     axi4_lite_passive_agent  -     @497 
      out_mon              axi4_lite_out_monitor    -     @726 
        out_mon_port       uvm_analysis_port        -     @734 
    sb                     axi4_lite_subscriber     -     @531 
      analysis_imp         uvm_analysis_imp         -     @539 
    scb                    axi4_lite_scoreboard     -     @505 
      inp_port             uvm_analysis_imp_in      -     @513 
      out_port             uvm_analysis_imp_out     -     @522 
---------------------------------------------------------------

UVM_INFO axi4_lite_subscriber.sv(41) @ 35: uvm_test_top.env.sb [sb] INPUT COVERAGE = 25.00 %
UVM_INFO axi4_lite_inp_monitor.sv(44) @ 35: uvm_test_top.env.aa.inp_mon [INPUT MONITOR]  WRITE awaddr=00000024 wdata=f0d1c8b0 wstrb=1110 
UVM_INFO axi4_lite_out_monitor.sv(28) @ 55: uvm_test_top.env.pa.out_mon [OUTPUT MONITOR] BRESP = 0 RRESP = 0 RDATA = 00000000
UVM_INFO axi4_lite_driver.sv(34) @ 55: uvm_test_top.env.aa.drv [DRV] awaddr = 00000024 wdata = f0d1c8b0 wstrb = e araddr = bf236540
UVM_INFO axi4_lite_scoreboard.sv(52) @ 55: uvm_test_top.env.scb [BRESP] Matched : exp_bresp= 0 actual_bresp=0 write = 1 read = 0
UVM_INFO axi4_lite_subscriber.sv(41) @ 95: uvm_test_top.env.sb [sb] INPUT COVERAGE = 41.67 %
UVM_INFO axi4_lite_inp_monitor.sv(44) @ 95: uvm_test_top.env.aa.inp_mon [INPUT MONITOR]  WRITE awaddr=00000030 wdata=0b92b369 wstrb=1101 
UVM_INFO axi4_lite_out_monitor.sv(28) @ 115: uvm_test_top.env.pa.out_mon [OUTPUT MONITOR] BRESP = 2 RRESP = 0 RDATA = 00000000
UVM_INFO axi4_lite_driver.sv(34) @ 115: uvm_test_top.env.aa.drv [DRV] awaddr = 00000030 wdata = 0b92b369 wstrb = d araddr = c2907d00
UVM_INFO axi4_lite_scoreboard.sv(52) @ 115: uvm_test_top.env.scb [BRESP] Matched : exp_bresp= 2 actual_bresp=2 write = 1 read = 0
UVM_INFO axi4_lite_subscriber.sv(41) @ 155: uvm_test_top.env.sb [sb] INPUT COVERAGE = 41.67 %
UVM_INFO axi4_lite_inp_monitor.sv(44) @ 155: uvm_test_top.env.aa.inp_mon [INPUT MONITOR]  WRITE awaddr=00000024 wdata=db80e877 wstrb=0111 
UVM_INFO axi4_lite_out_monitor.sv(28) @ 175: uvm_test_top.env.pa.out_mon [OUTPUT MONITOR] BRESP = 0 RRESP = 0 RDATA = 00000000
UVM_INFO axi4_lite_driver.sv(34) @ 175: uvm_test_top.env.aa.drv [DRV] awaddr = 00000024 wdata = db80e877 wstrb = 7 araddr = f7462c7c
UVM_INFO axi4_lite_scoreboard.sv(52) @ 175: uvm_test_top.env.scb [BRESP] Matched : exp_bresp= 0 actual_bresp=0 write = 1 read = 0
UVM_INFO axi4_lite_subscriber.sv(41) @ 205: uvm_test_top.env.sb [sb] INPUT COVERAGE = 44.79 %
UVM_INFO axi4_lite_inp_monitor.sv(44) @ 205: uvm_test_top.env.aa.inp_mon [INPUT MONITOR]  WRITE awaddr=00000024 wdata=0bf99ae2 wstrb=1000 
UVM_INFO axi4_lite_out_monitor.sv(28) @ 225: uvm_test_top.env.pa.out_mon [OUTPUT MONITOR] BRESP = 0 RRESP = 0 RDATA = 00000000
UVM_INFO axi4_lite_driver.sv(34) @ 225: uvm_test_top.env.aa.drv [DRV] awaddr = 00000024 wdata = 0bf99ae2 wstrb = 8 araddr = 1405b33c
UVM_INFO axi4_lite_scoreboard.sv(52) @ 225: uvm_test_top.env.scb [BRESP] Matched : exp_bresp= 0 actual_bresp=0 write = 1 read = 0
UVM_INFO axi4_lite_subscriber.sv(41) @ 265: uvm_test_top.env.sb [sb] INPUT COVERAGE = 44.79 %
UVM_INFO axi4_lite_inp_monitor.sv(44) @ 265: uvm_test_top.env.aa.inp_mon [INPUT MONITOR]  WRITE awaddr=00000014 wdata=14b10b1e wstrb=1000 
UVM_INFO axi4_lite_out_monitor.sv(28) @ 285: uvm_test_top.env.pa.out_mon [OUTPUT MONITOR] BRESP = 0 RRESP = 0 RDATA = 00000000
UVM_INFO axi4_lite_driver.sv(34) @ 285: uvm_test_top.env.aa.drv [DRV] awaddr = 00000014 wdata = 14b10b1e wstrb = 8 araddr = d57ee558
UVM_INFO axi4_lite_scoreboard.sv(52) @ 285: uvm_test_top.env.scb [BRESP] Matched : exp_bresp= 0 actual_bresp=0 write = 1 read = 0
UVM_INFO axi4_lite_subscriber.sv(41) @ 325: uvm_test_top.env.sb [sb] INPUT COVERAGE = 47.92 %
UVM_INFO axi4_lite_inp_monitor.sv(44) @ 325: uvm_test_top.env.aa.inp_mon [INPUT MONITOR]  WRITE awaddr=00000018 wdata=fcfe3cc7 wstrb=1111 
UVM_INFO axi4_lite_out_monitor.sv(28) @ 345: uvm_test_top.env.pa.out_mon [OUTPUT MONITOR] BRESP = 0 RRESP = 0 RDATA = 00000000
UVM_INFO axi4_lite_driver.sv(34) @ 345: uvm_test_top.env.aa.drv [DRV] awaddr = 00000018 wdata = fcfe3cc7 wstrb = f araddr = 65c80600
UVM_INFO axi4_lite_scoreboard.sv(52) @ 345: uvm_test_top.env.scb [BRESP] Matched : exp_bresp= 0 actual_bresp=0 write = 1 read = 0
UVM_INFO axi4_lite_subscriber.sv(41) @ 385: uvm_test_top.env.sb [sb] INPUT COVERAGE = 51.04 %
UVM_INFO axi4_lite_inp_monitor.sv(44) @ 385: uvm_test_top.env.aa.inp_mon [INPUT MONITOR]  WRITE awaddr=0000000c wdata=bb0fa974 wstrb=0100 
UVM_INFO axi4_lite_out_monitor.sv(28) @ 405: uvm_test_top.env.pa.out_mon [OUTPUT MONITOR] BRESP = 0 RRESP = 0 RDATA = 00000000
UVM_INFO axi4_lite_driver.sv(34) @ 405: uvm_test_top.env.aa.drv [DRV] awaddr = 0000000c wdata = bb0fa974 wstrb = 4 araddr = 4a761f0c
UVM_INFO axi4_lite_scoreboard.sv(52) @ 405: uvm_test_top.env.scb [BRESP] Matched : exp_bresp= 0 actual_bresp=0 write = 1 read = 0
UVM_INFO axi4_lite_subscriber.sv(41) @ 435: uvm_test_top.env.sb [sb] INPUT COVERAGE = 51.04 %
UVM_INFO axi4_lite_inp_monitor.sv(44) @ 435: uvm_test_top.env.aa.inp_mon [INPUT MONITOR]  WRITE awaddr=00000028 wdata=0e632b99 wstrb=0110 
UVM_INFO axi4_lite_out_monitor.sv(28) @ 455: uvm_test_top.env.pa.out_mon [OUTPUT MONITOR] BRESP = 2 RRESP = 0 RDATA = 00000000
UVM_INFO axi4_lite_driver.sv(34) @ 455: uvm_test_top.env.aa.drv [DRV] awaddr = 00000028 wdata = 0e632b99 wstrb = 6 araddr = af2de1ac
UVM_INFO axi4_lite_scoreboard.sv(52) @ 455: uvm_test_top.env.scb [BRESP] Matched : exp_bresp= 2 actual_bresp=2 write = 1 read = 0
UVM_INFO axi4_lite_subscriber.sv(41) @ 495: uvm_test_top.env.sb [sb] INPUT COVERAGE = 51.04 %
UVM_INFO axi4_lite_inp_monitor.sv(44) @ 495: uvm_test_top.env.aa.inp_mon [INPUT MONITOR]  WRITE awaddr=00000000 wdata=51caf1aa wstrb=0100 
UVM_INFO axi4_lite_out_monitor.sv(28) @ 515: uvm_test_top.env.pa.out_mon [OUTPUT MONITOR] BRESP = 0 RRESP = 0 RDATA = 00000000
UVM_INFO axi4_lite_driver.sv(34) @ 515: uvm_test_top.env.aa.drv [DRV] awaddr = 00000000 wdata = 51caf1aa wstrb = 4 araddr = 7c370f84
UVM_INFO axi4_lite_scoreboard.sv(52) @ 515: uvm_test_top.env.scb [BRESP] Matched : exp_bresp= 0 actual_bresp=0 write = 1 read = 0
UVM_INFO axi4_lite_subscriber.sv(41) @ 565: uvm_test_top.env.sb [sb] INPUT COVERAGE = 51.04 %
UVM_INFO axi4_lite_inp_monitor.sv(44) @ 565: uvm_test_top.env.aa.inp_mon [INPUT MONITOR]  WRITE awaddr=00000018 wdata=17ea53e4 wstrb=0111 
UVM_INFO axi4_lite_out_monitor.sv(28) @ 585: uvm_test_top.env.pa.out_mon [OUTPUT MONITOR] BRESP = 0 RRESP = 0 RDATA = 00000000
UVM_INFO axi4_lite_driver.sv(34) @ 585: uvm_test_top.env.aa.drv [DRV] awaddr = 00000018 wdata = 17ea53e4 wstrb = 7 araddr = 64d36078
UVM_INFO axi4_lite_scoreboard.sv(52) @ 585: uvm_test_top.env.scb [BRESP] Matched : exp_bresp= 0 actual_bresp=0 write = 1 read = 0
UVM_INFO axi4_lite_subscriber.sv(41) @ 615: uvm_test_top.env.sb [sb] INPUT COVERAGE = 51.04 %
UVM_INFO axi4_lite_inp_monitor.sv(44) @ 615: uvm_test_top.env.aa.inp_mon [INPUT MONITOR]  WRITE awaddr=00000014 wdata=53ca8c78 wstrb=1110 
UVM_INFO axi4_lite_out_monitor.sv(28) @ 635: uvm_test_top.env.pa.out_mon [OUTPUT MONITOR] BRESP = 0 RRESP = 0 RDATA = 00000000
UVM_INFO axi4_lite_driver.sv(34) @ 635: uvm_test_top.env.aa.drv [DRV] awaddr = 00000014 wdata = 53ca8c78 wstrb = e araddr = 169dccf4
UVM_INFO axi4_lite_scoreboard.sv(52) @ 635: uvm_test_top.env.scb [BRESP] Matched : exp_bresp= 0 actual_bresp=0 write = 1 read = 0
UVM_INFO axi4_lite_subscriber.sv(41) @ 685: uvm_test_top.env.sb [sb] INPUT COVERAGE = 59.38 %
UVM_INFO axi4_lite_inp_monitor.sv(44) @ 685: uvm_test_top.env.aa.inp_mon [INPUT MONITOR]  WRITE awaddr=00000014 wdata=a2d66ab3 wstrb=1101 
UVM_INFO axi4_lite_out_monitor.sv(28) @ 705: uvm_test_top.env.pa.out_mon [OUTPUT MONITOR] BRESP = 0 RRESP = 0 RDATA = 00000000
UVM_INFO axi4_lite_driver.sv(34) @ 705: uvm_test_top.env.aa.drv [DRV] awaddr = 00000014 wdata = a2d66ab3 wstrb = d araddr = efc0331c
UVM_INFO axi4_lite_scoreboard.sv(52) @ 705: uvm_test_top.env.scb [BRESP] Matched : exp_bresp= 0 actual_bresp=0 write = 1 read = 0
UVM_INFO axi4_lite_subscriber.sv(41) @ 745: uvm_test_top.env.sb [sb] INPUT COVERAGE = 62.50 %
UVM_INFO axi4_lite_inp_monitor.sv(44) @ 745: uvm_test_top.env.aa.inp_mon [INPUT MONITOR]  WRITE awaddr=00000008 wdata=73eeaccb wstrb=0010 
UVM_INFO axi4_lite_out_monitor.sv(28) @ 765: uvm_test_top.env.pa.out_mon [OUTPUT MONITOR] BRESP = 0 RRESP = 0 RDATA = 00000000
UVM_INFO axi4_lite_driver.sv(34) @ 765: uvm_test_top.env.aa.drv [DRV] awaddr = 00000008 wdata = 73eeaccb wstrb = 2 araddr = d44277bc
UVM_INFO axi4_lite_scoreboard.sv(52) @ 765: uvm_test_top.env.scb [BRESP] Matched : exp_bresp= 0 actual_bresp=0 write = 1 read = 0
UVM_INFO axi4_lite_subscriber.sv(41) @ 795: uvm_test_top.env.sb [sb] INPUT COVERAGE = 62.50 %
UVM_INFO axi4_lite_inp_monitor.sv(44) @ 795: uvm_test_top.env.aa.inp_mon [INPUT MONITOR]  WRITE awaddr=00000018 wdata=59e155d3 wstrb=0010 
UVM_INFO axi4_lite_out_monitor.sv(28) @ 815: uvm_test_top.env.pa.out_mon [OUTPUT MONITOR] BRESP = 0 RRESP = 0 RDATA = 00000000
UVM_INFO axi4_lite_driver.sv(34) @ 815: uvm_test_top.env.aa.drv [DRV] awaddr = 00000018 wdata = 59e155d3 wstrb = 2 araddr = 64e2c3f4
UVM_INFO axi4_lite_scoreboard.sv(52) @ 815: uvm_test_top.env.scb [BRESP] Matched : exp_bresp= 0 actual_bresp=0 write = 1 read = 0
UVM_INFO axi4_lite_subscriber.sv(41) @ 845: uvm_test_top.env.sb [sb] INPUT COVERAGE = 62.50 %
UVM_INFO axi4_lite_inp_monitor.sv(44) @ 845: uvm_test_top.env.aa.inp_mon [INPUT MONITOR]  WRITE awaddr=00000018 wdata=7a1e427e wstrb=1000 
UVM_INFO axi4_lite_out_monitor.sv(28) @ 865: uvm_test_top.env.pa.out_mon [OUTPUT MONITOR] BRESP = 0 RRESP = 0 RDATA = 00000000
UVM_INFO axi4_lite_driver.sv(34) @ 865: uvm_test_top.env.aa.drv [DRV] awaddr = 00000018 wdata = 7a1e427e wstrb = 8 araddr = 1554718c
UVM_INFO axi4_lite_scoreboard.sv(52) @ 865: uvm_test_top.env.scb [BRESP] Matched : exp_bresp= 0 actual_bresp=0 write = 1 read = 0
UVM_INFO axi4_lite_subscriber.sv(41) @ 905: uvm_test_top.env.sb [sb] INPUT COVERAGE = 62.50 %
UVM_INFO axi4_lite_inp_monitor.sv(44) @ 905: uvm_test_top.env.aa.inp_mon [INPUT MONITOR]  WRITE awaddr=00000020 wdata=8dfd023e wstrb=1001 
UVM_INFO axi4_lite_out_monitor.sv(28) @ 925: uvm_test_top.env.pa.out_mon [OUTPUT MONITOR] BRESP = 0 RRESP = 0 RDATA = 00000000
UVM_INFO axi4_lite_driver.sv(34) @ 925: uvm_test_top.env.aa.drv [DRV] awaddr = 00000020 wdata = 8dfd023e wstrb = 9 araddr = 597a8b30
UVM_INFO axi4_lite_scoreboard.sv(52) @ 925: uvm_test_top.env.scb [BRESP] Matched : exp_bresp= 0 actual_bresp=0 write = 1 read = 0
UVM_INFO axi4_lite_subscriber.sv(41) @ 975: uvm_test_top.env.sb [sb] INPUT COVERAGE = 62.50 %
UVM_INFO axi4_lite_inp_monitor.sv(44) @ 975: uvm_test_top.env.aa.inp_mon [INPUT MONITOR]  WRITE awaddr=00000014 wdata=dbdca200 wstrb=1001 
UVM_INFO axi4_lite_out_monitor.sv(28) @ 995: uvm_test_top.env.pa.out_mon [OUTPUT MONITOR] BRESP = 0 RRESP = 0 RDATA = 00000000
UVM_INFO axi4_lite_driver.sv(34) @ 995: uvm_test_top.env.aa.drv [DRV] awaddr = 00000014 wdata = dbdca200 wstrb = 9 araddr = b0c839a4
UVM_INFO axi4_lite_scoreboard.sv(52) @ 995: uvm_test_top.env.scb [BRESP] Matched : exp_bresp= 0 actual_bresp=0 write = 1 read = 0
UVM_INFO axi4_lite_subscriber.sv(41) @ 1035: uvm_test_top.env.sb [sb] INPUT COVERAGE = 73.96 %
UVM_INFO axi4_lite_inp_monitor.sv(44) @ 1035: uvm_test_top.env.aa.inp_mon [INPUT MONITOR]  WRITE awaddr=00000034 wdata=ac445620 wstrb=0011 
UVM_INFO axi4_lite_out_monitor.sv(28) @ 1055: uvm_test_top.env.pa.out_mon [OUTPUT MONITOR] BRESP = 0 RRESP = 0 RDATA = 00000000
UVM_INFO axi4_lite_driver.sv(34) @ 1055: uvm_test_top.env.aa.drv [DRV] awaddr = 00000034 wdata = ac445620 wstrb = 3 araddr = 9ac5f974
UVM_INFO axi4_lite_scoreboard.sv(52) @ 1055: uvm_test_top.env.scb [BRESP] Matched : exp_bresp= 0 actual_bresp=0 write = 1 read = 0
UVM_INFO axi4_lite_subscriber.sv(41) @ 1095: uvm_test_top.env.sb [sb] INPUT COVERAGE = 73.96 %
UVM_INFO axi4_lite_inp_monitor.sv(44) @ 1095: uvm_test_top.env.aa.inp_mon [INPUT MONITOR]  WRITE awaddr=00000038 wdata=d6c1b156 wstrb=0111 
UVM_INFO axi4_lite_out_monitor.sv(28) @ 1115: uvm_test_top.env.pa.out_mon [OUTPUT MONITOR] BRESP = 0 RRESP = 0 RDATA = 00000000
UVM_INFO axi4_lite_driver.sv(34) @ 1115: uvm_test_top.env.aa.drv [DRV] awaddr = 00000038 wdata = d6c1b156 wstrb = 7 araddr = 4974c768
UVM_INFO axi4_lite_scoreboard.sv(52) @ 1115: uvm_test_top.env.scb [BRESP] Matched : exp_bresp= 0 actual_bresp=0 write = 1 read = 0
UVM_INFO axi4_lite_subscriber.sv(41) @ 1145: uvm_test_top.env.sb [sb] INPUT COVERAGE = 73.96 %
UVM_INFO axi4_lite_inp_monitor.sv(44) @ 1145: uvm_test_top.env.aa.inp_mon [INPUT MONITOR]  WRITE awaddr=00000000 wdata=2e2d95f5 wstrb=0110 
UVM_INFO axi4_lite_out_monitor.sv(28) @ 1165: uvm_test_top.env.pa.out_mon [OUTPUT MONITOR] BRESP = 0 RRESP = 0 RDATA = 00000000
UVM_INFO axi4_lite_driver.sv(34) @ 1165: uvm_test_top.env.aa.drv [DRV] awaddr = 00000000 wdata = 2e2d95f5 wstrb = 6 araddr = e3084494
UVM_INFO axi4_lite_scoreboard.sv(52) @ 1165: uvm_test_top.env.scb [BRESP] Matched : exp_bresp= 0 actual_bresp=0 write = 1 read = 0
UVM_INFO axi4_lite_subscriber.sv(41) @ 1195: uvm_test_top.env.sb [sb] INPUT COVERAGE = 73.96 %
UVM_INFO axi4_lite_inp_monitor.sv(44) @ 1195: uvm_test_top.env.aa.inp_mon [INPUT MONITOR]  WRITE awaddr=0000002c wdata=5ca07e0a wstrb=1001 
UVM_INFO axi4_lite_out_monitor.sv(28) @ 1215: uvm_test_top.env.pa.out_mon [OUTPUT MONITOR] BRESP = 2 RRESP = 0 RDATA = 00000000
UVM_INFO axi4_lite_driver.sv(34) @ 1215: uvm_test_top.env.aa.drv [DRV] awaddr = 0000002c wdata = 5ca07e0a wstrb = 9 araddr = 36c4635c
UVM_INFO axi4_lite_scoreboard.sv(52) @ 1215: uvm_test_top.env.scb [BRESP] Matched : exp_bresp= 2 actual_bresp=2 write = 1 read = 0
UVM_INFO axi4_lite_subscriber.sv(41) @ 1255: uvm_test_top.env.sb [sb] INPUT COVERAGE = 73.96 %
UVM_INFO axi4_lite_inp_monitor.sv(44) @ 1255: uvm_test_top.env.aa.inp_mon [INPUT MONITOR]  WRITE awaddr=0000002c wdata=d64d267d wstrb=1110 
UVM_INFO axi4_lite_out_monitor.sv(28) @ 1275: uvm_test_top.env.pa.out_mon [OUTPUT MONITOR] BRESP = 2 RRESP = 0 RDATA = 00000000
UVM_INFO axi4_lite_driver.sv(34) @ 1275: uvm_test_top.env.aa.drv [DRV] awaddr = 0000002c wdata = d64d267d wstrb = e araddr = 034627b4
UVM_INFO axi4_lite_scoreboard.sv(52) @ 1275: uvm_test_top.env.scb [BRESP] Matched : exp_bresp= 2 actual_bresp=2 write = 1 read = 0
UVM_INFO axi4_lite_subscriber.sv(41) @ 1315: uvm_test_top.env.sb [sb] INPUT COVERAGE = 77.08 %
UVM_INFO axi4_lite_inp_monitor.sv(44) @ 1315: uvm_test_top.env.aa.inp_mon [INPUT MONITOR]  WRITE awaddr=00000004 wdata=4e2505f8 wstrb=0000 
UVM_INFO axi4_lite_out_monitor.sv(28) @ 1335: uvm_test_top.env.pa.out_mon [OUTPUT MONITOR] BRESP = 0 RRESP = 0 RDATA = 00000000
UVM_INFO axi4_lite_driver.sv(34) @ 1335: uvm_test_top.env.aa.drv [DRV] awaddr = 00000004 wdata = 4e2505f8 wstrb = 0 araddr = 89d10db0
UVM_INFO axi4_lite_scoreboard.sv(52) @ 1335: uvm_test_top.env.scb [BRESP] Matched : exp_bresp= 0 actual_bresp=0 write = 1 read = 0
UVM_INFO axi4_lite_subscriber.sv(41) @ 1375: uvm_test_top.env.sb [sb] INPUT COVERAGE = 77.08 %
UVM_INFO axi4_lite_inp_monitor.sv(44) @ 1375: uvm_test_top.env.aa.inp_mon [INPUT MONITOR]  WRITE awaddr=00000038 wdata=6105c112 wstrb=1110 
UVM_INFO axi4_lite_out_monitor.sv(28) @ 1395: uvm_test_top.env.pa.out_mon [OUTPUT MONITOR] BRESP = 0 RRESP = 0 RDATA = 00000000
UVM_INFO axi4_lite_driver.sv(34) @ 1395: uvm_test_top.env.aa.drv [DRV] awaddr = 00000038 wdata = 6105c112 wstrb = e araddr = b2ce73e8
UVM_INFO axi4_lite_scoreboard.sv(52) @ 1395: uvm_test_top.env.scb [BRESP] Matched : exp_bresp= 0 actual_bresp=0 write = 1 read = 0
UVM_INFO axi4_lite_subscriber.sv(41) @ 1435: uvm_test_top.env.sb [sb] INPUT COVERAGE = 77.08 %
UVM_INFO axi4_lite_inp_monitor.sv(44) @ 1435: uvm_test_top.env.aa.inp_mon [INPUT MONITOR]  WRITE awaddr=00000014 wdata=0d409d0a wstrb=0110 
UVM_INFO axi4_lite_out_monitor.sv(28) @ 1455: uvm_test_top.env.pa.out_mon [OUTPUT MONITOR] BRESP = 0 RRESP = 0 RDATA = 00000000
UVM_INFO axi4_lite_driver.sv(34) @ 1455: uvm_test_top.env.aa.drv [DRV] awaddr = 00000014 wdata = 0d409d0a wstrb = 6 araddr = 8e2ba9ac
UVM_INFO axi4_lite_scoreboard.sv(52) @ 1455: uvm_test_top.env.scb [BRESP] Matched : exp_bresp= 0 actual_bresp=0 write = 1 read = 0
UVM_INFO axi4_lite_subscriber.sv(41) @ 1495: uvm_test_top.env.sb [sb] INPUT COVERAGE = 80.21 %
UVM_INFO axi4_lite_inp_monitor.sv(44) @ 1495: uvm_test_top.env.aa.inp_mon [INPUT MONITOR]  WRITE awaddr=00000004 wdata=92e9ef27 wstrb=1100 
UVM_INFO axi4_lite_out_monitor.sv(28) @ 1515: uvm_test_top.env.pa.out_mon [OUTPUT MONITOR] BRESP = 0 RRESP = 0 RDATA = 00000000
UVM_INFO axi4_lite_driver.sv(34) @ 1515: uvm_test_top.env.aa.drv [DRV] awaddr = 00000004 wdata = 92e9ef27 wstrb = c araddr = 2cd53b68
UVM_INFO axi4_lite_scoreboard.sv(52) @ 1515: uvm_test_top.env.scb [BRESP] Matched : exp_bresp= 0 actual_bresp=0 write = 1 read = 0
UVM_INFO axi4_lite_subscriber.sv(41) @ 1555: uvm_test_top.env.sb [sb] INPUT COVERAGE = 80.21 %
UVM_INFO axi4_lite_inp_monitor.sv(44) @ 1555: uvm_test_top.env.aa.inp_mon [INPUT MONITOR]  WRITE awaddr=0000000c wdata=f75f1743 wstrb=1011 
UVM_INFO axi4_lite_out_monitor.sv(28) @ 1575: uvm_test_top.env.pa.out_mon [OUTPUT MONITOR] BRESP = 0 RRESP = 0 RDATA = 00000000
UVM_INFO axi4_lite_driver.sv(34) @ 1575: uvm_test_top.env.aa.drv [DRV] awaddr = 0000000c wdata = f75f1743 wstrb = b araddr = fd7a0804
UVM_INFO axi4_lite_scoreboard.sv(52) @ 1575: uvm_test_top.env.scb [BRESP] Matched : exp_bresp= 0 actual_bresp=0 write = 1 read = 0
UVM_INFO axi4_lite_subscriber.sv(41) @ 1625: uvm_test_top.env.sb [sb] INPUT COVERAGE = 80.21 %
UVM_INFO axi4_lite_inp_monitor.sv(44) @ 1625: uvm_test_top.env.aa.inp_mon [INPUT MONITOR]  WRITE awaddr=0000002c wdata=d25c2ce9 wstrb=0100 
UVM_INFO axi4_lite_out_monitor.sv(28) @ 1645: uvm_test_top.env.pa.out_mon [OUTPUT MONITOR] BRESP = 2 RRESP = 0 RDATA = 00000000
UVM_INFO axi4_lite_driver.sv(34) @ 1645: uvm_test_top.env.aa.drv [DRV] awaddr = 0000002c wdata = d25c2ce9 wstrb = 4 araddr = 4c055184
UVM_INFO axi4_lite_scoreboard.sv(52) @ 1645: uvm_test_top.env.scb [BRESP] Matched : exp_bresp= 2 actual_bresp=2 write = 1 read = 0
UVM_INFO axi4_lite_subscriber.sv(41) @ 1685: uvm_test_top.env.sb [sb] INPUT COVERAGE = 80.21 %
UVM_INFO axi4_lite_inp_monitor.sv(44) @ 1685: uvm_test_top.env.aa.inp_mon [INPUT MONITOR]  WRITE awaddr=00000038 wdata=ef632792 wstrb=0111 
UVM_INFO axi4_lite_out_monitor.sv(28) @ 1705: uvm_test_top.env.pa.out_mon [OUTPUT MONITOR] BRESP = 0 RRESP = 0 RDATA = 00000000
UVM_INFO axi4_lite_driver.sv(34) @ 1705: uvm_test_top.env.aa.drv [DRV] awaddr = 00000038 wdata = ef632792 wstrb = 7 araddr = 11562b88
UVM_INFO axi4_lite_scoreboard.sv(52) @ 1705: uvm_test_top.env.scb [BRESP] Matched : exp_bresp= 0 actual_bresp=0 write = 1 read = 0
UVM_INFO axi4_lite_subscriber.sv(41) @ 1745: uvm_test_top.env.sb [sb] INPUT COVERAGE = 80.21 %
UVM_INFO axi4_lite_inp_monitor.sv(44) @ 1745: uvm_test_top.env.aa.inp_mon [INPUT MONITOR]  WRITE awaddr=00000004 wdata=9d208add wstrb=1011 
UVM_INFO axi4_lite_out_monitor.sv(28) @ 1765: uvm_test_top.env.pa.out_mon [OUTPUT MONITOR] BRESP = 0 RRESP = 0 RDATA = 00000000
UVM_INFO axi4_lite_driver.sv(34) @ 1765: uvm_test_top.env.aa.drv [DRV] awaddr = 00000004 wdata = 9d208add wstrb = b araddr = cc87fef0
UVM_INFO axi4_lite_scoreboard.sv(52) @ 1765: uvm_test_top.env.scb [BRESP] Matched : exp_bresp= 0 actual_bresp=0 write = 1 read = 0
UVM_INFO axi4_lite_subscriber.sv(41) @ 1785: uvm_test_top.env.sb [sb] INPUT COVERAGE = 80.21 %
UVM_INFO axi4_lite_inp_monitor.sv(44) @ 1785: uvm_test_top.env.aa.inp_mon [INPUT MONITOR]  WRITE awaddr=0000002c wdata=dd97b80a wstrb=0010 
UVM_INFO axi4_lite_out_monitor.sv(28) @ 1805: uvm_test_top.env.pa.out_mon [OUTPUT MONITOR] BRESP = 2 RRESP = 0 RDATA = 00000000
UVM_INFO axi4_lite_driver.sv(34) @ 1805: uvm_test_top.env.aa.drv [DRV] awaddr = 0000002c wdata = dd97b80a wstrb = 2 araddr = 33487328
UVM_INFO axi4_lite_scoreboard.sv(52) @ 1805: uvm_test_top.env.scb [BRESP] Matched : exp_bresp= 2 actual_bresp=2 write = 1 read = 0
UVM_INFO axi4_lite_subscriber.sv(41) @ 1835: uvm_test_top.env.sb [sb] INPUT COVERAGE = 80.21 %
UVM_INFO axi4_lite_inp_monitor.sv(44) @ 1835: uvm_test_top.env.aa.inp_mon [INPUT MONITOR]  WRITE awaddr=00000028 wdata=58db95e0 wstrb=0101 
UVM_INFO axi4_lite_out_monitor.sv(28) @ 1855: uvm_test_top.env.pa.out_mon [OUTPUT MONITOR] BRESP = 2 RRESP = 0 RDATA = 00000000
UVM_INFO axi4_lite_driver.sv(34) @ 1855: uvm_test_top.env.aa.drv [DRV] awaddr = 00000028 wdata = 58db95e0 wstrb = 5 araddr = 6fff5b2c
UVM_INFO axi4_lite_scoreboard.sv(52) @ 1855: uvm_test_top.env.scb [BRESP] Matched : exp_bresp= 2 actual_bresp=2 write = 1 read = 0
UVM_INFO axi4_lite_subscriber.sv(41) @ 1875: uvm_test_top.env.sb [sb] INPUT COVERAGE = 80.21 %
UVM_INFO axi4_lite_inp_monitor.sv(44) @ 1875: uvm_test_top.env.aa.inp_mon [INPUT MONITOR]  WRITE awaddr=00000030 wdata=e75d0af2 wstrb=0111 
UVM_INFO axi4_lite_out_monitor.sv(28) @ 1895: uvm_test_top.env.pa.out_mon [OUTPUT MONITOR] BRESP = 2 RRESP = 0 RDATA = 00000000
UVM_INFO axi4_lite_driver.sv(34) @ 1895: uvm_test_top.env.aa.drv [DRV] awaddr = 00000030 wdata = e75d0af2 wstrb = 7 araddr = c86cc5f8
UVM_INFO axi4_lite_scoreboard.sv(52) @ 1895: uvm_test_top.env.scb [BRESP] Matched : exp_bresp= 2 actual_bresp=2 write = 1 read = 0
UVM_INFO axi4_lite_subscriber.sv(41) @ 1935: uvm_test_top.env.sb [sb] INPUT COVERAGE = 80.21 %
UVM_INFO axi4_lite_inp_monitor.sv(44) @ 1935: uvm_test_top.env.aa.inp_mon [INPUT MONITOR]  WRITE awaddr=00000014 wdata=f8ad22f7 wstrb=0011 
UVM_INFO axi4_lite_out_monitor.sv(28) @ 1955: uvm_test_top.env.pa.out_mon [OUTPUT MONITOR] BRESP = 0 RRESP = 0 RDATA = 00000000
UVM_INFO axi4_lite_driver.sv(34) @ 1955: uvm_test_top.env.aa.drv [DRV] awaddr = 00000014 wdata = f8ad22f7 wstrb = 3 araddr = 2d3d2b78
UVM_INFO axi4_lite_scoreboard.sv(52) @ 1955: uvm_test_top.env.scb [BRESP] Matched : exp_bresp= 0 actual_bresp=0 write = 1 read = 0
UVM_INFO axi4_lite_subscriber.sv(41) @ 1995: uvm_test_top.env.sb [sb] INPUT COVERAGE = 80.21 %
UVM_INFO axi4_lite_inp_monitor.sv(44) @ 1995: uvm_test_top.env.aa.inp_mon [INPUT MONITOR]  WRITE awaddr=00000020 wdata=493ca81a wstrb=0111 
UVM_INFO axi4_lite_out_monitor.sv(28) @ 2015: uvm_test_top.env.pa.out_mon [OUTPUT MONITOR] BRESP = 0 RRESP = 0 RDATA = 00000000
UVM_INFO axi4_lite_driver.sv(34) @ 2015: uvm_test_top.env.aa.drv [DRV] awaddr = 00000020 wdata = 493ca81a wstrb = 7 araddr = 0daccb2c
UVM_INFO axi4_lite_scoreboard.sv(52) @ 2015: uvm_test_top.env.scb [BRESP] Matched : exp_bresp= 0 actual_bresp=0 write = 1 read = 0
UVM_INFO axi4_lite_subscriber.sv(41) @ 2045: uvm_test_top.env.sb [sb] INPUT COVERAGE = 80.21 %
UVM_INFO axi4_lite_inp_monitor.sv(44) @ 2045: uvm_test_top.env.aa.inp_mon [INPUT MONITOR]  WRITE awaddr=00000034 wdata=8a824abd wstrb=1101 
UVM_INFO axi4_lite_out_monitor.sv(28) @ 2065: uvm_test_top.env.pa.out_mon [OUTPUT MONITOR] BRESP = 0 RRESP = 0 RDATA = 00000000
UVM_INFO axi4_lite_driver.sv(34) @ 2065: uvm_test_top.env.aa.drv [DRV] awaddr = 00000034 wdata = 8a824abd wstrb = d araddr = 5ccb307c
UVM_INFO axi4_lite_scoreboard.sv(52) @ 2065: uvm_test_top.env.scb [BRESP] Matched : exp_bresp= 0 actual_bresp=0 write = 1 read = 0
UVM_INFO axi4_lite_subscriber.sv(41) @ 2095: uvm_test_top.env.sb [sb] INPUT COVERAGE = 80.21 %
UVM_INFO axi4_lite_inp_monitor.sv(44) @ 2095: uvm_test_top.env.aa.inp_mon [INPUT MONITOR]  WRITE awaddr=00000010 wdata=d84ca658 wstrb=1111 
UVM_INFO axi4_lite_out_monitor.sv(28) @ 2115: uvm_test_top.env.pa.out_mon [OUTPUT MONITOR] BRESP = 0 RRESP = 0 RDATA = 00000000
UVM_INFO axi4_lite_driver.sv(34) @ 2115: uvm_test_top.env.aa.drv [DRV] awaddr = 00000010 wdata = d84ca658 wstrb = f araddr = a4beb348
UVM_INFO axi4_lite_scoreboard.sv(52) @ 2115: uvm_test_top.env.scb [BRESP] Matched : exp_bresp= 0 actual_bresp=0 write = 1 read = 0
UVM_INFO axi4_lite_subscriber.sv(41) @ 2165: uvm_test_top.env.sb [sb] INPUT COVERAGE = 80.21 %
UVM_INFO axi4_lite_inp_monitor.sv(44) @ 2165: uvm_test_top.env.aa.inp_mon [INPUT MONITOR]  WRITE awaddr=00000034 wdata=57d9d1de wstrb=1100 
UVM_INFO axi4_lite_out_monitor.sv(28) @ 2185: uvm_test_top.env.pa.out_mon [OUTPUT MONITOR] BRESP = 0 RRESP = 0 RDATA = 00000000
UVM_INFO axi4_lite_driver.sv(34) @ 2185: uvm_test_top.env.aa.drv [DRV] awaddr = 00000034 wdata = 57d9d1de wstrb = c araddr = e3db32f4
UVM_INFO axi4_lite_scoreboard.sv(52) @ 2185: uvm_test_top.env.scb [BRESP] Matched : exp_bresp= 0 actual_bresp=0 write = 1 read = 0
UVM_INFO axi4_lite_subscriber.sv(41) @ 2215: uvm_test_top.env.sb [sb] INPUT COVERAGE = 80.21 %
UVM_INFO axi4_lite_inp_monitor.sv(44) @ 2215: uvm_test_top.env.aa.inp_mon [INPUT MONITOR]  WRITE awaddr=00000034 wdata=d1a58837 wstrb=0111 
UVM_INFO axi4_lite_out_monitor.sv(28) @ 2235: uvm_test_top.env.pa.out_mon [OUTPUT MONITOR] BRESP = 0 RRESP = 0 RDATA = 00000000
UVM_INFO axi4_lite_driver.sv(34) @ 2235: uvm_test_top.env.aa.drv [DRV] awaddr = 00000034 wdata = d1a58837 wstrb = 7 araddr = 4fa58a28
UVM_INFO axi4_lite_scoreboard.sv(52) @ 2235: uvm_test_top.env.scb [BRESP] Matched : exp_bresp= 0 actual_bresp=0 write = 1 read = 0
UVM_INFO axi4_lite_subscriber.sv(41) @ 2275: uvm_test_top.env.sb [sb] INPUT COVERAGE = 80.21 %
UVM_INFO axi4_lite_inp_monitor.sv(44) @ 2275: uvm_test_top.env.aa.inp_mon [INPUT MONITOR]  WRITE awaddr=00000018 wdata=975d7564 wstrb=0000 
UVM_INFO axi4_lite_out_monitor.sv(28) @ 2295: uvm_test_top.env.pa.out_mon [OUTPUT MONITOR] BRESP = 0 RRESP = 0 RDATA = 00000000
UVM_INFO axi4_lite_driver.sv(34) @ 2295: uvm_test_top.env.aa.drv [DRV] awaddr = 00000018 wdata = 975d7564 wstrb = 0 araddr = 593f1770
UVM_INFO axi4_lite_scoreboard.sv(52) @ 2295: uvm_test_top.env.scb [BRESP] Matched : exp_bresp= 0 actual_bresp=0 write = 1 read = 0
UVM_INFO axi4_lite_subscriber.sv(41) @ 2335: uvm_test_top.env.sb [sb] INPUT COVERAGE = 80.21 %
UVM_INFO axi4_lite_inp_monitor.sv(44) @ 2335: uvm_test_top.env.aa.inp_mon [INPUT MONITOR]  WRITE awaddr=00000014 wdata=941c42c6 wstrb=1011 
UVM_INFO axi4_lite_out_monitor.sv(28) @ 2355: uvm_test_top.env.pa.out_mon [OUTPUT MONITOR] BRESP = 0 RRESP = 0 RDATA = 00000000
UVM_INFO axi4_lite_driver.sv(34) @ 2355: uvm_test_top.env.aa.drv [DRV] awaddr = 00000014 wdata = 941c42c6 wstrb = b araddr = 290668ec
UVM_INFO axi4_lite_scoreboard.sv(52) @ 2355: uvm_test_top.env.scb [BRESP] Matched : exp_bresp= 0 actual_bresp=0 write = 1 read = 0
UVM_INFO axi4_lite_subscriber.sv(41) @ 2405: uvm_test_top.env.sb [sb] INPUT COVERAGE = 80.21 %
UVM_INFO axi4_lite_inp_monitor.sv(44) @ 2405: uvm_test_top.env.aa.inp_mon [INPUT MONITOR]  WRITE awaddr=0000000c wdata=a531cfac wstrb=1000 
UVM_INFO axi4_lite_out_monitor.sv(28) @ 2425: uvm_test_top.env.pa.out_mon [OUTPUT MONITOR] BRESP = 0 RRESP = 0 RDATA = 00000000
UVM_INFO axi4_lite_driver.sv(34) @ 2425: uvm_test_top.env.aa.drv [DRV] awaddr = 0000000c wdata = a531cfac wstrb = 8 araddr = 52559a74
UVM_INFO axi4_lite_scoreboard.sv(52) @ 2425: uvm_test_top.env.scb [BRESP] Matched : exp_bresp= 0 actual_bresp=0 write = 1 read = 0
UVM_INFO axi4_lite_subscriber.sv(41) @ 2445: uvm_test_top.env.sb [sb] INPUT COVERAGE = 80.21 %
UVM_INFO axi4_lite_inp_monitor.sv(44) @ 2445: uvm_test_top.env.aa.inp_mon [INPUT MONITOR]  WRITE awaddr=00000018 wdata=53c6d8ac wstrb=0100 
UVM_INFO axi4_lite_out_monitor.sv(28) @ 2465: uvm_test_top.env.pa.out_mon [OUTPUT MONITOR] BRESP = 0 RRESP = 0 RDATA = 00000000
UVM_INFO axi4_lite_driver.sv(34) @ 2465: uvm_test_top.env.aa.drv [DRV] awaddr = 00000018 wdata = 53c6d8ac wstrb = 4 araddr = 31e6ebfc
UVM_INFO axi4_lite_scoreboard.sv(52) @ 2465: uvm_test_top.env.scb [BRESP] Matched : exp_bresp= 0 actual_bresp=0 write = 1 read = 0
UVM_INFO axi4_lite_subscriber.sv(41) @ 2505: uvm_test_top.env.sb [sb] INPUT COVERAGE = 80.21 %
UVM_INFO axi4_lite_inp_monitor.sv(44) @ 2505: uvm_test_top.env.aa.inp_mon [INPUT MONITOR]  WRITE awaddr=00000034 wdata=657f5838 wstrb=0111 
UVM_INFO axi4_lite_out_monitor.sv(28) @ 2525: uvm_test_top.env.pa.out_mon [OUTPUT MONITOR] BRESP = 0 RRESP = 0 RDATA = 00000000
UVM_INFO axi4_lite_driver.sv(34) @ 2525: uvm_test_top.env.aa.drv [DRV] awaddr = 00000034 wdata = 657f5838 wstrb = 7 araddr = e32a74e8
UVM_INFO axi4_lite_scoreboard.sv(52) @ 2525: uvm_test_top.env.scb [BRESP] Matched : exp_bresp= 0 actual_bresp=0 write = 1 read = 0
UVM_INFO axi4_lite_subscriber.sv(41) @ 2545: uvm_test_top.env.sb [sb] INPUT COVERAGE = 80.21 %
UVM_INFO axi4_lite_inp_monitor.sv(44) @ 2545: uvm_test_top.env.aa.inp_mon [INPUT MONITOR]  WRITE awaddr=00000028 wdata=6b2b32f6 wstrb=1101 
UVM_INFO axi4_lite_out_monitor.sv(28) @ 2565: uvm_test_top.env.pa.out_mon [OUTPUT MONITOR] BRESP = 2 RRESP = 0 RDATA = 00000000
UVM_INFO axi4_lite_driver.sv(34) @ 2565: uvm_test_top.env.aa.drv [DRV] awaddr = 00000028 wdata = 6b2b32f6 wstrb = d araddr = e3764510
UVM_INFO axi4_lite_scoreboard.sv(52) @ 2565: uvm_test_top.env.scb [BRESP] Matched : exp_bresp= 2 actual_bresp=2 write = 1 read = 0
UVM_INFO axi4_lite_subscriber.sv(41) @ 2595: uvm_test_top.env.sb [sb] INPUT COVERAGE = 80.21 %
UVM_INFO axi4_lite_inp_monitor.sv(44) @ 2595: uvm_test_top.env.aa.inp_mon [INPUT MONITOR]  WRITE awaddr=00000014 wdata=5e57c677 wstrb=1110 
UVM_INFO axi4_lite_out_monitor.sv(28) @ 2615: uvm_test_top.env.pa.out_mon [OUTPUT MONITOR] BRESP = 0 RRESP = 0 RDATA = 00000000
UVM_INFO axi4_lite_driver.sv(34) @ 2615: uvm_test_top.env.aa.drv [DRV] awaddr = 00000014 wdata = 5e57c677 wstrb = e araddr = 62ce8fb0
UVM_INFO axi4_lite_scoreboard.sv(52) @ 2615: uvm_test_top.env.scb [BRESP] Matched : exp_bresp= 0 actual_bresp=0 write = 1 read = 0
UVM_INFO axi4_lite_subscriber.sv(41) @ 2665: uvm_test_top.env.sb [sb] INPUT COVERAGE = 80.21 %
UVM_INFO axi4_lite_inp_monitor.sv(44) @ 2665: uvm_test_top.env.aa.inp_mon [INPUT MONITOR]  WRITE awaddr=00000028 wdata=53bdd874 wstrb=0011 
UVM_INFO axi4_lite_out_monitor.sv(28) @ 2685: uvm_test_top.env.pa.out_mon [OUTPUT MONITOR] BRESP = 2 RRESP = 0 RDATA = 00000000
UVM_INFO axi4_lite_driver.sv(34) @ 2685: uvm_test_top.env.aa.drv [DRV] awaddr = 00000028 wdata = 53bdd874 wstrb = 3 araddr = f7b3fc0c
UVM_INFO axi4_lite_scoreboard.sv(52) @ 2685: uvm_test_top.env.scb [BRESP] Matched : exp_bresp= 2 actual_bresp=2 write = 1 read = 0
UVM_INFO axi4_lite_subscriber.sv(41) @ 2735: uvm_test_top.env.sb [sb] INPUT COVERAGE = 80.21 %
UVM_INFO axi4_lite_inp_monitor.sv(44) @ 2735: uvm_test_top.env.aa.inp_mon [INPUT MONITOR]  WRITE awaddr=0000001c wdata=ad7abe4e wstrb=0000 
UVM_INFO axi4_lite_out_monitor.sv(28) @ 2755: uvm_test_top.env.pa.out_mon [OUTPUT MONITOR] BRESP = 0 RRESP = 0 RDATA = 00000000
UVM_INFO axi4_lite_driver.sv(34) @ 2755: uvm_test_top.env.aa.drv [DRV] awaddr = 0000001c wdata = ad7abe4e wstrb = 0 araddr = fa61a710
UVM_INFO axi4_lite_scoreboard.sv(52) @ 2755: uvm_test_top.env.scb [BRESP] Matched : exp_bresp= 0 actual_bresp=0 write = 1 read = 0
UVM_INFO axi4_lite_subscriber.sv(41) @ 2795: uvm_test_top.env.sb [sb] INPUT COVERAGE = 80.21 %
UVM_INFO axi4_lite_inp_monitor.sv(44) @ 2795: uvm_test_top.env.aa.inp_mon [INPUT MONITOR]  WRITE awaddr=00000034 wdata=3831e545 wstrb=1110 
UVM_INFO axi4_lite_out_monitor.sv(28) @ 2815: uvm_test_top.env.pa.out_mon [OUTPUT MONITOR] BRESP = 0 RRESP = 0 RDATA = 00000000
UVM_INFO axi4_lite_driver.sv(34) @ 2815: uvm_test_top.env.aa.drv [DRV] awaddr = 00000034 wdata = 3831e545 wstrb = e araddr = 360d2cb0
UVM_INFO axi4_lite_scoreboard.sv(52) @ 2815: uvm_test_top.env.scb [BRESP] Matched : exp_bresp= 0 actual_bresp=0 write = 1 read = 0
UVM_INFO axi4_lite_subscriber.sv(41) @ 2865: uvm_test_top.env.sb [sb] INPUT COVERAGE = 80.21 %
UVM_INFO axi4_lite_inp_monitor.sv(44) @ 2865: uvm_test_top.env.aa.inp_mon [INPUT MONITOR]  WRITE awaddr=00000030 wdata=99db18c4 wstrb=0101 
UVM_INFO axi4_lite_out_monitor.sv(28) @ 2885: uvm_test_top.env.pa.out_mon [OUTPUT MONITOR] BRESP = 2 RRESP = 0 RDATA = 00000000
UVM_INFO axi4_lite_driver.sv(34) @ 2885: uvm_test_top.env.aa.drv [DRV] awaddr = 00000030 wdata = 99db18c4 wstrb = 5 araddr = d588dbd4
UVM_INFO axi4_lite_scoreboard.sv(52) @ 2885: uvm_test_top.env.scb [BRESP] Matched : exp_bresp= 2 actual_bresp=2 write = 1 read = 0
UVM_INFO axi4_lite_subscriber.sv(41) @ 2915: uvm_test_top.env.sb [sb] INPUT COVERAGE = 80.21 %
UVM_INFO axi4_lite_inp_monitor.sv(44) @ 2915: uvm_test_top.env.aa.inp_mon [INPUT MONITOR]  WRITE awaddr=00000034 wdata=d3a94480 wstrb=1100 
UVM_INFO axi4_lite_out_monitor.sv(28) @ 2935: uvm_test_top.env.pa.out_mon [OUTPUT MONITOR] BRESP = 0 RRESP = 0 RDATA = 00000000
UVM_INFO axi4_lite_driver.sv(34) @ 2935: uvm_test_top.env.aa.drv [DRV] awaddr = 00000034 wdata = d3a94480 wstrb = c araddr = a3231100
UVM_INFO axi4_lite_scoreboard.sv(52) @ 2935: uvm_test_top.env.scb [BRESP] Matched : exp_bresp= 0 actual_bresp=0 write = 1 read = 0
UVM_INFO axi4_lite_subscriber.sv(41) @ 2965: uvm_test_top.env.sb [sb] INPUT COVERAGE = 83.33 %
UVM_INFO axi4_lite_inp_monitor.sv(44) @ 2965: uvm_test_top.env.aa.inp_mon [INPUT MONITOR]  WRITE awaddr=00000024 wdata=b21599ea wstrb=0001 
UVM_INFO axi4_lite_out_monitor.sv(28) @ 2985: uvm_test_top.env.pa.out_mon [OUTPUT MONITOR] BRESP = 0 RRESP = 0 RDATA = 00000000
UVM_INFO axi4_lite_driver.sv(34) @ 2985: uvm_test_top.env.aa.drv [DRV] awaddr = 00000024 wdata = b21599ea wstrb = 1 araddr = 94c36df0
UVM_INFO axi4_lite_scoreboard.sv(52) @ 2985: uvm_test_top.env.scb [BRESP] Matched : exp_bresp= 0 actual_bresp=0 write = 1 read = 0
UVM_INFO axi4_lite_subscriber.sv(41) @ 3015: uvm_test_top.env.sb [sb] INPUT COVERAGE = 83.33 %
UVM_INFO axi4_lite_inp_monitor.sv(44) @ 3015: uvm_test_top.env.aa.inp_mon [INPUT MONITOR]  WRITE awaddr=00000004 wdata=974edbc0 wstrb=0010 
UVM_INFO axi4_lite_out_monitor.sv(28) @ 3035: uvm_test_top.env.pa.out_mon [OUTPUT MONITOR] BRESP = 0 RRESP = 0 RDATA = 00000000
UVM_INFO axi4_lite_driver.sv(34) @ 3035: uvm_test_top.env.aa.drv [DRV] awaddr = 00000004 wdata = 974edbc0 wstrb = 2 araddr = e6b883e4
UVM_INFO axi4_lite_scoreboard.sv(52) @ 3035: uvm_test_top.env.scb [BRESP] Matched : exp_bresp= 0 actual_bresp=0 write = 1 read = 0
UVM_INFO axi4_lite_subscriber.sv(41) @ 3055: uvm_test_top.env.sb [sb] INPUT COVERAGE = 83.33 %
UVM_INFO axi4_lite_inp_monitor.sv(44) @ 3055: uvm_test_top.env.aa.inp_mon [INPUT MONITOR]  WRITE awaddr=00000008 wdata=df97a8d4 wstrb=1000 
UVM_INFO axi4_lite_out_monitor.sv(28) @ 3075: uvm_test_top.env.pa.out_mon [OUTPUT MONITOR] BRESP = 0 RRESP = 0 RDATA = 00000000
UVM_INFO axi4_lite_driver.sv(34) @ 3075: uvm_test_top.env.aa.drv [DRV] awaddr = 00000008 wdata = df97a8d4 wstrb = 8 araddr = 73f13228
UVM_INFO axi4_lite_scoreboard.sv(52) @ 3075: uvm_test_top.env.scb [BRESP] Matched : exp_bresp= 0 actual_bresp=0 write = 1 read = 0
UVM_INFO axi4_lite_subscriber.sv(41) @ 3125: uvm_test_top.env.sb [sb] INPUT COVERAGE = 83.33 %
UVM_INFO axi4_lite_inp_monitor.sv(44) @ 3125: uvm_test_top.env.aa.inp_mon [INPUT MONITOR]  WRITE awaddr=00000028 wdata=7bd294ed wstrb=1100 
UVM_INFO axi4_lite_out_monitor.sv(28) @ 3145: uvm_test_top.env.pa.out_mon [OUTPUT MONITOR] BRESP = 2 RRESP = 0 RDATA = 00000000
UVM_INFO axi4_lite_driver.sv(34) @ 3145: uvm_test_top.env.aa.drv [DRV] awaddr = 00000028 wdata = 7bd294ed wstrb = c araddr = 9ee67e08
UVM_INFO axi4_lite_scoreboard.sv(52) @ 3145: uvm_test_top.env.scb [BRESP] Matched : exp_bresp= 2 actual_bresp=2 write = 1 read = 0
UVM_INFO axi4_lite_subscriber.sv(41) @ 3175: uvm_test_top.env.sb [sb] INPUT COVERAGE = 83.33 %
UVM_INFO axi4_lite_inp_monitor.sv(44) @ 3175: uvm_test_top.env.aa.inp_mon [INPUT MONITOR]  WRITE awaddr=00000038 wdata=d6ffdc7a wstrb=1111 
UVM_INFO axi4_lite_out_monitor.sv(28) @ 3195: uvm_test_top.env.pa.out_mon [OUTPUT MONITOR] BRESP = 0 RRESP = 0 RDATA = 00000000
UVM_INFO axi4_lite_driver.sv(34) @ 3195: uvm_test_top.env.aa.drv [DRV] awaddr = 00000038 wdata = d6ffdc7a wstrb = f araddr = b0bcec60
UVM_INFO axi4_lite_scoreboard.sv(52) @ 3195: uvm_test_top.env.scb [BRESP] Matched : exp_bresp= 0 actual_bresp=0 write = 1 read = 0
UVM_INFO axi4_lite_subscriber.sv(41) @ 3235: uvm_test_top.env.sb [sb] INPUT COVERAGE = 83.33 %
UVM_INFO axi4_lite_inp_monitor.sv(44) @ 3235: uvm_test_top.env.aa.inp_mon [INPUT MONITOR]  WRITE awaddr=00000004 wdata=3b7e4293 wstrb=0001 
UVM_INFO axi4_lite_out_monitor.sv(28) @ 3255: uvm_test_top.env.pa.out_mon [OUTPUT MONITOR] BRESP = 0 RRESP = 0 RDATA = 00000000
UVM_INFO axi4_lite_driver.sv(34) @ 3255: uvm_test_top.env.aa.drv [DRV] awaddr = 00000004 wdata = 3b7e4293 wstrb = 1 araddr = 02dc7e84
UVM_INFO axi4_lite_scoreboard.sv(52) @ 3255: uvm_test_top.env.scb [BRESP] Matched : exp_bresp= 0 actual_bresp=0 write = 1 read = 0
UVM_INFO axi4_lite_subscriber.sv(41) @ 3275: uvm_test_top.env.sb [sb] INPUT COVERAGE = 83.33 %
UVM_INFO axi4_lite_inp_monitor.sv(44) @ 3275: uvm_test_top.env.aa.inp_mon [INPUT MONITOR]  WRITE awaddr=00000004 wdata=456f9cb2 wstrb=1111 
UVM_INFO axi4_lite_out_monitor.sv(28) @ 3295: uvm_test_top.env.pa.out_mon [OUTPUT MONITOR] BRESP = 0 RRESP = 0 RDATA = 00000000
UVM_INFO axi4_lite_driver.sv(34) @ 3295: uvm_test_top.env.aa.drv [DRV] awaddr = 00000004 wdata = 456f9cb2 wstrb = f araddr = 6a85166c
UVM_INFO axi4_lite_scoreboard.sv(52) @ 3295: uvm_test_top.env.scb [BRESP] Matched : exp_bresp= 0 actual_bresp=0 write = 1 read = 0
UVM_INFO axi4_lite_subscriber.sv(41) @ 3325: uvm_test_top.env.sb [sb] INPUT COVERAGE = 83.33 %
UVM_INFO axi4_lite_inp_monitor.sv(44) @ 3325: uvm_test_top.env.aa.inp_mon [INPUT MONITOR]  WRITE awaddr=00000024 wdata=d11b6f9f wstrb=0110 
UVM_INFO axi4_lite_out_monitor.sv(28) @ 3345: uvm_test_top.env.pa.out_mon [OUTPUT MONITOR] BRESP = 0 RRESP = 0 RDATA = 00000000
UVM_INFO axi4_lite_driver.sv(34) @ 3345: uvm_test_top.env.aa.drv [DRV] awaddr = 00000024 wdata = d11b6f9f wstrb = 6 araddr = 42b897ac
UVM_INFO axi4_lite_scoreboard.sv(52) @ 3345: uvm_test_top.env.scb [BRESP] Matched : exp_bresp= 0 actual_bresp=0 write = 1 read = 0
UVM_INFO axi4_lite_subscriber.sv(41) @ 3395: uvm_test_top.env.sb [sb] INPUT COVERAGE = 83.33 %
UVM_INFO axi4_lite_inp_monitor.sv(44) @ 3395: uvm_test_top.env.aa.inp_mon [INPUT MONITOR]  WRITE awaddr=00000018 wdata=ac8ce6f4 wstrb=0010 
UVM_INFO axi4_lite_out_monitor.sv(28) @ 3415: uvm_test_top.env.pa.out_mon [OUTPUT MONITOR] BRESP = 0 RRESP = 0 RDATA = 00000000
UVM_INFO axi4_lite_driver.sv(34) @ 3415: uvm_test_top.env.aa.drv [DRV] awaddr = 00000018 wdata = ac8ce6f4 wstrb = 2 araddr = efa74058
UVM_INFO axi4_lite_scoreboard.sv(52) @ 3415: uvm_test_top.env.scb [BRESP] Matched : exp_bresp= 0 actual_bresp=0 write = 1 read = 0
UVM_INFO axi4_lite_subscriber.sv(41) @ 3455: uvm_test_top.env.sb [sb] INPUT COVERAGE = 83.33 %
UVM_INFO axi4_lite_inp_monitor.sv(44) @ 3455: uvm_test_top.env.aa.inp_mon [INPUT MONITOR]  WRITE awaddr=0000000c wdata=53df7fb6 wstrb=1001 
UVM_INFO axi4_lite_out_monitor.sv(28) @ 3475: uvm_test_top.env.pa.out_mon [OUTPUT MONITOR] BRESP = 0 RRESP = 0 RDATA = 00000000
UVM_INFO axi4_lite_driver.sv(34) @ 3475: uvm_test_top.env.aa.drv [DRV] awaddr = 0000000c wdata = 53df7fb6 wstrb = 9 araddr = a5d57d58
UVM_INFO axi4_lite_scoreboard.sv(52) @ 3475: uvm_test_top.env.scb [BRESP] Matched : exp_bresp= 0 actual_bresp=0 write = 1 read = 0
UVM_INFO axi4_lite_subscriber.sv(41) @ 3515: uvm_test_top.env.sb [sb] INPUT COVERAGE = 83.33 %
UVM_INFO axi4_lite_inp_monitor.sv(44) @ 3515: uvm_test_top.env.aa.inp_mon [INPUT MONITOR]  WRITE awaddr=00000030 wdata=edc74e96 wstrb=0100 
UVM_INFO axi4_lite_out_monitor.sv(28) @ 3535: uvm_test_top.env.pa.out_mon [OUTPUT MONITOR] BRESP = 2 RRESP = 0 RDATA = 00000000
UVM_INFO axi4_lite_driver.sv(34) @ 3535: uvm_test_top.env.aa.drv [DRV] awaddr = 00000030 wdata = edc74e96 wstrb = 4 araddr = c917d268
UVM_INFO axi4_lite_scoreboard.sv(52) @ 3535: uvm_test_top.env.scb [BRESP] Matched : exp_bresp= 2 actual_bresp=2 write = 1 read = 0
UVM_INFO axi4_lite_subscriber.sv(41) @ 3575: uvm_test_top.env.sb [sb] INPUT COVERAGE = 83.33 %
UVM_INFO axi4_lite_inp_monitor.sv(44) @ 3575: uvm_test_top.env.aa.inp_mon [INPUT MONITOR]  WRITE awaddr=0000002c wdata=5219782d wstrb=1000 
UVM_INFO axi4_lite_out_monitor.sv(28) @ 3595: uvm_test_top.env.pa.out_mon [OUTPUT MONITOR] BRESP = 2 RRESP = 0 RDATA = 00000000
UVM_INFO axi4_lite_driver.sv(34) @ 3595: uvm_test_top.env.aa.drv [DRV] awaddr = 0000002c wdata = 5219782d wstrb = 8 araddr = b5fc8820
UVM_INFO axi4_lite_scoreboard.sv(52) @ 3595: uvm_test_top.env.scb [BRESP] Matched : exp_bresp= 2 actual_bresp=2 write = 1 read = 0
UVM_INFO axi4_lite_subscriber.sv(41) @ 3645: uvm_test_top.env.sb [sb] INPUT COVERAGE = 83.33 %
UVM_INFO axi4_lite_inp_monitor.sv(44) @ 3645: uvm_test_top.env.aa.inp_mon [INPUT MONITOR]  WRITE awaddr=00000028 wdata=3bf02831 wstrb=0101 
UVM_INFO axi4_lite_out_monitor.sv(28) @ 3665: uvm_test_top.env.pa.out_mon [OUTPUT MONITOR] BRESP = 2 RRESP = 0 RDATA = 00000000
UVM_INFO axi4_lite_driver.sv(34) @ 3665: uvm_test_top.env.aa.drv [DRV] awaddr = 00000028 wdata = 3bf02831 wstrb = 5 araddr = f1382f2c
UVM_INFO axi4_lite_scoreboard.sv(52) @ 3665: uvm_test_top.env.scb [BRESP] Matched : exp_bresp= 2 actual_bresp=2 write = 1 read = 0
UVM_INFO axi4_lite_subscriber.sv(41) @ 3685: uvm_test_top.env.sb [sb] INPUT COVERAGE = 83.33 %
UVM_INFO axi4_lite_inp_monitor.sv(44) @ 3685: uvm_test_top.env.aa.inp_mon [INPUT MONITOR]  WRITE awaddr=00000038 wdata=bfb184c0 wstrb=0111 
UVM_INFO axi4_lite_out_monitor.sv(28) @ 3705: uvm_test_top.env.pa.out_mon [OUTPUT MONITOR] BRESP = 0 RRESP = 0 RDATA = 00000000
UVM_INFO axi4_lite_driver.sv(34) @ 3705: uvm_test_top.env.aa.drv [DRV] awaddr = 00000038 wdata = bfb184c0 wstrb = 7 araddr = 770043f8
UVM_INFO axi4_lite_scoreboard.sv(52) @ 3705: uvm_test_top.env.scb [BRESP] Matched : exp_bresp= 0 actual_bresp=0 write = 1 read = 0
UVM_INFO axi4_lite_subscriber.sv(41) @ 3745: uvm_test_top.env.sb [sb] INPUT COVERAGE = 83.33 %
UVM_INFO axi4_lite_inp_monitor.sv(44) @ 3745: uvm_test_top.env.aa.inp_mon [INPUT MONITOR]  WRITE awaddr=0000001c wdata=67830f5f wstrb=1101 
UVM_INFO axi4_lite_out_monitor.sv(28) @ 3765: uvm_test_top.env.pa.out_mon [OUTPUT MONITOR] BRESP = 0 RRESP = 0 RDATA = 00000000
UVM_INFO axi4_lite_driver.sv(34) @ 3765: uvm_test_top.env.aa.drv [DRV] awaddr = 0000001c wdata = 67830f5f wstrb = d araddr = cddea8a4
UVM_INFO axi4_lite_scoreboard.sv(52) @ 3765: uvm_test_top.env.scb [BRESP] Matched : exp_bresp= 0 actual_bresp=0 write = 1 read = 0
UVM_INFO axi4_lite_subscriber.sv(41) @ 3805: uvm_test_top.env.sb [sb] INPUT COVERAGE = 83.33 %
UVM_INFO axi4_lite_inp_monitor.sv(44) @ 3805: uvm_test_top.env.aa.inp_mon [INPUT MONITOR]  WRITE awaddr=0000001c wdata=3bd6e21d wstrb=1011 
UVM_INFO axi4_lite_out_monitor.sv(28) @ 3825: uvm_test_top.env.pa.out_mon [OUTPUT MONITOR] BRESP = 0 RRESP = 0 RDATA = 00000000
UVM_INFO axi4_lite_driver.sv(34) @ 3825: uvm_test_top.env.aa.drv [DRV] awaddr = 0000001c wdata = 3bd6e21d wstrb = b araddr = ea5e954c
UVM_INFO axi4_lite_scoreboard.sv(52) @ 3825: uvm_test_top.env.scb [BRESP] Matched : exp_bresp= 0 actual_bresp=0 write = 1 read = 0
UVM_INFO axi4_lite_subscriber.sv(41) @ 3865: uvm_test_top.env.sb [sb] INPUT COVERAGE = 83.33 %
UVM_INFO axi4_lite_inp_monitor.sv(44) @ 3865: uvm_test_top.env.aa.inp_mon [INPUT MONITOR]  WRITE awaddr=00000018 wdata=5f47a46f wstrb=1010 
UVM_INFO axi4_lite_out_monitor.sv(28) @ 3885: uvm_test_top.env.pa.out_mon [OUTPUT MONITOR] BRESP = 0 RRESP = 0 RDATA = 00000000
UVM_INFO axi4_lite_driver.sv(34) @ 3885: uvm_test_top.env.aa.drv [DRV] awaddr = 00000018 wdata = 5f47a46f wstrb = a araddr = 1f7fb320
UVM_INFO axi4_lite_scoreboard.sv(52) @ 3885: uvm_test_top.env.scb [BRESP] Matched : exp_bresp= 0 actual_bresp=0 write = 1 read = 0
UVM_INFO axi4_lite_subscriber.sv(41) @ 3925: uvm_test_top.env.sb [sb] INPUT COVERAGE = 83.33 %
UVM_INFO axi4_lite_inp_monitor.sv(44) @ 3925: uvm_test_top.env.aa.inp_mon [INPUT MONITOR]  WRITE awaddr=00000024 wdata=e8b79e31 wstrb=1101 
UVM_INFO axi4_lite_out_monitor.sv(28) @ 3945: uvm_test_top.env.pa.out_mon [OUTPUT MONITOR] BRESP = 0 RRESP = 0 RDATA = 00000000
UVM_INFO axi4_lite_driver.sv(34) @ 3945: uvm_test_top.env.aa.drv [DRV] awaddr = 00000024 wdata = e8b79e31 wstrb = d araddr = ab20eb2c
UVM_INFO axi4_lite_scoreboard.sv(52) @ 3945: uvm_test_top.env.scb [BRESP] Matched : exp_bresp= 0 actual_bresp=0 write = 1 read = 0
UVM_INFO axi4_lite_subscriber.sv(41) @ 3985: uvm_test_top.env.sb [sb] INPUT COVERAGE = 83.33 %
UVM_INFO axi4_lite_inp_monitor.sv(44) @ 3985: uvm_test_top.env.aa.inp_mon [INPUT MONITOR]  WRITE awaddr=0000002c wdata=9e5610f5 wstrb=0111 
UVM_INFO axi4_lite_out_monitor.sv(28) @ 4005: uvm_test_top.env.pa.out_mon [OUTPUT MONITOR] BRESP = 2 RRESP = 0 RDATA = 00000000
UVM_INFO axi4_lite_driver.sv(34) @ 4005: uvm_test_top.env.aa.drv [DRV] awaddr = 0000002c wdata = 9e5610f5 wstrb = 7 araddr = 3b7e6c10
UVM_INFO axi4_lite_scoreboard.sv(52) @ 4005: uvm_test_top.env.scb [BRESP] Matched : exp_bresp= 2 actual_bresp=2 write = 1 read = 0
UVM_INFO axi4_lite_subscriber.sv(41) @ 4025: uvm_test_top.env.sb [sb] INPUT COVERAGE = 83.33 %
UVM_INFO axi4_lite_inp_monitor.sv(44) @ 4025: uvm_test_top.env.aa.inp_mon [INPUT MONITOR]  WRITE awaddr=00000024 wdata=9def5011 wstrb=1111 
UVM_INFO axi4_lite_out_monitor.sv(28) @ 4045: uvm_test_top.env.pa.out_mon [OUTPUT MONITOR] BRESP = 0 RRESP = 0 RDATA = 00000000
UVM_INFO axi4_lite_driver.sv(34) @ 4045: uvm_test_top.env.aa.drv [DRV] awaddr = 00000024 wdata = 9def5011 wstrb = f araddr = c8c949d0
UVM_INFO axi4_lite_scoreboard.sv(52) @ 4045: uvm_test_top.env.scb [BRESP] Matched : exp_bresp= 0 actual_bresp=0 write = 1 read = 0
UVM_INFO axi4_lite_subscriber.sv(41) @ 4085: uvm_test_top.env.sb [sb] INPUT COVERAGE = 83.33 %
UVM_INFO axi4_lite_inp_monitor.sv(44) @ 4085: uvm_test_top.env.aa.inp_mon [INPUT MONITOR]  WRITE awaddr=00000014 wdata=ab1a8312 wstrb=1011 
UVM_INFO axi4_lite_out_monitor.sv(28) @ 4105: uvm_test_top.env.pa.out_mon [OUTPUT MONITOR] BRESP = 0 RRESP = 0 RDATA = 00000000
UVM_INFO axi4_lite_driver.sv(34) @ 4105: uvm_test_top.env.aa.drv [DRV] awaddr = 00000014 wdata = ab1a8312 wstrb = b araddr = 443ed604
UVM_INFO axi4_lite_scoreboard.sv(52) @ 4105: uvm_test_top.env.scb [BRESP] Matched : exp_bresp= 0 actual_bresp=0 write = 1 read = 0
UVM_INFO axi4_lite_subscriber.sv(41) @ 4145: uvm_test_top.env.sb [sb] INPUT COVERAGE = 83.33 %
UVM_INFO axi4_lite_inp_monitor.sv(44) @ 4145: uvm_test_top.env.aa.inp_mon [INPUT MONITOR]  WRITE awaddr=00000034 wdata=93a1da74 wstrb=1100 
UVM_INFO axi4_lite_out_monitor.sv(28) @ 4165: uvm_test_top.env.pa.out_mon [OUTPUT MONITOR] BRESP = 0 RRESP = 0 RDATA = 00000000
UVM_INFO axi4_lite_driver.sv(34) @ 4165: uvm_test_top.env.aa.drv [DRV] awaddr = 00000034 wdata = 93a1da74 wstrb = c araddr = f21648a4
UVM_INFO axi4_lite_scoreboard.sv(52) @ 4165: uvm_test_top.env.scb [BRESP] Matched : exp_bresp= 0 actual_bresp=0 write = 1 read = 0
UVM_INFO axi4_lite_subscriber.sv(41) @ 4205: uvm_test_top.env.sb [sb] INPUT COVERAGE = 83.33 %
UVM_INFO axi4_lite_inp_monitor.sv(44) @ 4205: uvm_test_top.env.aa.inp_mon [INPUT MONITOR]  WRITE awaddr=00000000 wdata=892e6b7f wstrb=0100 
UVM_INFO axi4_lite_out_monitor.sv(28) @ 4225: uvm_test_top.env.pa.out_mon [OUTPUT MONITOR] BRESP = 0 RRESP = 0 RDATA = 00000000
UVM_INFO axi4_lite_driver.sv(34) @ 4225: uvm_test_top.env.aa.drv [DRV] awaddr = 00000000 wdata = 892e6b7f wstrb = 4 araddr = b3d1a3d4
UVM_INFO axi4_lite_scoreboard.sv(52) @ 4225: uvm_test_top.env.scb [BRESP] Matched : exp_bresp= 0 actual_bresp=0 write = 1 read = 0
UVM_INFO axi4_lite_subscriber.sv(41) @ 4245: uvm_test_top.env.sb [sb] INPUT COVERAGE = 83.33 %
UVM_INFO axi4_lite_inp_monitor.sv(44) @ 4245: uvm_test_top.env.aa.inp_mon [INPUT MONITOR]  WRITE awaddr=00000018 wdata=efd04f6b wstrb=0010 
UVM_INFO axi4_lite_out_monitor.sv(28) @ 4265: uvm_test_top.env.pa.out_mon [OUTPUT MONITOR] BRESP = 0 RRESP = 0 RDATA = 00000000
UVM_INFO axi4_lite_driver.sv(34) @ 4265: uvm_test_top.env.aa.drv [DRV] awaddr = 00000018 wdata = efd04f6b wstrb = 2 araddr = 32c5d994
UVM_INFO axi4_lite_scoreboard.sv(52) @ 4265: uvm_test_top.env.scb [BRESP] Matched : exp_bresp= 0 actual_bresp=0 write = 1 read = 0
UVM_INFO axi4_lite_subscriber.sv(41) @ 4285: uvm_test_top.env.sb [sb] INPUT COVERAGE = 83.33 %
UVM_INFO axi4_lite_inp_monitor.sv(44) @ 4285: uvm_test_top.env.aa.inp_mon [INPUT MONITOR]  WRITE awaddr=00000024 wdata=84ab595e wstrb=1110 
UVM_INFO axi4_lite_out_monitor.sv(28) @ 4305: uvm_test_top.env.pa.out_mon [OUTPUT MONITOR] BRESP = 0 RRESP = 0 RDATA = 00000000
UVM_INFO axi4_lite_driver.sv(34) @ 4305: uvm_test_top.env.aa.drv [DRV] awaddr = 00000024 wdata = 84ab595e wstrb = e araddr = 6808a3cc
UVM_INFO axi4_lite_scoreboard.sv(52) @ 4305: uvm_test_top.env.scb [BRESP] Matched : exp_bresp= 0 actual_bresp=0 write = 1 read = 0
UVM_INFO axi4_lite_subscriber.sv(41) @ 4335: uvm_test_top.env.sb [sb] INPUT COVERAGE = 83.33 %
UVM_INFO axi4_lite_inp_monitor.sv(44) @ 4335: uvm_test_top.env.aa.inp_mon [INPUT MONITOR]  WRITE awaddr=00000000 wdata=14cd9827 wstrb=0100 
UVM_INFO axi4_lite_out_monitor.sv(28) @ 4355: uvm_test_top.env.pa.out_mon [OUTPUT MONITOR] BRESP = 0 RRESP = 0 RDATA = 00000000
UVM_INFO axi4_lite_driver.sv(34) @ 4355: uvm_test_top.env.aa.drv [DRV] awaddr = 00000000 wdata = 14cd9827 wstrb = 4 araddr = 24563dc8
UVM_INFO axi4_lite_scoreboard.sv(52) @ 4355: uvm_test_top.env.scb [BRESP] Matched : exp_bresp= 0 actual_bresp=0 write = 1 read = 0
UVM_INFO axi4_lite_subscriber.sv(41) @ 4385: uvm_test_top.env.sb [sb] INPUT COVERAGE = 83.33 %
UVM_INFO axi4_lite_inp_monitor.sv(44) @ 4385: uvm_test_top.env.aa.inp_mon [INPUT MONITOR]  WRITE awaddr=00000014 wdata=1a285591 wstrb=0101 
UVM_INFO axi4_lite_out_monitor.sv(28) @ 4405: uvm_test_top.env.pa.out_mon [OUTPUT MONITOR] BRESP = 0 RRESP = 0 RDATA = 00000000
UVM_INFO axi4_lite_driver.sv(34) @ 4405: uvm_test_top.env.aa.drv [DRV] awaddr = 00000014 wdata = 1a285591 wstrb = 5 araddr = 8b4a84a0
UVM_INFO axi4_lite_scoreboard.sv(52) @ 4405: uvm_test_top.env.scb [BRESP] Matched : exp_bresp= 0 actual_bresp=0 write = 1 read = 0
UVM_INFO axi4_lite_subscriber.sv(41) @ 4455: uvm_test_top.env.sb [sb] INPUT COVERAGE = 83.33 %
UVM_INFO axi4_lite_inp_monitor.sv(44) @ 4455: uvm_test_top.env.aa.inp_mon [INPUT MONITOR]  WRITE awaddr=00000030 wdata=43e71351 wstrb=1001 
UVM_INFO axi4_lite_out_monitor.sv(28) @ 4475: uvm_test_top.env.pa.out_mon [OUTPUT MONITOR] BRESP = 2 RRESP = 0 RDATA = 00000000
UVM_INFO axi4_lite_driver.sv(34) @ 4475: uvm_test_top.env.aa.drv [DRV] awaddr = 00000030 wdata = 43e71351 wstrb = 9 araddr = e4a0eb34
UVM_INFO axi4_lite_scoreboard.sv(52) @ 4475: uvm_test_top.env.scb [BRESP] Matched : exp_bresp= 2 actual_bresp=2 write = 1 read = 0
UVM_INFO axi4_lite_subscriber.sv(41) @ 4505: uvm_test_top.env.sb [sb] INPUT COVERAGE = 83.33 %
UVM_INFO axi4_lite_inp_monitor.sv(44) @ 4505: uvm_test_top.env.aa.inp_mon [INPUT MONITOR]  WRITE awaddr=0000000c wdata=826d9949 wstrb=0000 
UVM_INFO axi4_lite_out_monitor.sv(28) @ 4525: uvm_test_top.env.pa.out_mon [OUTPUT MONITOR] BRESP = 0 RRESP = 0 RDATA = 00000000
UVM_INFO axi4_lite_driver.sv(34) @ 4525: uvm_test_top.env.aa.drv [DRV] awaddr = 0000000c wdata = 826d9949 wstrb = 0 araddr = 6eb21424
UVM_INFO axi4_lite_scoreboard.sv(52) @ 4525: uvm_test_top.env.scb [BRESP] Matched : exp_bresp= 0 actual_bresp=0 write = 1 read = 0
UVM_INFO axi4_lite_subscriber.sv(41) @ 4565: uvm_test_top.env.sb [sb] INPUT COVERAGE = 83.33 %
UVM_INFO axi4_lite_inp_monitor.sv(44) @ 4565: uvm_test_top.env.aa.inp_mon [INPUT MONITOR]  WRITE awaddr=00000004 wdata=6d7ead8d wstrb=1111 
UVM_INFO axi4_lite_out_monitor.sv(28) @ 4585: uvm_test_top.env.pa.out_mon [OUTPUT MONITOR] BRESP = 0 RRESP = 0 RDATA = 00000000
UVM_INFO axi4_lite_driver.sv(34) @ 4585: uvm_test_top.env.aa.drv [DRV] awaddr = 00000004 wdata = 6d7ead8d wstrb = f araddr = 9318675c
UVM_INFO axi4_lite_scoreboard.sv(52) @ 4585: uvm_test_top.env.scb [BRESP] Matched : exp_bresp= 0 actual_bresp=0 write = 1 read = 0
UVM_INFO axi4_lite_subscriber.sv(41) @ 4625: uvm_test_top.env.sb [sb] INPUT COVERAGE = 83.33 %
UVM_INFO axi4_lite_inp_monitor.sv(44) @ 4625: uvm_test_top.env.aa.inp_mon [INPUT MONITOR]  WRITE awaddr=00000020 wdata=d18b7818 wstrb=0110 
UVM_INFO axi4_lite_out_monitor.sv(28) @ 4645: uvm_test_top.env.pa.out_mon [OUTPUT MONITOR] BRESP = 0 RRESP = 0 RDATA = 00000000
UVM_INFO axi4_lite_driver.sv(34) @ 4645: uvm_test_top.env.aa.drv [DRV] awaddr = 00000020 wdata = d18b7818 wstrb = 6 araddr = 0357fc2c
UVM_INFO axi4_lite_scoreboard.sv(52) @ 4645: uvm_test_top.env.scb [BRESP] Matched : exp_bresp= 0 actual_bresp=0 write = 1 read = 0
UVM_INFO axi4_lite_subscriber.sv(41) @ 4675: uvm_test_top.env.sb [sb] INPUT COVERAGE = 83.33 %
UVM_INFO axi4_lite_inp_monitor.sv(44) @ 4675: uvm_test_top.env.aa.inp_mon [INPUT MONITOR]  WRITE awaddr=00000004 wdata=866b462b wstrb=1110 
UVM_INFO axi4_lite_out_monitor.sv(28) @ 4695: uvm_test_top.env.pa.out_mon [OUTPUT MONITOR] BRESP = 0 RRESP = 0 RDATA = 00000000
UVM_INFO axi4_lite_driver.sv(34) @ 4695: uvm_test_top.env.aa.drv [DRV] awaddr = 00000004 wdata = 866b462b wstrb = e araddr = 4eaaf878
UVM_INFO axi4_lite_scoreboard.sv(52) @ 4695: uvm_test_top.env.scb [BRESP] Matched : exp_bresp= 0 actual_bresp=0 write = 1 read = 0
UVM_INFO axi4_lite_subscriber.sv(41) @ 4745: uvm_test_top.env.sb [sb] INPUT COVERAGE = 83.33 %
UVM_INFO axi4_lite_inp_monitor.sv(44) @ 4745: uvm_test_top.env.aa.inp_mon [INPUT MONITOR]  WRITE awaddr=00000014 wdata=2f41b806 wstrb=1111 
UVM_INFO axi4_lite_out_monitor.sv(28) @ 4765: uvm_test_top.env.pa.out_mon [OUTPUT MONITOR] BRESP = 0 RRESP = 0 RDATA = 00000000
UVM_INFO axi4_lite_driver.sv(34) @ 4765: uvm_test_top.env.aa.drv [DRV] awaddr = 00000014 wdata = 2f41b806 wstrb = f araddr = f549baf8
UVM_INFO axi4_lite_scoreboard.sv(52) @ 4765: uvm_test_top.env.scb [BRESP] Matched : exp_bresp= 0 actual_bresp=0 write = 1 read = 0
UVM_INFO axi4_lite_subscriber.sv(41) @ 4795: uvm_test_top.env.sb [sb] INPUT COVERAGE = 83.33 %
UVM_INFO axi4_lite_inp_monitor.sv(44) @ 4795: uvm_test_top.env.aa.inp_mon [INPUT MONITOR]  WRITE awaddr=0000002c wdata=72d1a88c wstrb=0110 
UVM_INFO axi4_lite_out_monitor.sv(28) @ 4815: uvm_test_top.env.pa.out_mon [OUTPUT MONITOR] BRESP = 2 RRESP = 0 RDATA = 00000000
UVM_INFO axi4_lite_driver.sv(34) @ 4815: uvm_test_top.env.aa.drv [DRV] awaddr = 0000002c wdata = 72d1a88c wstrb = 6 araddr = 16d60acc
UVM_INFO axi4_lite_scoreboard.sv(52) @ 4815: uvm_test_top.env.scb [BRESP] Matched : exp_bresp= 2 actual_bresp=2 write = 1 read = 0
UVM_INFO axi4_lite_subscriber.sv(41) @ 4865: uvm_test_top.env.sb [sb] INPUT COVERAGE = 83.33 %
UVM_INFO axi4_lite_inp_monitor.sv(44) @ 4865: uvm_test_top.env.aa.inp_mon [INPUT MONITOR]  WRITE awaddr=00000008 wdata=5c653b1e wstrb=1010 
UVM_INFO axi4_lite_out_monitor.sv(28) @ 4885: uvm_test_top.env.pa.out_mon [OUTPUT MONITOR] BRESP = 0 RRESP = 0 RDATA = 00000000
UVM_INFO axi4_lite_driver.sv(34) @ 4885: uvm_test_top.env.aa.drv [DRV] awaddr = 00000008 wdata = 5c653b1e wstrb = a araddr = 87e953e8
UVM_INFO axi4_lite_scoreboard.sv(52) @ 4885: uvm_test_top.env.scb [BRESP] Matched : exp_bresp= 0 actual_bresp=0 write = 1 read = 0
UVM_INFO axi4_lite_subscriber.sv(41) @ 4915: uvm_test_top.env.sb [sb] INPUT COVERAGE = 83.33 %
UVM_INFO axi4_lite_inp_monitor.sv(44) @ 4915: uvm_test_top.env.aa.inp_mon [INPUT MONITOR]  WRITE awaddr=0000002c wdata=341185fb wstrb=0110 
UVM_INFO axi4_lite_out_monitor.sv(28) @ 4935: uvm_test_top.env.pa.out_mon [OUTPUT MONITOR] BRESP = 2 RRESP = 0 RDATA = 00000000
UVM_INFO axi4_lite_driver.sv(34) @ 4935: uvm_test_top.env.aa.drv [DRV] awaddr = 0000002c wdata = 341185fb wstrb = 6 araddr = 1813ea88
UVM_INFO axi4_lite_scoreboard.sv(52) @ 4935: uvm_test_top.env.scb [BRESP] Matched : exp_bresp= 2 actual_bresp=2 write = 1 read = 0
UVM_INFO axi4_lite_subscriber.sv(41) @ 4975: uvm_test_top.env.sb [sb] INPUT COVERAGE = 83.33 %
UVM_INFO axi4_lite_inp_monitor.sv(44) @ 4975: uvm_test_top.env.aa.inp_mon [INPUT MONITOR]  WRITE awaddr=00000008 wdata=cde319dc wstrb=0101 
UVM_INFO axi4_lite_out_monitor.sv(28) @ 4995: uvm_test_top.env.pa.out_mon [OUTPUT MONITOR] BRESP = 0 RRESP = 0 RDATA = 00000000
UVM_INFO axi4_lite_driver.sv(34) @ 4995: uvm_test_top.env.aa.drv [DRV] awaddr = 00000008 wdata = cde319dc wstrb = 5 araddr = 63fb0140
UVM_INFO axi4_lite_scoreboard.sv(52) @ 4995: uvm_test_top.env.scb [BRESP] Matched : exp_bresp= 0 actual_bresp=0 write = 1 read = 0
UVM_INFO axi4_lite_subscriber.sv(41) @ 5035: uvm_test_top.env.sb [sb] INPUT COVERAGE = 83.33 %
UVM_INFO axi4_lite_inp_monitor.sv(44) @ 5035: uvm_test_top.env.aa.inp_mon [INPUT MONITOR]  WRITE awaddr=00000028 wdata=f38f5a09 wstrb=1111 
UVM_INFO axi4_lite_out_monitor.sv(28) @ 5055: uvm_test_top.env.pa.out_mon [OUTPUT MONITOR] BRESP = 2 RRESP = 0 RDATA = 00000000
UVM_INFO axi4_lite_driver.sv(34) @ 5055: uvm_test_top.env.aa.drv [DRV] awaddr = 00000028 wdata = f38f5a09 wstrb = f araddr = 0be0e8f8
UVM_INFO axi4_lite_scoreboard.sv(52) @ 5055: uvm_test_top.env.scb [BRESP] Matched : exp_bresp= 2 actual_bresp=2 write = 1 read = 0
UVM_INFO axi4_lite_subscriber.sv(41) @ 5105: uvm_test_top.env.sb [sb] INPUT COVERAGE = 83.33 %
UVM_INFO axi4_lite_inp_monitor.sv(44) @ 5105: uvm_test_top.env.aa.inp_mon [INPUT MONITOR]  WRITE awaddr=00000020 wdata=f41ea21a wstrb=1101 
UVM_INFO axi4_lite_out_monitor.sv(28) @ 5125: uvm_test_top.env.pa.out_mon [OUTPUT MONITOR] BRESP = 0 RRESP = 0 RDATA = 00000000
UVM_INFO axi4_lite_driver.sv(34) @ 5125: uvm_test_top.env.aa.drv [DRV] awaddr = 00000020 wdata = f41ea21a wstrb = d araddr = 62042844
UVM_INFO axi4_lite_scoreboard.sv(52) @ 5125: uvm_test_top.env.scb [BRESP] Matched : exp_bresp= 0 actual_bresp=0 write = 1 read = 0
UVM_INFO axi4_lite_subscriber.sv(41) @ 5175: uvm_test_top.env.sb [sb] INPUT COVERAGE = 83.33 %
UVM_INFO axi4_lite_inp_monitor.sv(44) @ 5175: uvm_test_top.env.aa.inp_mon [INPUT MONITOR]  WRITE awaddr=00000038 wdata=c79326fc wstrb=0100 
UVM_INFO axi4_lite_out_monitor.sv(28) @ 5195: uvm_test_top.env.pa.out_mon [OUTPUT MONITOR] BRESP = 0 RRESP = 0 RDATA = 00000000
UVM_INFO axi4_lite_driver.sv(34) @ 5195: uvm_test_top.env.aa.drv [DRV] awaddr = 00000038 wdata = c79326fc wstrb = 4 araddr = 237be7b4
UVM_INFO axi4_lite_scoreboard.sv(52) @ 5195: uvm_test_top.env.scb [BRESP] Matched : exp_bresp= 0 actual_bresp=0 write = 1 read = 0
UVM_INFO axi4_lite_subscriber.sv(41) @ 5225: uvm_test_top.env.sb [sb] INPUT COVERAGE = 83.33 %
UVM_INFO axi4_lite_inp_monitor.sv(44) @ 5225: uvm_test_top.env.aa.inp_mon [INPUT MONITOR]  WRITE awaddr=00000028 wdata=329ec0eb wstrb=0101 
UVM_INFO axi4_lite_out_monitor.sv(28) @ 5245: uvm_test_top.env.pa.out_mon [OUTPUT MONITOR] BRESP = 2 RRESP = 0 RDATA = 00000000
UVM_INFO axi4_lite_driver.sv(34) @ 5245: uvm_test_top.env.aa.drv [DRV] awaddr = 00000028 wdata = 329ec0eb wstrb = 5 araddr = 1a7e1ac8
UVM_INFO axi4_lite_scoreboard.sv(52) @ 5245: uvm_test_top.env.scb [BRESP] Matched : exp_bresp= 2 actual_bresp=2 write = 1 read = 0
UVM_INFO axi4_lite_subscriber.sv(41) @ 5265: uvm_test_top.env.sb [sb] INPUT COVERAGE = 83.33 %
UVM_INFO axi4_lite_inp_monitor.sv(44) @ 5265: uvm_test_top.env.aa.inp_mon [INPUT MONITOR]  WRITE awaddr=00000004 wdata=ec452588 wstrb=0101 
UVM_INFO axi4_lite_out_monitor.sv(28) @ 5285: uvm_test_top.env.pa.out_mon [OUTPUT MONITOR] BRESP = 0 RRESP = 0 RDATA = 00000000
UVM_INFO axi4_lite_driver.sv(34) @ 5285: uvm_test_top.env.aa.drv [DRV] awaddr = 00000004 wdata = ec452588 wstrb = 5 araddr = 1668f624
UVM_INFO axi4_lite_scoreboard.sv(52) @ 5285: uvm_test_top.env.scb [BRESP] Matched : exp_bresp= 0 actual_bresp=0 write = 1 read = 0
UVM_INFO axi4_lite_subscriber.sv(41) @ 5325: uvm_test_top.env.sb [sb] INPUT COVERAGE = 83.33 %
UVM_INFO axi4_lite_inp_monitor.sv(44) @ 5325: uvm_test_top.env.aa.inp_mon [INPUT MONITOR]  WRITE awaddr=00000008 wdata=3e738633 wstrb=1000 
UVM_INFO axi4_lite_out_monitor.sv(28) @ 5345: uvm_test_top.env.pa.out_mon [OUTPUT MONITOR] BRESP = 0 RRESP = 0 RDATA = 00000000
UVM_INFO axi4_lite_driver.sv(34) @ 5345: uvm_test_top.env.aa.drv [DRV] awaddr = 00000008 wdata = 3e738633 wstrb = 8 araddr = 11ea4f98
UVM_INFO axi4_lite_scoreboard.sv(52) @ 5345: uvm_test_top.env.scb [BRESP] Matched : exp_bresp= 0 actual_bresp=0 write = 1 read = 0
UVM_INFO axi4_lite_subscriber.sv(41) @ 5365: uvm_test_top.env.sb [sb] INPUT COVERAGE = 83.33 %
UVM_INFO axi4_lite_inp_monitor.sv(44) @ 5365: uvm_test_top.env.aa.inp_mon [INPUT MONITOR]  WRITE awaddr=0000002c wdata=68e53e2f wstrb=0000 
UVM_INFO axi4_lite_out_monitor.sv(28) @ 5385: uvm_test_top.env.pa.out_mon [OUTPUT MONITOR] BRESP = 2 RRESP = 0 RDATA = 00000000
UVM_INFO axi4_lite_driver.sv(34) @ 5385: uvm_test_top.env.aa.drv [DRV] awaddr = 0000002c wdata = 68e53e2f wstrb = 0 araddr = cc10a65c
UVM_INFO axi4_lite_scoreboard.sv(52) @ 5385: uvm_test_top.env.scb [BRESP] Matched : exp_bresp= 2 actual_bresp=2 write = 1 read = 0
UVM_INFO axi4_lite_subscriber.sv(41) @ 5405: uvm_test_top.env.sb [sb] INPUT COVERAGE = 83.33 %
UVM_INFO axi4_lite_inp_monitor.sv(44) @ 5405: uvm_test_top.env.aa.inp_mon [INPUT MONITOR]  WRITE awaddr=0000001c wdata=cffb4f1d wstrb=1100 
UVM_INFO axi4_lite_out_monitor.sv(28) @ 5425: uvm_test_top.env.pa.out_mon [OUTPUT MONITOR] BRESP = 0 RRESP = 0 RDATA = 00000000
UVM_INFO axi4_lite_driver.sv(34) @ 5425: uvm_test_top.env.aa.drv [DRV] awaddr = 0000001c wdata = cffb4f1d wstrb = c araddr = c7c5f76c
UVM_INFO axi4_lite_scoreboard.sv(52) @ 5425: uvm_test_top.env.scb [BRESP] Matched : exp_bresp= 0 actual_bresp=0 write = 1 read = 0
UVM_INFO axi4_lite_subscriber.sv(41) @ 5465: uvm_test_top.env.sb [sb] INPUT COVERAGE = 83.33 %
UVM_INFO axi4_lite_inp_monitor.sv(44) @ 5465: uvm_test_top.env.aa.inp_mon [INPUT MONITOR]  WRITE awaddr=00000000 wdata=e2e30025 wstrb=0101 
UVM_INFO axi4_lite_out_monitor.sv(28) @ 5485: uvm_test_top.env.pa.out_mon [OUTPUT MONITOR] BRESP = 0 RRESP = 0 RDATA = 00000000
UVM_INFO axi4_lite_driver.sv(34) @ 5485: uvm_test_top.env.aa.drv [DRV] awaddr = 00000000 wdata = e2e30025 wstrb = 5 araddr = 8220ce30
UVM_INFO axi4_lite_scoreboard.sv(52) @ 5485: uvm_test_top.env.scb [BRESP] Matched : exp_bresp= 0 actual_bresp=0 write = 1 read = 0
UVM_INFO axi4_lite_subscriber.sv(41) @ 5525: uvm_test_top.env.sb [sb] INPUT COVERAGE = 83.33 %
UVM_INFO axi4_lite_inp_monitor.sv(44) @ 5525: uvm_test_top.env.aa.inp_mon [INPUT MONITOR]  WRITE awaddr=00000024 wdata=bb4d306a wstrb=0010 
UVM_INFO axi4_lite_out_monitor.sv(28) @ 5545: uvm_test_top.env.pa.out_mon [OUTPUT MONITOR] BRESP = 0 RRESP = 0 RDATA = 00000000
UVM_INFO axi4_lite_driver.sv(34) @ 5545: uvm_test_top.env.aa.drv [DRV] awaddr = 00000024 wdata = bb4d306a wstrb = 2 araddr = b5b4ec3c
UVM_INFO axi4_lite_scoreboard.sv(52) @ 5545: uvm_test_top.env.scb [BRESP] Matched : exp_bresp= 0 actual_bresp=0 write = 1 read = 0
UVM_INFO axi4_lite_subscriber.sv(41) @ 5585: uvm_test_top.env.sb [sb] INPUT COVERAGE = 83.33 %
UVM_INFO axi4_lite_inp_monitor.sv(44) @ 5585: uvm_test_top.env.aa.inp_mon [INPUT MONITOR]  WRITE awaddr=0000002c wdata=26932d27 wstrb=0010 
UVM_INFO axi4_lite_out_monitor.sv(28) @ 5605: uvm_test_top.env.pa.out_mon [OUTPUT MONITOR] BRESP = 2 RRESP = 0 RDATA = 00000000
UVM_INFO axi4_lite_driver.sv(34) @ 5605: uvm_test_top.env.aa.drv [DRV] awaddr = 0000002c wdata = 26932d27 wstrb = 2 araddr = c3f25960
UVM_INFO axi4_lite_scoreboard.sv(52) @ 5605: uvm_test_top.env.scb [BRESP] Matched : exp_bresp= 2 actual_bresp=2 write = 1 read = 0
UVM_INFO axi4_lite_subscriber.sv(41) @ 5655: uvm_test_top.env.sb [sb] INPUT COVERAGE = 83.33 %
UVM_INFO axi4_lite_inp_monitor.sv(44) @ 5655: uvm_test_top.env.aa.inp_mon [INPUT MONITOR]  WRITE awaddr=0000000c wdata=7c0e2d96 wstrb=1110 
UVM_INFO axi4_lite_out_monitor.sv(28) @ 5675: uvm_test_top.env.pa.out_mon [OUTPUT MONITOR] BRESP = 0 RRESP = 0 RDATA = 00000000
UVM_INFO axi4_lite_driver.sv(34) @ 5675: uvm_test_top.env.aa.drv [DRV] awaddr = 0000000c wdata = 7c0e2d96 wstrb = e araddr = e7817018
UVM_INFO axi4_lite_scoreboard.sv(52) @ 5675: uvm_test_top.env.scb [BRESP] Matched : exp_bresp= 0 actual_bresp=0 write = 1 read = 0
UVM_INFO axi4_lite_test.sv(27) @ 5675: uvm_test_top [TEST] Write completed
UVM_INFO /fetools/synopsys/installed_tools/vcs/vcs/Q-2020.03-SP2-8/etc/uvm/base/uvm_objection.svh(1274) @ 5675: reporter [TEST_DONE] 'run' phase is ready to proceed to the 'extract' phase

--- UVM Report Summary ---

** Report counts by severity
UVM_INFO :  504
UVM_WARNING :    0
UVM_ERROR :    0
UVM_FATAL :    0
** Report counts by id
[BRESP]   100
[DRV]   100
[INPUT MONITOR]   100
[OUTPUT MONITOR]   100
[RNTST]     1
[TEST]     1
[TEST_DONE]     1
[UVMTOP]     1
[sb]   100
$finish called from file "/fetools/synopsys/installed_tools/vcs/vcs/Q-2020.03-SP2-8/etc/uvm/base/uvm_root.svh", line 437.
$finish at simulation time                 5675

---------------------------------------------------------------------------
VCS Coverage Metrics: during simulation line, cond, FSM, branch, tgl was monitored
---------------------------------------------------------------------------
           V C S   S i m u l a t i o n   R e p o r t 
Time: 5675 ns
CPU Time:      0.540 seconds;       Data structure size:   0.4Mb
Thu Sep 17 16:26:31 2026
