Command: /fetools/work_area/frontend/Batch_11/ananyaganesh/system_verilog/AXI4_LITE_SLAVE/src/work/simv +UVM_TESTNAME=axi4_lite_test_read_decerr +UVM_VERBOSITY=UVM_HIGH +ntb_random_seed=8635 -cm line+cond+fsm+tgl+branch+assert -cm_dir work/regression.vdb -cm_name axi4_lite_test_read_decerr_8635 -l work/logs/axi4_lite_test_read_decerr_8635.log +UVM_NO_RELNOTES
Chronologic VCS simulator copyright 1991-2020
Contains Synopsys proprietary information.
Compiler version Q-2020.03-SP2-8_Full64; Runtime version Q-2020.03-SP2-8_Full64;  Sep 17 16:19 2026
----------------------------------------------------------------
UVM-1.1d.Synopsys
(C) 2007-2013 Mentor Graphics Corporation
(C) 2007-2013 Cadence Design Systems, Inc.
(C) 2006-2013 Synopsys, Inc.
(C) 2011-2013 Cypress Semiconductor Corp.
----------------------------------------------------------------
UVM_INFO @ 0: reporter [RNTST] Running test axi4_lite_test_read_decerr...
UVM_INFO @ 0: reporter [UVMTOP] UVM testbench topology:
------------------------------------------------------------------
Name                       Type                        Size  Value
------------------------------------------------------------------
uvm_test_top               axi4_lite_test_read_decerr  -     @469 
  env                      axi4_lite_environment       -     @477 
    aa                     axi4_lite_active_agent      -     @489 
      drv                  axi4_lite_driver            -     @569 
        rsp_port           uvm_analysis_port           -     @586 
        seq_item_port      uvm_seq_item_pull_port      -     @577 
      inp_mon              axi4_lite_inp_monitor       -     @552 
        inp_mon_port       uvm_analysis_port           -     @560 
      seqr                 axi4_lite_seqr              -     @595 
        rsp_export         uvm_analysis_export         -     @603 
        seq_item_export    uvm_seq_item_pull_imp       -     @709 
        arbitration_queue  array                       0     -    
        lock_queue         array                       0     -    
        num_last_reqs      integral                    32    'd1  
        num_last_rsps      integral                    32    'd1  
    pa                     axi4_lite_passive_agent     -     @497 
      out_mon              axi4_lite_out_monitor       -     @726 
        out_mon_port       uvm_analysis_port           -     @734 
    sb                     axi4_lite_subscriber        -     @531 
      analysis_imp         uvm_analysis_imp            -     @539 
    scb                    axi4_lite_scoreboard        -     @505 
      inp_port             uvm_analysis_imp_in         -     @513 
      out_port             uvm_analysis_imp_out        -     @522 
------------------------------------------------------------------

UVM_INFO axi4_lite_subscriber.sv(41) @ 15: uvm_test_top.env.sb [sb] INPUT COVERAGE = 19.79 %
UVM_INFO axi4_lite_inp_monitor.sv(38) @ 15: uvm_test_top.env.aa.inp_mon [INPUT MONITOR] READ araddr=72dcb0ac
UVM_INFO axi4_lite_out_monitor.sv(28) @ 25: uvm_test_top.env.pa.out_mon [OUTPUT MONITOR] BRESP = 0 RRESP = 3 RDATA = 00000000
UVM_INFO axi4_lite_driver.sv(34) @ 25: uvm_test_top.env.aa.drv [DRV] awaddr = 51f31560 wdata = 1c045885 wstrb = 2 araddr = 72dcb0ac
UVM_INFO axi4_lite_scoreboard.sv(68) @ 25: uvm_test_top.env.scb [RRESP] Matched : exp_rresp=3 actual_rresp =3 write = 0 read = 1
UVM_INFO axi4_lite_scoreboard.sv(72) @ 25: uvm_test_top.env.scb [RDATA] Matched : exp_rdata=00000000 actual_rdata =00000000
UVM_INFO axi4_lite_subscriber.sv(41) @ 45: uvm_test_top.env.sb [sb] INPUT COVERAGE = 19.79 %
UVM_INFO axi4_lite_inp_monitor.sv(38) @ 45: uvm_test_top.env.aa.inp_mon [INPUT MONITOR] READ araddr=e791a904
UVM_INFO axi4_lite_out_monitor.sv(28) @ 55: uvm_test_top.env.pa.out_mon [OUTPUT MONITOR] BRESP = 0 RRESP = 3 RDATA = 00000000
UVM_INFO axi4_lite_driver.sv(34) @ 55: uvm_test_top.env.aa.drv [DRV] awaddr = 463d1654 wdata = e262d05e wstrb = 5 araddr = e791a904
UVM_INFO axi4_lite_scoreboard.sv(68) @ 55: uvm_test_top.env.scb [RRESP] Matched : exp_rresp=3 actual_rresp =3 write = 0 read = 1
UVM_INFO axi4_lite_scoreboard.sv(72) @ 55: uvm_test_top.env.scb [RDATA] Matched : exp_rdata=00000000 actual_rdata =00000000
UVM_INFO axi4_lite_subscriber.sv(41) @ 75: uvm_test_top.env.sb [sb] INPUT COVERAGE = 19.79 %
UVM_INFO axi4_lite_inp_monitor.sv(38) @ 75: uvm_test_top.env.aa.inp_mon [INPUT MONITOR] READ araddr=da959794
UVM_INFO axi4_lite_out_monitor.sv(28) @ 85: uvm_test_top.env.pa.out_mon [OUTPUT MONITOR] BRESP = 0 RRESP = 3 RDATA = 00000000
UVM_INFO axi4_lite_driver.sv(34) @ 85: uvm_test_top.env.aa.drv [DRV] awaddr = 288c34d0 wdata = 451c8243 wstrb = 5 araddr = da959794
UVM_INFO axi4_lite_scoreboard.sv(68) @ 85: uvm_test_top.env.scb [RRESP] Matched : exp_rresp=3 actual_rresp =3 write = 0 read = 1
UVM_INFO axi4_lite_scoreboard.sv(72) @ 85: uvm_test_top.env.scb [RDATA] Matched : exp_rdata=00000000 actual_rdata =00000000
UVM_INFO axi4_lite_subscriber.sv(41) @ 105: uvm_test_top.env.sb [sb] INPUT COVERAGE = 19.79 %
UVM_INFO axi4_lite_inp_monitor.sv(38) @ 105: uvm_test_top.env.aa.inp_mon [INPUT MONITOR] READ araddr=584fa680
UVM_INFO axi4_lite_out_monitor.sv(28) @ 115: uvm_test_top.env.pa.out_mon [OUTPUT MONITOR] BRESP = 0 RRESP = 3 RDATA = 00000000
UVM_INFO axi4_lite_driver.sv(34) @ 115: uvm_test_top.env.aa.drv [DRV] awaddr = acd109d8 wdata = ad757cd3 wstrb = 3 araddr = 584fa680
UVM_INFO axi4_lite_scoreboard.sv(68) @ 115: uvm_test_top.env.scb [RRESP] Matched : exp_rresp=3 actual_rresp =3 write = 0 read = 1
UVM_INFO axi4_lite_scoreboard.sv(72) @ 115: uvm_test_top.env.scb [RDATA] Matched : exp_rdata=00000000 actual_rdata =00000000
UVM_INFO axi4_lite_subscriber.sv(41) @ 135: uvm_test_top.env.sb [sb] INPUT COVERAGE = 19.79 %
UVM_INFO axi4_lite_inp_monitor.sv(38) @ 135: uvm_test_top.env.aa.inp_mon [INPUT MONITOR] READ araddr=19b10ae8
UVM_INFO axi4_lite_out_monitor.sv(28) @ 145: uvm_test_top.env.pa.out_mon [OUTPUT MONITOR] BRESP = 0 RRESP = 3 RDATA = 00000000
UVM_INFO axi4_lite_driver.sv(34) @ 145: uvm_test_top.env.aa.drv [DRV] awaddr = d2e321c4 wdata = d9bb0e11 wstrb = f araddr = 19b10ae8
UVM_INFO axi4_lite_scoreboard.sv(68) @ 145: uvm_test_top.env.scb [RRESP] Matched : exp_rresp=3 actual_rresp =3 write = 0 read = 1
UVM_INFO axi4_lite_scoreboard.sv(72) @ 145: uvm_test_top.env.scb [RDATA] Matched : exp_rdata=00000000 actual_rdata =00000000
UVM_INFO axi4_lite_subscriber.sv(41) @ 165: uvm_test_top.env.sb [sb] INPUT COVERAGE = 19.79 %
UVM_INFO axi4_lite_inp_monitor.sv(38) @ 165: uvm_test_top.env.aa.inp_mon [INPUT MONITOR] READ araddr=cb4528d0
UVM_INFO axi4_lite_out_monitor.sv(28) @ 175: uvm_test_top.env.pa.out_mon [OUTPUT MONITOR] BRESP = 0 RRESP = 3 RDATA = 00000000
UVM_INFO axi4_lite_driver.sv(34) @ 175: uvm_test_top.env.aa.drv [DRV] awaddr = 66ed22cc wdata = e24feb1c wstrb = 5 araddr = cb4528d0
UVM_INFO axi4_lite_scoreboard.sv(68) @ 175: uvm_test_top.env.scb [RRESP] Matched : exp_rresp=3 actual_rresp =3 write = 0 read = 1
UVM_INFO axi4_lite_scoreboard.sv(72) @ 175: uvm_test_top.env.scb [RDATA] Matched : exp_rdata=00000000 actual_rdata =00000000
UVM_INFO axi4_lite_subscriber.sv(41) @ 195: uvm_test_top.env.sb [sb] INPUT COVERAGE = 19.79 %
UVM_INFO axi4_lite_inp_monitor.sv(38) @ 195: uvm_test_top.env.aa.inp_mon [INPUT MONITOR] READ araddr=bc1706dc
UVM_INFO axi4_lite_out_monitor.sv(28) @ 205: uvm_test_top.env.pa.out_mon [OUTPUT MONITOR] BRESP = 0 RRESP = 3 RDATA = 00000000
UVM_INFO axi4_lite_driver.sv(34) @ 205: uvm_test_top.env.aa.drv [DRV] awaddr = 8a2a4454 wdata = d945c0ae wstrb = f araddr = bc1706dc
UVM_INFO axi4_lite_scoreboard.sv(68) @ 205: uvm_test_top.env.scb [RRESP] Matched : exp_rresp=3 actual_rresp =3 write = 0 read = 1
UVM_INFO axi4_lite_scoreboard.sv(72) @ 205: uvm_test_top.env.scb [RDATA] Matched : exp_rdata=00000000 actual_rdata =00000000
UVM_INFO axi4_lite_subscriber.sv(41) @ 225: uvm_test_top.env.sb [sb] INPUT COVERAGE = 19.79 %
UVM_INFO axi4_lite_inp_monitor.sv(38) @ 225: uvm_test_top.env.aa.inp_mon [INPUT MONITOR] READ araddr=c62a257c
UVM_INFO axi4_lite_out_monitor.sv(28) @ 235: uvm_test_top.env.pa.out_mon [OUTPUT MONITOR] BRESP = 0 RRESP = 3 RDATA = 00000000
UVM_INFO axi4_lite_driver.sv(34) @ 235: uvm_test_top.env.aa.drv [DRV] awaddr = 6b8941d4 wdata = 2a353943 wstrb = 8 araddr = c62a257c
UVM_INFO axi4_lite_scoreboard.sv(68) @ 235: uvm_test_top.env.scb [RRESP] Matched : exp_rresp=3 actual_rresp =3 write = 0 read = 1
UVM_INFO axi4_lite_scoreboard.sv(72) @ 235: uvm_test_top.env.scb [RDATA] Matched : exp_rdata=00000000 actual_rdata =00000000
UVM_INFO axi4_lite_subscriber.sv(41) @ 255: uvm_test_top.env.sb [sb] INPUT COVERAGE = 19.79 %
UVM_INFO axi4_lite_inp_monitor.sv(38) @ 255: uvm_test_top.env.aa.inp_mon [INPUT MONITOR] READ araddr=898b7500
UVM_INFO axi4_lite_out_monitor.sv(28) @ 265: uvm_test_top.env.pa.out_mon [OUTPUT MONITOR] BRESP = 0 RRESP = 3 RDATA = 00000000
UVM_INFO axi4_lite_driver.sv(34) @ 265: uvm_test_top.env.aa.drv [DRV] awaddr = c02b7f00 wdata = 72bd527d wstrb = 1 araddr = 898b7500
UVM_INFO axi4_lite_scoreboard.sv(68) @ 265: uvm_test_top.env.scb [RRESP] Matched : exp_rresp=3 actual_rresp =3 write = 0 read = 1
UVM_INFO axi4_lite_scoreboard.sv(72) @ 265: uvm_test_top.env.scb [RDATA] Matched : exp_rdata=00000000 actual_rdata =00000000
UVM_INFO axi4_lite_subscriber.sv(41) @ 285: uvm_test_top.env.sb [sb] INPUT COVERAGE = 19.79 %
UVM_INFO axi4_lite_inp_monitor.sv(38) @ 285: uvm_test_top.env.aa.inp_mon [INPUT MONITOR] READ araddr=2ce75e40
UVM_INFO axi4_lite_out_monitor.sv(28) @ 295: uvm_test_top.env.pa.out_mon [OUTPUT MONITOR] BRESP = 0 RRESP = 3 RDATA = 00000000
UVM_INFO axi4_lite_driver.sv(34) @ 295: uvm_test_top.env.aa.drv [DRV] awaddr = c5620bd4 wdata = f6b7ce5d wstrb = 7 araddr = 2ce75e40
UVM_INFO axi4_lite_scoreboard.sv(68) @ 295: uvm_test_top.env.scb [RRESP] Matched : exp_rresp=3 actual_rresp =3 write = 0 read = 1
UVM_INFO axi4_lite_scoreboard.sv(72) @ 295: uvm_test_top.env.scb [RDATA] Matched : exp_rdata=00000000 actual_rdata =00000000
UVM_INFO axi4_lite_subscriber.sv(41) @ 315: uvm_test_top.env.sb [sb] INPUT COVERAGE = 19.79 %
UVM_INFO axi4_lite_inp_monitor.sv(38) @ 315: uvm_test_top.env.aa.inp_mon [INPUT MONITOR] READ araddr=347fe024
UVM_INFO axi4_lite_out_monitor.sv(28) @ 325: uvm_test_top.env.pa.out_mon [OUTPUT MONITOR] BRESP = 0 RRESP = 3 RDATA = 00000000
UVM_INFO axi4_lite_driver.sv(34) @ 325: uvm_test_top.env.aa.drv [DRV] awaddr = 37d3bf24 wdata = 63125936 wstrb = 4 araddr = 347fe024
UVM_INFO axi4_lite_scoreboard.sv(68) @ 325: uvm_test_top.env.scb [RRESP] Matched : exp_rresp=3 actual_rresp =3 write = 0 read = 1
UVM_INFO axi4_lite_scoreboard.sv(72) @ 325: uvm_test_top.env.scb [RDATA] Matched : exp_rdata=00000000 actual_rdata =00000000
UVM_INFO axi4_lite_subscriber.sv(41) @ 345: uvm_test_top.env.sb [sb] INPUT COVERAGE = 19.79 %
UVM_INFO axi4_lite_inp_monitor.sv(38) @ 345: uvm_test_top.env.aa.inp_mon [INPUT MONITOR] READ araddr=947b2538
UVM_INFO axi4_lite_out_monitor.sv(28) @ 355: uvm_test_top.env.pa.out_mon [OUTPUT MONITOR] BRESP = 0 RRESP = 3 RDATA = 00000000
UVM_INFO axi4_lite_driver.sv(34) @ 355: uvm_test_top.env.aa.drv [DRV] awaddr = 65298044 wdata = 76176575 wstrb = 8 araddr = 947b2538
UVM_INFO axi4_lite_scoreboard.sv(68) @ 355: uvm_test_top.env.scb [RRESP] Matched : exp_rresp=3 actual_rresp =3 write = 0 read = 1
UVM_INFO axi4_lite_scoreboard.sv(72) @ 355: uvm_test_top.env.scb [RDATA] Matched : exp_rdata=00000000 actual_rdata =00000000
UVM_INFO axi4_lite_subscriber.sv(41) @ 375: uvm_test_top.env.sb [sb] INPUT COVERAGE = 19.79 %
UVM_INFO axi4_lite_inp_monitor.sv(38) @ 375: uvm_test_top.env.aa.inp_mon [INPUT MONITOR] READ araddr=9bb2f4c4
UVM_INFO axi4_lite_out_monitor.sv(28) @ 385: uvm_test_top.env.pa.out_mon [OUTPUT MONITOR] BRESP = 0 RRESP = 3 RDATA = 00000000
UVM_INFO axi4_lite_driver.sv(34) @ 385: uvm_test_top.env.aa.drv [DRV] awaddr = 09385cf8 wdata = 09f34312 wstrb = c araddr = 9bb2f4c4
UVM_INFO axi4_lite_scoreboard.sv(68) @ 385: uvm_test_top.env.scb [RRESP] Matched : exp_rresp=3 actual_rresp =3 write = 0 read = 1
UVM_INFO axi4_lite_scoreboard.sv(72) @ 385: uvm_test_top.env.scb [RDATA] Matched : exp_rdata=00000000 actual_rdata =00000000
UVM_INFO axi4_lite_subscriber.sv(41) @ 405: uvm_test_top.env.sb [sb] INPUT COVERAGE = 19.79 %
UVM_INFO axi4_lite_inp_monitor.sv(38) @ 405: uvm_test_top.env.aa.inp_mon [INPUT MONITOR] READ araddr=e89dbf48
UVM_INFO axi4_lite_out_monitor.sv(28) @ 415: uvm_test_top.env.pa.out_mon [OUTPUT MONITOR] BRESP = 0 RRESP = 3 RDATA = 00000000
UVM_INFO axi4_lite_driver.sv(34) @ 415: uvm_test_top.env.aa.drv [DRV] awaddr = 0ba5a7f0 wdata = 750d27d5 wstrb = 8 araddr = e89dbf48
UVM_INFO axi4_lite_scoreboard.sv(68) @ 415: uvm_test_top.env.scb [RRESP] Matched : exp_rresp=3 actual_rresp =3 write = 0 read = 1
UVM_INFO axi4_lite_scoreboard.sv(72) @ 415: uvm_test_top.env.scb [RDATA] Matched : exp_rdata=00000000 actual_rdata =00000000
UVM_INFO axi4_lite_subscriber.sv(41) @ 435: uvm_test_top.env.sb [sb] INPUT COVERAGE = 19.79 %
UVM_INFO axi4_lite_inp_monitor.sv(38) @ 435: uvm_test_top.env.aa.inp_mon [INPUT MONITOR] READ araddr=2e1da7a8
UVM_INFO axi4_lite_out_monitor.sv(28) @ 445: uvm_test_top.env.pa.out_mon [OUTPUT MONITOR] BRESP = 0 RRESP = 3 RDATA = 00000000
UVM_INFO axi4_lite_driver.sv(34) @ 445: uvm_test_top.env.aa.drv [DRV] awaddr = 2c3f314c wdata = 7776df5a wstrb = 3 araddr = 2e1da7a8
UVM_INFO axi4_lite_scoreboard.sv(68) @ 445: uvm_test_top.env.scb [RRESP] Matched : exp_rresp=3 actual_rresp =3 write = 0 read = 1
UVM_INFO axi4_lite_scoreboard.sv(72) @ 445: uvm_test_top.env.scb [RDATA] Matched : exp_rdata=00000000 actual_rdata =00000000
UVM_INFO axi4_lite_subscriber.sv(41) @ 465: uvm_test_top.env.sb [sb] INPUT COVERAGE = 19.79 %
UVM_INFO axi4_lite_inp_monitor.sv(38) @ 465: uvm_test_top.env.aa.inp_mon [INPUT MONITOR] READ araddr=07bfa8e8
UVM_INFO axi4_lite_out_monitor.sv(28) @ 475: uvm_test_top.env.pa.out_mon [OUTPUT MONITOR] BRESP = 0 RRESP = 3 RDATA = 00000000
UVM_INFO axi4_lite_driver.sv(34) @ 475: uvm_test_top.env.aa.drv [DRV] awaddr = 4bcace34 wdata = 79513793 wstrb = b araddr = 07bfa8e8
UVM_INFO axi4_lite_scoreboard.sv(68) @ 475: uvm_test_top.env.scb [RRESP] Matched : exp_rresp=3 actual_rresp =3 write = 0 read = 1
UVM_INFO axi4_lite_scoreboard.sv(72) @ 475: uvm_test_top.env.scb [RDATA] Matched : exp_rdata=00000000 actual_rdata =00000000
UVM_INFO axi4_lite_subscriber.sv(41) @ 495: uvm_test_top.env.sb [sb] INPUT COVERAGE = 19.79 %
UVM_INFO axi4_lite_inp_monitor.sv(38) @ 495: uvm_test_top.env.aa.inp_mon [INPUT MONITOR] READ araddr=bae2f550
UVM_INFO axi4_lite_out_monitor.sv(28) @ 505: uvm_test_top.env.pa.out_mon [OUTPUT MONITOR] BRESP = 0 RRESP = 3 RDATA = 00000000
UVM_INFO axi4_lite_driver.sv(34) @ 505: uvm_test_top.env.aa.drv [DRV] awaddr = ba0b8ad0 wdata = 5a9d161f wstrb = 1 araddr = bae2f550
UVM_INFO axi4_lite_scoreboard.sv(68) @ 505: uvm_test_top.env.scb [RRESP] Matched : exp_rresp=3 actual_rresp =3 write = 0 read = 1
UVM_INFO axi4_lite_scoreboard.sv(72) @ 505: uvm_test_top.env.scb [RDATA] Matched : exp_rdata=00000000 actual_rdata =00000000
UVM_INFO axi4_lite_subscriber.sv(41) @ 525: uvm_test_top.env.sb [sb] INPUT COVERAGE = 19.79 %
UVM_INFO axi4_lite_inp_monitor.sv(38) @ 525: uvm_test_top.env.aa.inp_mon [INPUT MONITOR] READ araddr=3f2253f4
UVM_INFO axi4_lite_out_monitor.sv(28) @ 535: uvm_test_top.env.pa.out_mon [OUTPUT MONITOR] BRESP = 0 RRESP = 3 RDATA = 00000000
UVM_INFO axi4_lite_driver.sv(34) @ 535: uvm_test_top.env.aa.drv [DRV] awaddr = 35dbeefc wdata = 39d7cf35 wstrb = 1 araddr = 3f2253f4
UVM_INFO axi4_lite_scoreboard.sv(68) @ 535: uvm_test_top.env.scb [RRESP] Matched : exp_rresp=3 actual_rresp =3 write = 0 read = 1
UVM_INFO axi4_lite_scoreboard.sv(72) @ 535: uvm_test_top.env.scb [RDATA] Matched : exp_rdata=00000000 actual_rdata =00000000
UVM_INFO axi4_lite_subscriber.sv(41) @ 555: uvm_test_top.env.sb [sb] INPUT COVERAGE = 19.79 %
UVM_INFO axi4_lite_inp_monitor.sv(38) @ 555: uvm_test_top.env.aa.inp_mon [INPUT MONITOR] READ araddr=42f41e88
UVM_INFO axi4_lite_out_monitor.sv(28) @ 565: uvm_test_top.env.pa.out_mon [OUTPUT MONITOR] BRESP = 0 RRESP = 3 RDATA = 00000000
UVM_INFO axi4_lite_driver.sv(34) @ 565: uvm_test_top.env.aa.drv [DRV] awaddr = f2cbbb3c wdata = 87ed8b03 wstrb = 3 araddr = 42f41e88
UVM_INFO axi4_lite_scoreboard.sv(68) @ 565: uvm_test_top.env.scb [RRESP] Matched : exp_rresp=3 actual_rresp =3 write = 0 read = 1
UVM_INFO axi4_lite_scoreboard.sv(72) @ 565: uvm_test_top.env.scb [RDATA] Matched : exp_rdata=00000000 actual_rdata =00000000
UVM_INFO axi4_lite_subscriber.sv(41) @ 585: uvm_test_top.env.sb [sb] INPUT COVERAGE = 19.79 %
UVM_INFO axi4_lite_inp_monitor.sv(38) @ 585: uvm_test_top.env.aa.inp_mon [INPUT MONITOR] READ araddr=af6d2a34
UVM_INFO axi4_lite_out_monitor.sv(28) @ 595: uvm_test_top.env.pa.out_mon [OUTPUT MONITOR] BRESP = 0 RRESP = 3 RDATA = 00000000
UVM_INFO axi4_lite_driver.sv(34) @ 595: uvm_test_top.env.aa.drv [DRV] awaddr = dc5e53a8 wdata = 0939f0f6 wstrb = 7 araddr = af6d2a34
UVM_INFO axi4_lite_scoreboard.sv(68) @ 595: uvm_test_top.env.scb [RRESP] Matched : exp_rresp=3 actual_rresp =3 write = 0 read = 1
UVM_INFO axi4_lite_scoreboard.sv(72) @ 595: uvm_test_top.env.scb [RDATA] Matched : exp_rdata=00000000 actual_rdata =00000000
UVM_INFO axi4_lite_subscriber.sv(41) @ 615: uvm_test_top.env.sb [sb] INPUT COVERAGE = 19.79 %
UVM_INFO axi4_lite_inp_monitor.sv(38) @ 615: uvm_test_top.env.aa.inp_mon [INPUT MONITOR] READ araddr=8a834f64
UVM_INFO axi4_lite_out_monitor.sv(28) @ 625: uvm_test_top.env.pa.out_mon [OUTPUT MONITOR] BRESP = 0 RRESP = 3 RDATA = 00000000
UVM_INFO axi4_lite_driver.sv(34) @ 625: uvm_test_top.env.aa.drv [DRV] awaddr = fe3b23d4 wdata = 9c901791 wstrb = 7 araddr = 8a834f64
UVM_INFO axi4_lite_scoreboard.sv(68) @ 625: uvm_test_top.env.scb [RRESP] Matched : exp_rresp=3 actual_rresp =3 write = 0 read = 1
UVM_INFO axi4_lite_scoreboard.sv(72) @ 625: uvm_test_top.env.scb [RDATA] Matched : exp_rdata=00000000 actual_rdata =00000000
UVM_INFO axi4_lite_subscriber.sv(41) @ 645: uvm_test_top.env.sb [sb] INPUT COVERAGE = 19.79 %
UVM_INFO axi4_lite_inp_monitor.sv(38) @ 645: uvm_test_top.env.aa.inp_mon [INPUT MONITOR] READ araddr=946c9598
UVM_INFO axi4_lite_out_monitor.sv(28) @ 655: uvm_test_top.env.pa.out_mon [OUTPUT MONITOR] BRESP = 0 RRESP = 3 RDATA = 00000000
UVM_INFO axi4_lite_driver.sv(34) @ 655: uvm_test_top.env.aa.drv [DRV] awaddr = 3da64464 wdata = b2c0d136 wstrb = 4 araddr = 946c9598
UVM_INFO axi4_lite_scoreboard.sv(68) @ 655: uvm_test_top.env.scb [RRESP] Matched : exp_rresp=3 actual_rresp =3 write = 0 read = 1
UVM_INFO axi4_lite_scoreboard.sv(72) @ 655: uvm_test_top.env.scb [RDATA] Matched : exp_rdata=00000000 actual_rdata =00000000
UVM_INFO axi4_lite_subscriber.sv(41) @ 675: uvm_test_top.env.sb [sb] INPUT COVERAGE = 19.79 %
UVM_INFO axi4_lite_inp_monitor.sv(38) @ 675: uvm_test_top.env.aa.inp_mon [INPUT MONITOR] READ araddr=79af71a0
UVM_INFO axi4_lite_out_monitor.sv(28) @ 685: uvm_test_top.env.pa.out_mon [OUTPUT MONITOR] BRESP = 0 RRESP = 3 RDATA = 00000000
UVM_INFO axi4_lite_driver.sv(34) @ 685: uvm_test_top.env.aa.drv [DRV] awaddr = 860845b0 wdata = d1066584 wstrb = 1 araddr = 79af71a0
UVM_INFO axi4_lite_scoreboard.sv(68) @ 685: uvm_test_top.env.scb [RRESP] Matched : exp_rresp=3 actual_rresp =3 write = 0 read = 1
UVM_INFO axi4_lite_scoreboard.sv(72) @ 685: uvm_test_top.env.scb [RDATA] Matched : exp_rdata=00000000 actual_rdata =00000000
UVM_INFO axi4_lite_subscriber.sv(41) @ 705: uvm_test_top.env.sb [sb] INPUT COVERAGE = 19.79 %
UVM_INFO axi4_lite_inp_monitor.sv(38) @ 705: uvm_test_top.env.aa.inp_mon [INPUT MONITOR] READ araddr=352206e4
UVM_INFO axi4_lite_out_monitor.sv(28) @ 715: uvm_test_top.env.pa.out_mon [OUTPUT MONITOR] BRESP = 0 RRESP = 3 RDATA = 00000000
UVM_INFO axi4_lite_driver.sv(34) @ 715: uvm_test_top.env.aa.drv [DRV] awaddr = 7aa11734 wdata = 9a5b160e wstrb = e araddr = 352206e4
UVM_INFO axi4_lite_scoreboard.sv(68) @ 715: uvm_test_top.env.scb [RRESP] Matched : exp_rresp=3 actual_rresp =3 write = 0 read = 1
UVM_INFO axi4_lite_scoreboard.sv(72) @ 715: uvm_test_top.env.scb [RDATA] Matched : exp_rdata=00000000 actual_rdata =00000000
UVM_INFO axi4_lite_subscriber.sv(41) @ 735: uvm_test_top.env.sb [sb] INPUT COVERAGE = 19.79 %
UVM_INFO axi4_lite_inp_monitor.sv(38) @ 735: uvm_test_top.env.aa.inp_mon [INPUT MONITOR] READ araddr=81d1f0a0
UVM_INFO axi4_lite_out_monitor.sv(28) @ 745: uvm_test_top.env.pa.out_mon [OUTPUT MONITOR] BRESP = 0 RRESP = 3 RDATA = 00000000
UVM_INFO axi4_lite_driver.sv(34) @ 745: uvm_test_top.env.aa.drv [DRV] awaddr = 56645b7c wdata = bb28cfe6 wstrb = 1 araddr = 81d1f0a0
UVM_INFO axi4_lite_scoreboard.sv(68) @ 745: uvm_test_top.env.scb [RRESP] Matched : exp_rresp=3 actual_rresp =3 write = 0 read = 1
UVM_INFO axi4_lite_scoreboard.sv(72) @ 745: uvm_test_top.env.scb [RDATA] Matched : exp_rdata=00000000 actual_rdata =00000000
UVM_INFO axi4_lite_subscriber.sv(41) @ 765: uvm_test_top.env.sb [sb] INPUT COVERAGE = 19.79 %
UVM_INFO axi4_lite_inp_monitor.sv(38) @ 765: uvm_test_top.env.aa.inp_mon [INPUT MONITOR] READ araddr=6fb42b0c
UVM_INFO axi4_lite_out_monitor.sv(28) @ 775: uvm_test_top.env.pa.out_mon [OUTPUT MONITOR] BRESP = 0 RRESP = 3 RDATA = 00000000
UVM_INFO axi4_lite_driver.sv(34) @ 775: uvm_test_top.env.aa.drv [DRV] awaddr = ede7dbd8 wdata = 7a6d0e02 wstrb = 3 araddr = 6fb42b0c
UVM_INFO axi4_lite_scoreboard.sv(68) @ 775: uvm_test_top.env.scb [RRESP] Matched : exp_rresp=3 actual_rresp =3 write = 0 read = 1
UVM_INFO axi4_lite_scoreboard.sv(72) @ 775: uvm_test_top.env.scb [RDATA] Matched : exp_rdata=00000000 actual_rdata =00000000
UVM_INFO axi4_lite_subscriber.sv(41) @ 795: uvm_test_top.env.sb [sb] INPUT COVERAGE = 19.79 %
UVM_INFO axi4_lite_inp_monitor.sv(38) @ 795: uvm_test_top.env.aa.inp_mon [INPUT MONITOR] READ araddr=8b3447bc
UVM_INFO axi4_lite_out_monitor.sv(28) @ 805: uvm_test_top.env.pa.out_mon [OUTPUT MONITOR] BRESP = 0 RRESP = 3 RDATA = 00000000
UVM_INFO axi4_lite_driver.sv(34) @ 805: uvm_test_top.env.aa.drv [DRV] awaddr = 106fbfac wdata = e6d7d0ff wstrb = e araddr = 8b3447bc
UVM_INFO axi4_lite_scoreboard.sv(68) @ 805: uvm_test_top.env.scb [RRESP] Matched : exp_rresp=3 actual_rresp =3 write = 0 read = 1
UVM_INFO axi4_lite_scoreboard.sv(72) @ 805: uvm_test_top.env.scb [RDATA] Matched : exp_rdata=00000000 actual_rdata =00000000
UVM_INFO axi4_lite_subscriber.sv(41) @ 825: uvm_test_top.env.sb [sb] INPUT COVERAGE = 19.79 %
UVM_INFO axi4_lite_inp_monitor.sv(38) @ 825: uvm_test_top.env.aa.inp_mon [INPUT MONITOR] READ araddr=87c5f16c
UVM_INFO axi4_lite_out_monitor.sv(28) @ 835: uvm_test_top.env.pa.out_mon [OUTPUT MONITOR] BRESP = 0 RRESP = 3 RDATA = 00000000
UVM_INFO axi4_lite_driver.sv(34) @ 835: uvm_test_top.env.aa.drv [DRV] awaddr = dfd84a54 wdata = 772559ce wstrb = f araddr = 87c5f16c
UVM_INFO axi4_lite_scoreboard.sv(68) @ 835: uvm_test_top.env.scb [RRESP] Matched : exp_rresp=3 actual_rresp =3 write = 0 read = 1
UVM_INFO axi4_lite_scoreboard.sv(72) @ 835: uvm_test_top.env.scb [RDATA] Matched : exp_rdata=00000000 actual_rdata =00000000
UVM_INFO axi4_lite_subscriber.sv(41) @ 855: uvm_test_top.env.sb [sb] INPUT COVERAGE = 19.79 %
UVM_INFO axi4_lite_inp_monitor.sv(38) @ 855: uvm_test_top.env.aa.inp_mon [INPUT MONITOR] READ araddr=f9372f5c
UVM_INFO axi4_lite_out_monitor.sv(28) @ 865: uvm_test_top.env.pa.out_mon [OUTPUT MONITOR] BRESP = 0 RRESP = 3 RDATA = 00000000
UVM_INFO axi4_lite_driver.sv(34) @ 865: uvm_test_top.env.aa.drv [DRV] awaddr = e87d267c wdata = 8a5a7869 wstrb = 3 araddr = f9372f5c
UVM_INFO axi4_lite_scoreboard.sv(68) @ 865: uvm_test_top.env.scb [RRESP] Matched : exp_rresp=3 actual_rresp =3 write = 0 read = 1
UVM_INFO axi4_lite_scoreboard.sv(72) @ 865: uvm_test_top.env.scb [RDATA] Matched : exp_rdata=00000000 actual_rdata =00000000
UVM_INFO axi4_lite_subscriber.sv(41) @ 885: uvm_test_top.env.sb [sb] INPUT COVERAGE = 19.79 %
UVM_INFO axi4_lite_inp_monitor.sv(38) @ 885: uvm_test_top.env.aa.inp_mon [INPUT MONITOR] READ araddr=5eaf9c9c
UVM_INFO axi4_lite_out_monitor.sv(28) @ 895: uvm_test_top.env.pa.out_mon [OUTPUT MONITOR] BRESP = 0 RRESP = 3 RDATA = 00000000
UVM_INFO axi4_lite_driver.sv(34) @ 895: uvm_test_top.env.aa.drv [DRV] awaddr = 079982b0 wdata = a2772182 wstrb = f araddr = 5eaf9c9c
UVM_INFO axi4_lite_scoreboard.sv(68) @ 895: uvm_test_top.env.scb [RRESP] Matched : exp_rresp=3 actual_rresp =3 write = 0 read = 1
UVM_INFO axi4_lite_scoreboard.sv(72) @ 895: uvm_test_top.env.scb [RDATA] Matched : exp_rdata=00000000 actual_rdata =00000000
UVM_INFO axi4_lite_subscriber.sv(41) @ 915: uvm_test_top.env.sb [sb] INPUT COVERAGE = 19.79 %
UVM_INFO axi4_lite_inp_monitor.sv(38) @ 915: uvm_test_top.env.aa.inp_mon [INPUT MONITOR] READ araddr=519f1d48
UVM_INFO axi4_lite_out_monitor.sv(28) @ 925: uvm_test_top.env.pa.out_mon [OUTPUT MONITOR] BRESP = 0 RRESP = 3 RDATA = 00000000
UVM_INFO axi4_lite_driver.sv(34) @ 925: uvm_test_top.env.aa.drv [DRV] awaddr = 009c3ae8 wdata = 82ebcda7 wstrb = 1 araddr = 519f1d48
UVM_INFO axi4_lite_scoreboard.sv(68) @ 925: uvm_test_top.env.scb [RRESP] Matched : exp_rresp=3 actual_rresp =3 write = 0 read = 1
UVM_INFO axi4_lite_scoreboard.sv(72) @ 925: uvm_test_top.env.scb [RDATA] Matched : exp_rdata=00000000 actual_rdata =00000000
UVM_INFO axi4_lite_subscriber.sv(41) @ 945: uvm_test_top.env.sb [sb] INPUT COVERAGE = 19.79 %
UVM_INFO axi4_lite_inp_monitor.sv(38) @ 945: uvm_test_top.env.aa.inp_mon [INPUT MONITOR] READ araddr=8b5cb02c
UVM_INFO axi4_lite_out_monitor.sv(28) @ 955: uvm_test_top.env.pa.out_mon [OUTPUT MONITOR] BRESP = 0 RRESP = 3 RDATA = 00000000
UVM_INFO axi4_lite_driver.sv(34) @ 955: uvm_test_top.env.aa.drv [DRV] awaddr = 66812540 wdata = e33c45e8 wstrb = 1 araddr = 8b5cb02c
UVM_INFO axi4_lite_scoreboard.sv(68) @ 955: uvm_test_top.env.scb [RRESP] Matched : exp_rresp=3 actual_rresp =3 write = 0 read = 1
UVM_INFO axi4_lite_scoreboard.sv(72) @ 955: uvm_test_top.env.scb [RDATA] Matched : exp_rdata=00000000 actual_rdata =00000000
UVM_INFO axi4_lite_subscriber.sv(41) @ 975: uvm_test_top.env.sb [sb] INPUT COVERAGE = 19.79 %
UVM_INFO axi4_lite_inp_monitor.sv(38) @ 975: uvm_test_top.env.aa.inp_mon [INPUT MONITOR] READ araddr=e973c9cc
UVM_INFO axi4_lite_out_monitor.sv(28) @ 985: uvm_test_top.env.pa.out_mon [OUTPUT MONITOR] BRESP = 0 RRESP = 3 RDATA = 00000000
UVM_INFO axi4_lite_driver.sv(34) @ 985: uvm_test_top.env.aa.drv [DRV] awaddr = 114e8828 wdata = f0b707db wstrb = e araddr = e973c9cc
UVM_INFO axi4_lite_scoreboard.sv(68) @ 985: uvm_test_top.env.scb [RRESP] Matched : exp_rresp=3 actual_rresp =3 write = 0 read = 1
UVM_INFO axi4_lite_scoreboard.sv(72) @ 985: uvm_test_top.env.scb [RDATA] Matched : exp_rdata=00000000 actual_rdata =00000000
UVM_INFO axi4_lite_subscriber.sv(41) @ 1005: uvm_test_top.env.sb [sb] INPUT COVERAGE = 19.79 %
UVM_INFO axi4_lite_inp_monitor.sv(38) @ 1005: uvm_test_top.env.aa.inp_mon [INPUT MONITOR] READ araddr=91cdff24
UVM_INFO axi4_lite_out_monitor.sv(28) @ 1015: uvm_test_top.env.pa.out_mon [OUTPUT MONITOR] BRESP = 0 RRESP = 3 RDATA = 00000000
UVM_INFO axi4_lite_driver.sv(34) @ 1015: uvm_test_top.env.aa.drv [DRV] awaddr = ff9bcc3c wdata = d890fa44 wstrb = f araddr = 91cdff24
UVM_INFO axi4_lite_scoreboard.sv(68) @ 1015: uvm_test_top.env.scb [RRESP] Matched : exp_rresp=3 actual_rresp =3 write = 0 read = 1
UVM_INFO axi4_lite_scoreboard.sv(72) @ 1015: uvm_test_top.env.scb [RDATA] Matched : exp_rdata=00000000 actual_rdata =00000000
UVM_INFO axi4_lite_subscriber.sv(41) @ 1035: uvm_test_top.env.sb [sb] INPUT COVERAGE = 19.79 %
UVM_INFO axi4_lite_inp_monitor.sv(38) @ 1035: uvm_test_top.env.aa.inp_mon [INPUT MONITOR] READ araddr=e74439ac
UVM_INFO axi4_lite_out_monitor.sv(28) @ 1045: uvm_test_top.env.pa.out_mon [OUTPUT MONITOR] BRESP = 0 RRESP = 3 RDATA = 00000000
UVM_INFO axi4_lite_driver.sv(34) @ 1045: uvm_test_top.env.aa.drv [DRV] awaddr = 1eea4b2c wdata = bb71651b wstrb = b araddr = e74439ac
UVM_INFO axi4_lite_scoreboard.sv(68) @ 1045: uvm_test_top.env.scb [RRESP] Matched : exp_rresp=3 actual_rresp =3 write = 0 read = 1
UVM_INFO axi4_lite_scoreboard.sv(72) @ 1045: uvm_test_top.env.scb [RDATA] Matched : exp_rdata=00000000 actual_rdata =00000000
UVM_INFO axi4_lite_subscriber.sv(41) @ 1065: uvm_test_top.env.sb [sb] INPUT COVERAGE = 19.79 %
UVM_INFO axi4_lite_inp_monitor.sv(38) @ 1065: uvm_test_top.env.aa.inp_mon [INPUT MONITOR] READ araddr=ee078370
UVM_INFO axi4_lite_out_monitor.sv(28) @ 1075: uvm_test_top.env.pa.out_mon [OUTPUT MONITOR] BRESP = 0 RRESP = 3 RDATA = 00000000
UVM_INFO axi4_lite_driver.sv(34) @ 1075: uvm_test_top.env.aa.drv [DRV] awaddr = e0bd3238 wdata = f37cb0c7 wstrb = b araddr = ee078370
UVM_INFO axi4_lite_scoreboard.sv(68) @ 1075: uvm_test_top.env.scb [RRESP] Matched : exp_rresp=3 actual_rresp =3 write = 0 read = 1
UVM_INFO axi4_lite_scoreboard.sv(72) @ 1075: uvm_test_top.env.scb [RDATA] Matched : exp_rdata=00000000 actual_rdata =00000000
UVM_INFO axi4_lite_subscriber.sv(41) @ 1095: uvm_test_top.env.sb [sb] INPUT COVERAGE = 19.79 %
UVM_INFO axi4_lite_inp_monitor.sv(38) @ 1095: uvm_test_top.env.aa.inp_mon [INPUT MONITOR] READ araddr=52a37a0c
UVM_INFO axi4_lite_out_monitor.sv(28) @ 1105: uvm_test_top.env.pa.out_mon [OUTPUT MONITOR] BRESP = 0 RRESP = 3 RDATA = 00000000
UVM_INFO axi4_lite_driver.sv(34) @ 1105: uvm_test_top.env.aa.drv [DRV] awaddr = 8a9bb014 wdata = 2152ec7e wstrb = a araddr = 52a37a0c
UVM_INFO axi4_lite_scoreboard.sv(68) @ 1105: uvm_test_top.env.scb [RRESP] Matched : exp_rresp=3 actual_rresp =3 write = 0 read = 1
UVM_INFO axi4_lite_scoreboard.sv(72) @ 1105: uvm_test_top.env.scb [RDATA] Matched : exp_rdata=00000000 actual_rdata =00000000
UVM_INFO axi4_lite_subscriber.sv(41) @ 1125: uvm_test_top.env.sb [sb] INPUT COVERAGE = 19.79 %
UVM_INFO axi4_lite_inp_monitor.sv(38) @ 1125: uvm_test_top.env.aa.inp_mon [INPUT MONITOR] READ araddr=be80e4d4
UVM_INFO axi4_lite_out_monitor.sv(28) @ 1135: uvm_test_top.env.pa.out_mon [OUTPUT MONITOR] BRESP = 0 RRESP = 3 RDATA = 00000000
UVM_INFO axi4_lite_driver.sv(34) @ 1135: uvm_test_top.env.aa.drv [DRV] awaddr = efc989ac wdata = 9dc974d0 wstrb = 3 araddr = be80e4d4
UVM_INFO axi4_lite_scoreboard.sv(68) @ 1135: uvm_test_top.env.scb [RRESP] Matched : exp_rresp=3 actual_rresp =3 write = 0 read = 1
UVM_INFO axi4_lite_scoreboard.sv(72) @ 1135: uvm_test_top.env.scb [RDATA] Matched : exp_rdata=00000000 actual_rdata =00000000
UVM_INFO axi4_lite_subscriber.sv(41) @ 1155: uvm_test_top.env.sb [sb] INPUT COVERAGE = 19.79 %
UVM_INFO axi4_lite_inp_monitor.sv(38) @ 1155: uvm_test_top.env.aa.inp_mon [INPUT MONITOR] READ araddr=762c1274
UVM_INFO axi4_lite_out_monitor.sv(28) @ 1165: uvm_test_top.env.pa.out_mon [OUTPUT MONITOR] BRESP = 0 RRESP = 3 RDATA = 00000000
UVM_INFO axi4_lite_driver.sv(34) @ 1165: uvm_test_top.env.aa.drv [DRV] awaddr = 7384ac64 wdata = 81492562 wstrb = 1 araddr = 762c1274
UVM_INFO axi4_lite_scoreboard.sv(68) @ 1165: uvm_test_top.env.scb [RRESP] Matched : exp_rresp=3 actual_rresp =3 write = 0 read = 1
UVM_INFO axi4_lite_scoreboard.sv(72) @ 1165: uvm_test_top.env.scb [RDATA] Matched : exp_rdata=00000000 actual_rdata =00000000
UVM_INFO axi4_lite_subscriber.sv(41) @ 1185: uvm_test_top.env.sb [sb] INPUT COVERAGE = 19.79 %
UVM_INFO axi4_lite_inp_monitor.sv(38) @ 1185: uvm_test_top.env.aa.inp_mon [INPUT MONITOR] READ araddr=2236ef8c
UVM_INFO axi4_lite_out_monitor.sv(28) @ 1195: uvm_test_top.env.pa.out_mon [OUTPUT MONITOR] BRESP = 0 RRESP = 3 RDATA = 00000000
UVM_INFO axi4_lite_driver.sv(34) @ 1195: uvm_test_top.env.aa.drv [DRV] awaddr = 1c0778c0 wdata = 358e50c7 wstrb = c araddr = 2236ef8c
UVM_INFO axi4_lite_scoreboard.sv(68) @ 1195: uvm_test_top.env.scb [RRESP] Matched : exp_rresp=3 actual_rresp =3 write = 0 read = 1
UVM_INFO axi4_lite_scoreboard.sv(72) @ 1195: uvm_test_top.env.scb [RDATA] Matched : exp_rdata=00000000 actual_rdata =00000000
UVM_INFO axi4_lite_subscriber.sv(41) @ 1215: uvm_test_top.env.sb [sb] INPUT COVERAGE = 19.79 %
UVM_INFO axi4_lite_inp_monitor.sv(38) @ 1215: uvm_test_top.env.aa.inp_mon [INPUT MONITOR] READ araddr=08830fb0
UVM_INFO axi4_lite_out_monitor.sv(28) @ 1225: uvm_test_top.env.pa.out_mon [OUTPUT MONITOR] BRESP = 0 RRESP = 3 RDATA = 00000000
UVM_INFO axi4_lite_driver.sv(34) @ 1225: uvm_test_top.env.aa.drv [DRV] awaddr = 7d51e294 wdata = 7c1768de wstrb = 0 araddr = 08830fb0
UVM_INFO axi4_lite_scoreboard.sv(68) @ 1225: uvm_test_top.env.scb [RRESP] Matched : exp_rresp=3 actual_rresp =3 write = 0 read = 1
UVM_INFO axi4_lite_scoreboard.sv(72) @ 1225: uvm_test_top.env.scb [RDATA] Matched : exp_rdata=00000000 actual_rdata =00000000
UVM_INFO axi4_lite_subscriber.sv(41) @ 1245: uvm_test_top.env.sb [sb] INPUT COVERAGE = 19.79 %
UVM_INFO axi4_lite_inp_monitor.sv(38) @ 1245: uvm_test_top.env.aa.inp_mon [INPUT MONITOR] READ araddr=14a3c79c
UVM_INFO axi4_lite_out_monitor.sv(28) @ 1255: uvm_test_top.env.pa.out_mon [OUTPUT MONITOR] BRESP = 0 RRESP = 3 RDATA = 00000000
UVM_INFO axi4_lite_driver.sv(34) @ 1255: uvm_test_top.env.aa.drv [DRV] awaddr = 29bfa3a0 wdata = 33611c97 wstrb = 9 araddr = 14a3c79c
UVM_INFO axi4_lite_scoreboard.sv(68) @ 1255: uvm_test_top.env.scb [RRESP] Matched : exp_rresp=3 actual_rresp =3 write = 0 read = 1
UVM_INFO axi4_lite_scoreboard.sv(72) @ 1255: uvm_test_top.env.scb [RDATA] Matched : exp_rdata=00000000 actual_rdata =00000000
UVM_INFO axi4_lite_subscriber.sv(41) @ 1275: uvm_test_top.env.sb [sb] INPUT COVERAGE = 19.79 %
UVM_INFO axi4_lite_inp_monitor.sv(38) @ 1275: uvm_test_top.env.aa.inp_mon [INPUT MONITOR] READ araddr=fb5dcc3c
UVM_INFO axi4_lite_out_monitor.sv(28) @ 1285: uvm_test_top.env.pa.out_mon [OUTPUT MONITOR] BRESP = 0 RRESP = 3 RDATA = 00000000
UVM_INFO axi4_lite_driver.sv(34) @ 1285: uvm_test_top.env.aa.drv [DRV] awaddr = 23232520 wdata = f1cf80a8 wstrb = 0 araddr = fb5dcc3c
UVM_INFO axi4_lite_scoreboard.sv(68) @ 1285: uvm_test_top.env.scb [RRESP] Matched : exp_rresp=3 actual_rresp =3 write = 0 read = 1
UVM_INFO axi4_lite_scoreboard.sv(72) @ 1285: uvm_test_top.env.scb [RDATA] Matched : exp_rdata=00000000 actual_rdata =00000000
UVM_INFO axi4_lite_subscriber.sv(41) @ 1305: uvm_test_top.env.sb [sb] INPUT COVERAGE = 19.79 %
UVM_INFO axi4_lite_inp_monitor.sv(38) @ 1305: uvm_test_top.env.aa.inp_mon [INPUT MONITOR] READ araddr=b24014d4
UVM_INFO axi4_lite_out_monitor.sv(28) @ 1315: uvm_test_top.env.pa.out_mon [OUTPUT MONITOR] BRESP = 0 RRESP = 3 RDATA = 00000000
UVM_INFO axi4_lite_driver.sv(34) @ 1315: uvm_test_top.env.aa.drv [DRV] awaddr = 3ed3f418 wdata = 8e88afc8 wstrb = 3 araddr = b24014d4
UVM_INFO axi4_lite_scoreboard.sv(68) @ 1315: uvm_test_top.env.scb [RRESP] Matched : exp_rresp=3 actual_rresp =3 write = 0 read = 1
UVM_INFO axi4_lite_scoreboard.sv(72) @ 1315: uvm_test_top.env.scb [RDATA] Matched : exp_rdata=00000000 actual_rdata =00000000
UVM_INFO axi4_lite_subscriber.sv(41) @ 1335: uvm_test_top.env.sb [sb] INPUT COVERAGE = 19.79 %
UVM_INFO axi4_lite_inp_monitor.sv(38) @ 1335: uvm_test_top.env.aa.inp_mon [INPUT MONITOR] READ araddr=dc8bccb4
UVM_INFO axi4_lite_out_monitor.sv(28) @ 1345: uvm_test_top.env.pa.out_mon [OUTPUT MONITOR] BRESP = 0 RRESP = 3 RDATA = 00000000
UVM_INFO axi4_lite_driver.sv(34) @ 1345: uvm_test_top.env.aa.drv [DRV] awaddr = eb13c600 wdata = 95e654b9 wstrb = 2 araddr = dc8bccb4
UVM_INFO axi4_lite_scoreboard.sv(68) @ 1345: uvm_test_top.env.scb [RRESP] Matched : exp_rresp=3 actual_rresp =3 write = 0 read = 1
UVM_INFO axi4_lite_scoreboard.sv(72) @ 1345: uvm_test_top.env.scb [RDATA] Matched : exp_rdata=00000000 actual_rdata =00000000
UVM_INFO axi4_lite_subscriber.sv(41) @ 1365: uvm_test_top.env.sb [sb] INPUT COVERAGE = 19.79 %
UVM_INFO axi4_lite_inp_monitor.sv(38) @ 1365: uvm_test_top.env.aa.inp_mon [INPUT MONITOR] READ araddr=44df945c
UVM_INFO axi4_lite_out_monitor.sv(28) @ 1375: uvm_test_top.env.pa.out_mon [OUTPUT MONITOR] BRESP = 0 RRESP = 3 RDATA = 00000000
UVM_INFO axi4_lite_driver.sv(34) @ 1375: uvm_test_top.env.aa.drv [DRV] awaddr = 2b6f21f0 wdata = 8681ec9f wstrb = e araddr = 44df945c
UVM_INFO axi4_lite_scoreboard.sv(68) @ 1375: uvm_test_top.env.scb [RRESP] Matched : exp_rresp=3 actual_rresp =3 write = 0 read = 1
UVM_INFO axi4_lite_scoreboard.sv(72) @ 1375: uvm_test_top.env.scb [RDATA] Matched : exp_rdata=00000000 actual_rdata =00000000
UVM_INFO axi4_lite_subscriber.sv(41) @ 1395: uvm_test_top.env.sb [sb] INPUT COVERAGE = 19.79 %
UVM_INFO axi4_lite_inp_monitor.sv(38) @ 1395: uvm_test_top.env.aa.inp_mon [INPUT MONITOR] READ araddr=23c9635c
UVM_INFO axi4_lite_out_monitor.sv(28) @ 1405: uvm_test_top.env.pa.out_mon [OUTPUT MONITOR] BRESP = 0 RRESP = 3 RDATA = 00000000
UVM_INFO axi4_lite_driver.sv(34) @ 1405: uvm_test_top.env.aa.drv [DRV] awaddr = 7a39f3a8 wdata = 28f2bea0 wstrb = 5 araddr = 23c9635c
UVM_INFO axi4_lite_scoreboard.sv(68) @ 1405: uvm_test_top.env.scb [RRESP] Matched : exp_rresp=3 actual_rresp =3 write = 0 read = 1
UVM_INFO axi4_lite_scoreboard.sv(72) @ 1405: uvm_test_top.env.scb [RDATA] Matched : exp_rdata=00000000 actual_rdata =00000000
UVM_INFO axi4_lite_subscriber.sv(41) @ 1425: uvm_test_top.env.sb [sb] INPUT COVERAGE = 19.79 %
UVM_INFO axi4_lite_inp_monitor.sv(38) @ 1425: uvm_test_top.env.aa.inp_mon [INPUT MONITOR] READ araddr=55c169e0
UVM_INFO axi4_lite_out_monitor.sv(28) @ 1435: uvm_test_top.env.pa.out_mon [OUTPUT MONITOR] BRESP = 0 RRESP = 3 RDATA = 00000000
UVM_INFO axi4_lite_driver.sv(34) @ 1435: uvm_test_top.env.aa.drv [DRV] awaddr = 54c57dd0 wdata = 786c48b3 wstrb = 0 araddr = 55c169e0
UVM_INFO axi4_lite_scoreboard.sv(68) @ 1435: uvm_test_top.env.scb [RRESP] Matched : exp_rresp=3 actual_rresp =3 write = 0 read = 1
UVM_INFO axi4_lite_scoreboard.sv(72) @ 1435: uvm_test_top.env.scb [RDATA] Matched : exp_rdata=00000000 actual_rdata =00000000
UVM_INFO axi4_lite_subscriber.sv(41) @ 1455: uvm_test_top.env.sb [sb] INPUT COVERAGE = 19.79 %
UVM_INFO axi4_lite_inp_monitor.sv(38) @ 1455: uvm_test_top.env.aa.inp_mon [INPUT MONITOR] READ araddr=756ae818
UVM_INFO axi4_lite_out_monitor.sv(28) @ 1465: uvm_test_top.env.pa.out_mon [OUTPUT MONITOR] BRESP = 0 RRESP = 3 RDATA = 00000000
UVM_INFO axi4_lite_driver.sv(34) @ 1465: uvm_test_top.env.aa.drv [DRV] awaddr = df9760c0 wdata = 7eb8d630 wstrb = 6 araddr = 756ae818
UVM_INFO axi4_lite_scoreboard.sv(68) @ 1465: uvm_test_top.env.scb [RRESP] Matched : exp_rresp=3 actual_rresp =3 write = 0 read = 1
UVM_INFO axi4_lite_scoreboard.sv(72) @ 1465: uvm_test_top.env.scb [RDATA] Matched : exp_rdata=00000000 actual_rdata =00000000
UVM_INFO axi4_lite_subscriber.sv(41) @ 1485: uvm_test_top.env.sb [sb] INPUT COVERAGE = 19.79 %
UVM_INFO axi4_lite_inp_monitor.sv(38) @ 1485: uvm_test_top.env.aa.inp_mon [INPUT MONITOR] READ araddr=86e228c4
UVM_INFO axi4_lite_out_monitor.sv(28) @ 1495: uvm_test_top.env.pa.out_mon [OUTPUT MONITOR] BRESP = 0 RRESP = 3 RDATA = 00000000
UVM_INFO axi4_lite_driver.sv(34) @ 1495: uvm_test_top.env.aa.drv [DRV] awaddr = 779f9c4c wdata = 1ef20821 wstrb = 7 araddr = 86e228c4
UVM_INFO axi4_lite_scoreboard.sv(68) @ 1495: uvm_test_top.env.scb [RRESP] Matched : exp_rresp=3 actual_rresp =3 write = 0 read = 1
UVM_INFO axi4_lite_scoreboard.sv(72) @ 1495: uvm_test_top.env.scb [RDATA] Matched : exp_rdata=00000000 actual_rdata =00000000
UVM_INFO axi4_lite_subscriber.sv(41) @ 1515: uvm_test_top.env.sb [sb] INPUT COVERAGE = 19.79 %
UVM_INFO axi4_lite_inp_monitor.sv(38) @ 1515: uvm_test_top.env.aa.inp_mon [INPUT MONITOR] READ araddr=c84946f4
UVM_INFO axi4_lite_out_monitor.sv(28) @ 1525: uvm_test_top.env.pa.out_mon [OUTPUT MONITOR] BRESP = 0 RRESP = 3 RDATA = 00000000
UVM_INFO axi4_lite_driver.sv(34) @ 1525: uvm_test_top.env.aa.drv [DRV] awaddr = 60f3bd48 wdata = 6d379535 wstrb = 7 araddr = c84946f4
UVM_INFO axi4_lite_scoreboard.sv(68) @ 1525: uvm_test_top.env.scb [RRESP] Matched : exp_rresp=3 actual_rresp =3 write = 0 read = 1
UVM_INFO axi4_lite_scoreboard.sv(72) @ 1525: uvm_test_top.env.scb [RDATA] Matched : exp_rdata=00000000 actual_rdata =00000000
UVM_INFO axi4_lite_subscriber.sv(41) @ 1545: uvm_test_top.env.sb [sb] INPUT COVERAGE = 19.79 %
UVM_INFO axi4_lite_inp_monitor.sv(38) @ 1545: uvm_test_top.env.aa.inp_mon [INPUT MONITOR] READ araddr=984c4494
UVM_INFO axi4_lite_out_monitor.sv(28) @ 1555: uvm_test_top.env.pa.out_mon [OUTPUT MONITOR] BRESP = 0 RRESP = 3 RDATA = 00000000
UVM_INFO axi4_lite_driver.sv(34) @ 1555: uvm_test_top.env.aa.drv [DRV] awaddr = 36f23694 wdata = fa5b4d31 wstrb = 5 araddr = 984c4494
UVM_INFO axi4_lite_scoreboard.sv(68) @ 1555: uvm_test_top.env.scb [RRESP] Matched : exp_rresp=3 actual_rresp =3 write = 0 read = 1
UVM_INFO axi4_lite_scoreboard.sv(72) @ 1555: uvm_test_top.env.scb [RDATA] Matched : exp_rdata=00000000 actual_rdata =00000000
UVM_INFO axi4_lite_subscriber.sv(41) @ 1575: uvm_test_top.env.sb [sb] INPUT COVERAGE = 19.79 %
UVM_INFO axi4_lite_inp_monitor.sv(38) @ 1575: uvm_test_top.env.aa.inp_mon [INPUT MONITOR] READ araddr=ce6ccfbc
UVM_INFO axi4_lite_out_monitor.sv(28) @ 1585: uvm_test_top.env.pa.out_mon [OUTPUT MONITOR] BRESP = 0 RRESP = 3 RDATA = 00000000
UVM_INFO axi4_lite_driver.sv(34) @ 1585: uvm_test_top.env.aa.drv [DRV] awaddr = 087975b0 wdata = 8df54e9c wstrb = 5 araddr = ce6ccfbc
UVM_INFO axi4_lite_scoreboard.sv(68) @ 1585: uvm_test_top.env.scb [RRESP] Matched : exp_rresp=3 actual_rresp =3 write = 0 read = 1
UVM_INFO axi4_lite_scoreboard.sv(72) @ 1585: uvm_test_top.env.scb [RDATA] Matched : exp_rdata=00000000 actual_rdata =00000000
UVM_INFO axi4_lite_subscriber.sv(41) @ 1605: uvm_test_top.env.sb [sb] INPUT COVERAGE = 19.79 %
UVM_INFO axi4_lite_inp_monitor.sv(38) @ 1605: uvm_test_top.env.aa.inp_mon [INPUT MONITOR] READ araddr=c2cca6a4
UVM_INFO axi4_lite_out_monitor.sv(28) @ 1615: uvm_test_top.env.pa.out_mon [OUTPUT MONITOR] BRESP = 0 RRESP = 3 RDATA = 00000000
UVM_INFO axi4_lite_driver.sv(34) @ 1615: uvm_test_top.env.aa.drv [DRV] awaddr = 37175324 wdata = 2375aa74 wstrb = c araddr = c2cca6a4
UVM_INFO axi4_lite_scoreboard.sv(68) @ 1615: uvm_test_top.env.scb [RRESP] Matched : exp_rresp=3 actual_rresp =3 write = 0 read = 1
UVM_INFO axi4_lite_scoreboard.sv(72) @ 1615: uvm_test_top.env.scb [RDATA] Matched : exp_rdata=00000000 actual_rdata =00000000
UVM_INFO axi4_lite_subscriber.sv(41) @ 1635: uvm_test_top.env.sb [sb] INPUT COVERAGE = 19.79 %
UVM_INFO axi4_lite_inp_monitor.sv(38) @ 1635: uvm_test_top.env.aa.inp_mon [INPUT MONITOR] READ araddr=ad91fe0c
UVM_INFO axi4_lite_out_monitor.sv(28) @ 1645: uvm_test_top.env.pa.out_mon [OUTPUT MONITOR] BRESP = 0 RRESP = 3 RDATA = 00000000
UVM_INFO axi4_lite_driver.sv(34) @ 1645: uvm_test_top.env.aa.drv [DRV] awaddr = 34cb5128 wdata = 54ce02c3 wstrb = f araddr = ad91fe0c
UVM_INFO axi4_lite_scoreboard.sv(68) @ 1645: uvm_test_top.env.scb [RRESP] Matched : exp_rresp=3 actual_rresp =3 write = 0 read = 1
UVM_INFO axi4_lite_scoreboard.sv(72) @ 1645: uvm_test_top.env.scb [RDATA] Matched : exp_rdata=00000000 actual_rdata =00000000
UVM_INFO axi4_lite_subscriber.sv(41) @ 1665: uvm_test_top.env.sb [sb] INPUT COVERAGE = 19.79 %
UVM_INFO axi4_lite_inp_monitor.sv(38) @ 1665: uvm_test_top.env.aa.inp_mon [INPUT MONITOR] READ araddr=34debcac
UVM_INFO axi4_lite_out_monitor.sv(28) @ 1675: uvm_test_top.env.pa.out_mon [OUTPUT MONITOR] BRESP = 0 RRESP = 3 RDATA = 00000000
UVM_INFO axi4_lite_driver.sv(34) @ 1675: uvm_test_top.env.aa.drv [DRV] awaddr = 1b929080 wdata = b293fd1c wstrb = c araddr = 34debcac
UVM_INFO axi4_lite_scoreboard.sv(68) @ 1675: uvm_test_top.env.scb [RRESP] Matched : exp_rresp=3 actual_rresp =3 write = 0 read = 1
UVM_INFO axi4_lite_scoreboard.sv(72) @ 1675: uvm_test_top.env.scb [RDATA] Matched : exp_rdata=00000000 actual_rdata =00000000
UVM_INFO axi4_lite_subscriber.sv(41) @ 1695: uvm_test_top.env.sb [sb] INPUT COVERAGE = 19.79 %
UVM_INFO axi4_lite_inp_monitor.sv(38) @ 1695: uvm_test_top.env.aa.inp_mon [INPUT MONITOR] READ araddr=aa86b9d8
UVM_INFO axi4_lite_out_monitor.sv(28) @ 1705: uvm_test_top.env.pa.out_mon [OUTPUT MONITOR] BRESP = 0 RRESP = 3 RDATA = 00000000
UVM_INFO axi4_lite_driver.sv(34) @ 1705: uvm_test_top.env.aa.drv [DRV] awaddr = feb79ac8 wdata = 6ee0bd09 wstrb = 6 araddr = aa86b9d8
UVM_INFO axi4_lite_scoreboard.sv(68) @ 1705: uvm_test_top.env.scb [RRESP] Matched : exp_rresp=3 actual_rresp =3 write = 0 read = 1
UVM_INFO axi4_lite_scoreboard.sv(72) @ 1705: uvm_test_top.env.scb [RDATA] Matched : exp_rdata=00000000 actual_rdata =00000000
UVM_INFO axi4_lite_subscriber.sv(41) @ 1725: uvm_test_top.env.sb [sb] INPUT COVERAGE = 19.79 %
UVM_INFO axi4_lite_inp_monitor.sv(38) @ 1725: uvm_test_top.env.aa.inp_mon [INPUT MONITOR] READ araddr=d3a9af10
UVM_INFO axi4_lite_out_monitor.sv(28) @ 1735: uvm_test_top.env.pa.out_mon [OUTPUT MONITOR] BRESP = 0 RRESP = 3 RDATA = 00000000
UVM_INFO axi4_lite_driver.sv(34) @ 1735: uvm_test_top.env.aa.drv [DRV] awaddr = f7537574 wdata = 1c385c69 wstrb = 2 araddr = d3a9af10
UVM_INFO axi4_lite_scoreboard.sv(68) @ 1735: uvm_test_top.env.scb [RRESP] Matched : exp_rresp=3 actual_rresp =3 write = 0 read = 1
UVM_INFO axi4_lite_scoreboard.sv(72) @ 1735: uvm_test_top.env.scb [RDATA] Matched : exp_rdata=00000000 actual_rdata =00000000
UVM_INFO axi4_lite_subscriber.sv(41) @ 1755: uvm_test_top.env.sb [sb] INPUT COVERAGE = 19.79 %
UVM_INFO axi4_lite_inp_monitor.sv(38) @ 1755: uvm_test_top.env.aa.inp_mon [INPUT MONITOR] READ araddr=4aa672e8
UVM_INFO axi4_lite_out_monitor.sv(28) @ 1765: uvm_test_top.env.pa.out_mon [OUTPUT MONITOR] BRESP = 0 RRESP = 3 RDATA = 00000000
UVM_INFO axi4_lite_driver.sv(34) @ 1765: uvm_test_top.env.aa.drv [DRV] awaddr = 32810294 wdata = 325c5cdf wstrb = 3 araddr = 4aa672e8
UVM_INFO axi4_lite_scoreboard.sv(68) @ 1765: uvm_test_top.env.scb [RRESP] Matched : exp_rresp=3 actual_rresp =3 write = 0 read = 1
UVM_INFO axi4_lite_scoreboard.sv(72) @ 1765: uvm_test_top.env.scb [RDATA] Matched : exp_rdata=00000000 actual_rdata =00000000
UVM_INFO axi4_lite_subscriber.sv(41) @ 1785: uvm_test_top.env.sb [sb] INPUT COVERAGE = 19.79 %
UVM_INFO axi4_lite_inp_monitor.sv(38) @ 1785: uvm_test_top.env.aa.inp_mon [INPUT MONITOR] READ araddr=a51a03d4
UVM_INFO axi4_lite_out_monitor.sv(28) @ 1795: uvm_test_top.env.pa.out_mon [OUTPUT MONITOR] BRESP = 0 RRESP = 3 RDATA = 00000000
UVM_INFO axi4_lite_driver.sv(34) @ 1795: uvm_test_top.env.aa.drv [DRV] awaddr = ad34b170 wdata = f72703f0 wstrb = 8 araddr = a51a03d4
UVM_INFO axi4_lite_scoreboard.sv(68) @ 1795: uvm_test_top.env.scb [RRESP] Matched : exp_rresp=3 actual_rresp =3 write = 0 read = 1
UVM_INFO axi4_lite_scoreboard.sv(72) @ 1795: uvm_test_top.env.scb [RDATA] Matched : exp_rdata=00000000 actual_rdata =00000000
UVM_INFO axi4_lite_subscriber.sv(41) @ 1815: uvm_test_top.env.sb [sb] INPUT COVERAGE = 19.79 %
UVM_INFO axi4_lite_inp_monitor.sv(38) @ 1815: uvm_test_top.env.aa.inp_mon [INPUT MONITOR] READ araddr=e9cb18f0
UVM_INFO axi4_lite_out_monitor.sv(28) @ 1825: uvm_test_top.env.pa.out_mon [OUTPUT MONITOR] BRESP = 0 RRESP = 3 RDATA = 00000000
UVM_INFO axi4_lite_driver.sv(34) @ 1825: uvm_test_top.env.aa.drv [DRV] awaddr = edfc9d48 wdata = 0948b8aa wstrb = e araddr = e9cb18f0
UVM_INFO axi4_lite_scoreboard.sv(68) @ 1825: uvm_test_top.env.scb [RRESP] Matched : exp_rresp=3 actual_rresp =3 write = 0 read = 1
UVM_INFO axi4_lite_scoreboard.sv(72) @ 1825: uvm_test_top.env.scb [RDATA] Matched : exp_rdata=00000000 actual_rdata =00000000
UVM_INFO axi4_lite_subscriber.sv(41) @ 1845: uvm_test_top.env.sb [sb] INPUT COVERAGE = 19.79 %
UVM_INFO axi4_lite_inp_monitor.sv(38) @ 1845: uvm_test_top.env.aa.inp_mon [INPUT MONITOR] READ araddr=058fe6ac
UVM_INFO axi4_lite_out_monitor.sv(28) @ 1855: uvm_test_top.env.pa.out_mon [OUTPUT MONITOR] BRESP = 0 RRESP = 3 RDATA = 00000000
UVM_INFO axi4_lite_driver.sv(34) @ 1855: uvm_test_top.env.aa.drv [DRV] awaddr = 2d7179e4 wdata = 1a70789b wstrb = 5 araddr = 058fe6ac
UVM_INFO axi4_lite_scoreboard.sv(68) @ 1855: uvm_test_top.env.scb [RRESP] Matched : exp_rresp=3 actual_rresp =3 write = 0 read = 1
UVM_INFO axi4_lite_scoreboard.sv(72) @ 1855: uvm_test_top.env.scb [RDATA] Matched : exp_rdata=00000000 actual_rdata =00000000
UVM_INFO axi4_lite_subscriber.sv(41) @ 1875: uvm_test_top.env.sb [sb] INPUT COVERAGE = 19.79 %
UVM_INFO axi4_lite_inp_monitor.sv(38) @ 1875: uvm_test_top.env.aa.inp_mon [INPUT MONITOR] READ araddr=0bbf6218
UVM_INFO axi4_lite_out_monitor.sv(28) @ 1885: uvm_test_top.env.pa.out_mon [OUTPUT MONITOR] BRESP = 0 RRESP = 3 RDATA = 00000000
UVM_INFO axi4_lite_driver.sv(34) @ 1885: uvm_test_top.env.aa.drv [DRV] awaddr = 8c499dc4 wdata = 710c70ea wstrb = 0 araddr = 0bbf6218
UVM_INFO axi4_lite_scoreboard.sv(68) @ 1885: uvm_test_top.env.scb [RRESP] Matched : exp_rresp=3 actual_rresp =3 write = 0 read = 1
UVM_INFO axi4_lite_scoreboard.sv(72) @ 1885: uvm_test_top.env.scb [RDATA] Matched : exp_rdata=00000000 actual_rdata =00000000
UVM_INFO axi4_lite_subscriber.sv(41) @ 1905: uvm_test_top.env.sb [sb] INPUT COVERAGE = 19.79 %
UVM_INFO axi4_lite_inp_monitor.sv(38) @ 1905: uvm_test_top.env.aa.inp_mon [INPUT MONITOR] READ araddr=e32d2450
UVM_INFO axi4_lite_out_monitor.sv(28) @ 1915: uvm_test_top.env.pa.out_mon [OUTPUT MONITOR] BRESP = 0 RRESP = 3 RDATA = 00000000
UVM_INFO axi4_lite_driver.sv(34) @ 1915: uvm_test_top.env.aa.drv [DRV] awaddr = db2fcaf4 wdata = c12cb0fa wstrb = f araddr = e32d2450
UVM_INFO axi4_lite_scoreboard.sv(68) @ 1915: uvm_test_top.env.scb [RRESP] Matched : exp_rresp=3 actual_rresp =3 write = 0 read = 1
UVM_INFO axi4_lite_scoreboard.sv(72) @ 1915: uvm_test_top.env.scb [RDATA] Matched : exp_rdata=00000000 actual_rdata =00000000
UVM_INFO axi4_lite_subscriber.sv(41) @ 1935: uvm_test_top.env.sb [sb] INPUT COVERAGE = 19.79 %
UVM_INFO axi4_lite_inp_monitor.sv(38) @ 1935: uvm_test_top.env.aa.inp_mon [INPUT MONITOR] READ araddr=e4cdbba0
UVM_INFO axi4_lite_out_monitor.sv(28) @ 1945: uvm_test_top.env.pa.out_mon [OUTPUT MONITOR] BRESP = 0 RRESP = 3 RDATA = 00000000
UVM_INFO axi4_lite_driver.sv(34) @ 1945: uvm_test_top.env.aa.drv [DRV] awaddr = 33a8fc8c wdata = 8e029c39 wstrb = 6 araddr = e4cdbba0
UVM_INFO axi4_lite_scoreboard.sv(68) @ 1945: uvm_test_top.env.scb [RRESP] Matched : exp_rresp=3 actual_rresp =3 write = 0 read = 1
UVM_INFO axi4_lite_scoreboard.sv(72) @ 1945: uvm_test_top.env.scb [RDATA] Matched : exp_rdata=00000000 actual_rdata =00000000
UVM_INFO axi4_lite_subscriber.sv(41) @ 1965: uvm_test_top.env.sb [sb] INPUT COVERAGE = 19.79 %
UVM_INFO axi4_lite_inp_monitor.sv(38) @ 1965: uvm_test_top.env.aa.inp_mon [INPUT MONITOR] READ araddr=13c6be5c
UVM_INFO axi4_lite_out_monitor.sv(28) @ 1975: uvm_test_top.env.pa.out_mon [OUTPUT MONITOR] BRESP = 0 RRESP = 3 RDATA = 00000000
UVM_INFO axi4_lite_driver.sv(34) @ 1975: uvm_test_top.env.aa.drv [DRV] awaddr = f4eb1584 wdata = cc4e399d wstrb = d araddr = 13c6be5c
UVM_INFO axi4_lite_scoreboard.sv(68) @ 1975: uvm_test_top.env.scb [RRESP] Matched : exp_rresp=3 actual_rresp =3 write = 0 read = 1
UVM_INFO axi4_lite_scoreboard.sv(72) @ 1975: uvm_test_top.env.scb [RDATA] Matched : exp_rdata=00000000 actual_rdata =00000000
UVM_INFO axi4_lite_subscriber.sv(41) @ 1995: uvm_test_top.env.sb [sb] INPUT COVERAGE = 19.79 %
UVM_INFO axi4_lite_inp_monitor.sv(38) @ 1995: uvm_test_top.env.aa.inp_mon [INPUT MONITOR] READ araddr=3ad68950
UVM_INFO axi4_lite_out_monitor.sv(28) @ 2005: uvm_test_top.env.pa.out_mon [OUTPUT MONITOR] BRESP = 0 RRESP = 3 RDATA = 00000000
UVM_INFO axi4_lite_driver.sv(34) @ 2005: uvm_test_top.env.aa.drv [DRV] awaddr = bdd73a24 wdata = 51388246 wstrb = c araddr = 3ad68950
UVM_INFO axi4_lite_scoreboard.sv(68) @ 2005: uvm_test_top.env.scb [RRESP] Matched : exp_rresp=3 actual_rresp =3 write = 0 read = 1
UVM_INFO axi4_lite_scoreboard.sv(72) @ 2005: uvm_test_top.env.scb [RDATA] Matched : exp_rdata=00000000 actual_rdata =00000000
UVM_INFO axi4_lite_subscriber.sv(41) @ 2025: uvm_test_top.env.sb [sb] INPUT COVERAGE = 19.79 %
UVM_INFO axi4_lite_inp_monitor.sv(38) @ 2025: uvm_test_top.env.aa.inp_mon [INPUT MONITOR] READ araddr=2855c470
UVM_INFO axi4_lite_out_monitor.sv(28) @ 2035: uvm_test_top.env.pa.out_mon [OUTPUT MONITOR] BRESP = 0 RRESP = 3 RDATA = 00000000
UVM_INFO axi4_lite_driver.sv(34) @ 2035: uvm_test_top.env.aa.drv [DRV] awaddr = c3cc6e14 wdata = 01a33179 wstrb = d araddr = 2855c470
UVM_INFO axi4_lite_scoreboard.sv(68) @ 2035: uvm_test_top.env.scb [RRESP] Matched : exp_rresp=3 actual_rresp =3 write = 0 read = 1
UVM_INFO axi4_lite_scoreboard.sv(72) @ 2035: uvm_test_top.env.scb [RDATA] Matched : exp_rdata=00000000 actual_rdata =00000000
UVM_INFO axi4_lite_subscriber.sv(41) @ 2055: uvm_test_top.env.sb [sb] INPUT COVERAGE = 19.79 %
UVM_INFO axi4_lite_inp_monitor.sv(38) @ 2055: uvm_test_top.env.aa.inp_mon [INPUT MONITOR] READ araddr=aa050b0c
UVM_INFO axi4_lite_out_monitor.sv(28) @ 2065: uvm_test_top.env.pa.out_mon [OUTPUT MONITOR] BRESP = 0 RRESP = 3 RDATA = 00000000
UVM_INFO axi4_lite_driver.sv(34) @ 2065: uvm_test_top.env.aa.drv [DRV] awaddr = 3daaaae4 wdata = ca9d3cf1 wstrb = 2 araddr = aa050b0c
UVM_INFO axi4_lite_scoreboard.sv(68) @ 2065: uvm_test_top.env.scb [RRESP] Matched : exp_rresp=3 actual_rresp =3 write = 0 read = 1
UVM_INFO axi4_lite_scoreboard.sv(72) @ 2065: uvm_test_top.env.scb [RDATA] Matched : exp_rdata=00000000 actual_rdata =00000000
UVM_INFO axi4_lite_subscriber.sv(41) @ 2085: uvm_test_top.env.sb [sb] INPUT COVERAGE = 19.79 %
UVM_INFO axi4_lite_inp_monitor.sv(38) @ 2085: uvm_test_top.env.aa.inp_mon [INPUT MONITOR] READ araddr=82df4858
UVM_INFO axi4_lite_out_monitor.sv(28) @ 2095: uvm_test_top.env.pa.out_mon [OUTPUT MONITOR] BRESP = 0 RRESP = 3 RDATA = 00000000
UVM_INFO axi4_lite_driver.sv(34) @ 2095: uvm_test_top.env.aa.drv [DRV] awaddr = 8448b990 wdata = 2db96824 wstrb = 5 araddr = 82df4858
UVM_INFO axi4_lite_scoreboard.sv(68) @ 2095: uvm_test_top.env.scb [RRESP] Matched : exp_rresp=3 actual_rresp =3 write = 0 read = 1
UVM_INFO axi4_lite_scoreboard.sv(72) @ 2095: uvm_test_top.env.scb [RDATA] Matched : exp_rdata=00000000 actual_rdata =00000000
UVM_INFO axi4_lite_subscriber.sv(41) @ 2115: uvm_test_top.env.sb [sb] INPUT COVERAGE = 19.79 %
UVM_INFO axi4_lite_inp_monitor.sv(38) @ 2115: uvm_test_top.env.aa.inp_mon [INPUT MONITOR] READ araddr=aff25bf0
UVM_INFO axi4_lite_out_monitor.sv(28) @ 2125: uvm_test_top.env.pa.out_mon [OUTPUT MONITOR] BRESP = 0 RRESP = 3 RDATA = 00000000
UVM_INFO axi4_lite_driver.sv(34) @ 2125: uvm_test_top.env.aa.drv [DRV] awaddr = 4555f044 wdata = d068ab19 wstrb = 7 araddr = aff25bf0
UVM_INFO axi4_lite_scoreboard.sv(68) @ 2125: uvm_test_top.env.scb [RRESP] Matched : exp_rresp=3 actual_rresp =3 write = 0 read = 1
UVM_INFO axi4_lite_scoreboard.sv(72) @ 2125: uvm_test_top.env.scb [RDATA] Matched : exp_rdata=00000000 actual_rdata =00000000
UVM_INFO axi4_lite_subscriber.sv(41) @ 2145: uvm_test_top.env.sb [sb] INPUT COVERAGE = 19.79 %
UVM_INFO axi4_lite_inp_monitor.sv(38) @ 2145: uvm_test_top.env.aa.inp_mon [INPUT MONITOR] READ araddr=539f7474
UVM_INFO axi4_lite_out_monitor.sv(28) @ 2155: uvm_test_top.env.pa.out_mon [OUTPUT MONITOR] BRESP = 0 RRESP = 3 RDATA = 00000000
UVM_INFO axi4_lite_driver.sv(34) @ 2155: uvm_test_top.env.aa.drv [DRV] awaddr = cc1ec044 wdata = 799e7ad5 wstrb = a araddr = 539f7474
UVM_INFO axi4_lite_scoreboard.sv(68) @ 2155: uvm_test_top.env.scb [RRESP] Matched : exp_rresp=3 actual_rresp =3 write = 0 read = 1
UVM_INFO axi4_lite_scoreboard.sv(72) @ 2155: uvm_test_top.env.scb [RDATA] Matched : exp_rdata=00000000 actual_rdata =00000000
UVM_INFO axi4_lite_subscriber.sv(41) @ 2175: uvm_test_top.env.sb [sb] INPUT COVERAGE = 19.79 %
UVM_INFO axi4_lite_inp_monitor.sv(38) @ 2175: uvm_test_top.env.aa.inp_mon [INPUT MONITOR] READ araddr=87377a58
UVM_INFO axi4_lite_out_monitor.sv(28) @ 2185: uvm_test_top.env.pa.out_mon [OUTPUT MONITOR] BRESP = 0 RRESP = 3 RDATA = 00000000
UVM_INFO axi4_lite_driver.sv(34) @ 2185: uvm_test_top.env.aa.drv [DRV] awaddr = cdc005cc wdata = bae59dc1 wstrb = 8 araddr = 87377a58
UVM_INFO axi4_lite_scoreboard.sv(68) @ 2185: uvm_test_top.env.scb [RRESP] Matched : exp_rresp=3 actual_rresp =3 write = 0 read = 1
UVM_INFO axi4_lite_scoreboard.sv(72) @ 2185: uvm_test_top.env.scb [RDATA] Matched : exp_rdata=00000000 actual_rdata =00000000
UVM_INFO axi4_lite_subscriber.sv(41) @ 2205: uvm_test_top.env.sb [sb] INPUT COVERAGE = 19.79 %
UVM_INFO axi4_lite_inp_monitor.sv(38) @ 2205: uvm_test_top.env.aa.inp_mon [INPUT MONITOR] READ araddr=f2988008
UVM_INFO axi4_lite_out_monitor.sv(28) @ 2215: uvm_test_top.env.pa.out_mon [OUTPUT MONITOR] BRESP = 0 RRESP = 3 RDATA = 00000000
UVM_INFO axi4_lite_driver.sv(34) @ 2215: uvm_test_top.env.aa.drv [DRV] awaddr = 163b235c wdata = 47b0d433 wstrb = 3 araddr = f2988008
UVM_INFO axi4_lite_scoreboard.sv(68) @ 2215: uvm_test_top.env.scb [RRESP] Matched : exp_rresp=3 actual_rresp =3 write = 0 read = 1
UVM_INFO axi4_lite_scoreboard.sv(72) @ 2215: uvm_test_top.env.scb [RDATA] Matched : exp_rdata=00000000 actual_rdata =00000000
UVM_INFO axi4_lite_subscriber.sv(41) @ 2235: uvm_test_top.env.sb [sb] INPUT COVERAGE = 19.79 %
UVM_INFO axi4_lite_inp_monitor.sv(38) @ 2235: uvm_test_top.env.aa.inp_mon [INPUT MONITOR] READ araddr=15544c4c
UVM_INFO axi4_lite_out_monitor.sv(28) @ 2245: uvm_test_top.env.pa.out_mon [OUTPUT MONITOR] BRESP = 0 RRESP = 3 RDATA = 00000000
UVM_INFO axi4_lite_driver.sv(34) @ 2245: uvm_test_top.env.aa.drv [DRV] awaddr = 7d563464 wdata = dea4923e wstrb = 0 araddr = 15544c4c
UVM_INFO axi4_lite_scoreboard.sv(68) @ 2245: uvm_test_top.env.scb [RRESP] Matched : exp_rresp=3 actual_rresp =3 write = 0 read = 1
UVM_INFO axi4_lite_scoreboard.sv(72) @ 2245: uvm_test_top.env.scb [RDATA] Matched : exp_rdata=00000000 actual_rdata =00000000
UVM_INFO axi4_lite_subscriber.sv(41) @ 2265: uvm_test_top.env.sb [sb] INPUT COVERAGE = 19.79 %
UVM_INFO axi4_lite_inp_monitor.sv(38) @ 2265: uvm_test_top.env.aa.inp_mon [INPUT MONITOR] READ araddr=6dfdb46c
UVM_INFO axi4_lite_out_monitor.sv(28) @ 2275: uvm_test_top.env.pa.out_mon [OUTPUT MONITOR] BRESP = 0 RRESP = 3 RDATA = 00000000
UVM_INFO axi4_lite_driver.sv(34) @ 2275: uvm_test_top.env.aa.drv [DRV] awaddr = 5232c2cc wdata = 85eb050e wstrb = d araddr = 6dfdb46c
UVM_INFO axi4_lite_scoreboard.sv(68) @ 2275: uvm_test_top.env.scb [RRESP] Matched : exp_rresp=3 actual_rresp =3 write = 0 read = 1
UVM_INFO axi4_lite_scoreboard.sv(72) @ 2275: uvm_test_top.env.scb [RDATA] Matched : exp_rdata=00000000 actual_rdata =00000000
UVM_INFO axi4_lite_subscriber.sv(41) @ 2295: uvm_test_top.env.sb [sb] INPUT COVERAGE = 19.79 %
UVM_INFO axi4_lite_inp_monitor.sv(38) @ 2295: uvm_test_top.env.aa.inp_mon [INPUT MONITOR] READ araddr=4df27570
UVM_INFO axi4_lite_out_monitor.sv(28) @ 2305: uvm_test_top.env.pa.out_mon [OUTPUT MONITOR] BRESP = 0 RRESP = 3 RDATA = 00000000
UVM_INFO axi4_lite_driver.sv(34) @ 2305: uvm_test_top.env.aa.drv [DRV] awaddr = 28e8c30c wdata = f0e0515e wstrb = c araddr = 4df27570
UVM_INFO axi4_lite_scoreboard.sv(68) @ 2305: uvm_test_top.env.scb [RRESP] Matched : exp_rresp=3 actual_rresp =3 write = 0 read = 1
UVM_INFO axi4_lite_scoreboard.sv(72) @ 2305: uvm_test_top.env.scb [RDATA] Matched : exp_rdata=00000000 actual_rdata =00000000
UVM_INFO axi4_lite_subscriber.sv(41) @ 2325: uvm_test_top.env.sb [sb] INPUT COVERAGE = 19.79 %
UVM_INFO axi4_lite_inp_monitor.sv(38) @ 2325: uvm_test_top.env.aa.inp_mon [INPUT MONITOR] READ araddr=60755f64
UVM_INFO axi4_lite_out_monitor.sv(28) @ 2335: uvm_test_top.env.pa.out_mon [OUTPUT MONITOR] BRESP = 0 RRESP = 3 RDATA = 00000000
UVM_INFO axi4_lite_driver.sv(34) @ 2335: uvm_test_top.env.aa.drv [DRV] awaddr = e484f9c4 wdata = daf6b9c8 wstrb = 8 araddr = 60755f64
UVM_INFO axi4_lite_scoreboard.sv(68) @ 2335: uvm_test_top.env.scb [RRESP] Matched : exp_rresp=3 actual_rresp =3 write = 0 read = 1
UVM_INFO axi4_lite_scoreboard.sv(72) @ 2335: uvm_test_top.env.scb [RDATA] Matched : exp_rdata=00000000 actual_rdata =00000000
UVM_INFO axi4_lite_subscriber.sv(41) @ 2355: uvm_test_top.env.sb [sb] INPUT COVERAGE = 19.79 %
UVM_INFO axi4_lite_inp_monitor.sv(38) @ 2355: uvm_test_top.env.aa.inp_mon [INPUT MONITOR] READ araddr=25a84e84
UVM_INFO axi4_lite_out_monitor.sv(28) @ 2365: uvm_test_top.env.pa.out_mon [OUTPUT MONITOR] BRESP = 0 RRESP = 3 RDATA = 00000000
UVM_INFO axi4_lite_driver.sv(34) @ 2365: uvm_test_top.env.aa.drv [DRV] awaddr = b9d8db30 wdata = 666ab50e wstrb = d araddr = 25a84e84
UVM_INFO axi4_lite_scoreboard.sv(68) @ 2365: uvm_test_top.env.scb [RRESP] Matched : exp_rresp=3 actual_rresp =3 write = 0 read = 1
UVM_INFO axi4_lite_scoreboard.sv(72) @ 2365: uvm_test_top.env.scb [RDATA] Matched : exp_rdata=00000000 actual_rdata =00000000
UVM_INFO axi4_lite_subscriber.sv(41) @ 2385: uvm_test_top.env.sb [sb] INPUT COVERAGE = 19.79 %
UVM_INFO axi4_lite_inp_monitor.sv(38) @ 2385: uvm_test_top.env.aa.inp_mon [INPUT MONITOR] READ araddr=9ec7d314
UVM_INFO axi4_lite_out_monitor.sv(28) @ 2395: uvm_test_top.env.pa.out_mon [OUTPUT MONITOR] BRESP = 0 RRESP = 3 RDATA = 00000000
UVM_INFO axi4_lite_driver.sv(34) @ 2395: uvm_test_top.env.aa.drv [DRV] awaddr = 1470c5c4 wdata = 2aac8eec wstrb = 4 araddr = 9ec7d314
UVM_INFO axi4_lite_scoreboard.sv(68) @ 2395: uvm_test_top.env.scb [RRESP] Matched : exp_rresp=3 actual_rresp =3 write = 0 read = 1
UVM_INFO axi4_lite_scoreboard.sv(72) @ 2395: uvm_test_top.env.scb [RDATA] Matched : exp_rdata=00000000 actual_rdata =00000000
UVM_INFO axi4_lite_subscriber.sv(41) @ 2415: uvm_test_top.env.sb [sb] INPUT COVERAGE = 19.79 %
UVM_INFO axi4_lite_inp_monitor.sv(38) @ 2415: uvm_test_top.env.aa.inp_mon [INPUT MONITOR] READ araddr=4062f6b4
UVM_INFO axi4_lite_out_monitor.sv(28) @ 2425: uvm_test_top.env.pa.out_mon [OUTPUT MONITOR] BRESP = 0 RRESP = 3 RDATA = 00000000
UVM_INFO axi4_lite_driver.sv(34) @ 2425: uvm_test_top.env.aa.drv [DRV] awaddr = 8a57c488 wdata = bc1d120a wstrb = 0 araddr = 4062f6b4
UVM_INFO axi4_lite_scoreboard.sv(68) @ 2425: uvm_test_top.env.scb [RRESP] Matched : exp_rresp=3 actual_rresp =3 write = 0 read = 1
UVM_INFO axi4_lite_scoreboard.sv(72) @ 2425: uvm_test_top.env.scb [RDATA] Matched : exp_rdata=00000000 actual_rdata =00000000
UVM_INFO axi4_lite_subscriber.sv(41) @ 2445: uvm_test_top.env.sb [sb] INPUT COVERAGE = 19.79 %
UVM_INFO axi4_lite_inp_monitor.sv(38) @ 2445: uvm_test_top.env.aa.inp_mon [INPUT MONITOR] READ araddr=c363e438
UVM_INFO axi4_lite_out_monitor.sv(28) @ 2455: uvm_test_top.env.pa.out_mon [OUTPUT MONITOR] BRESP = 0 RRESP = 3 RDATA = 00000000
UVM_INFO axi4_lite_driver.sv(34) @ 2455: uvm_test_top.env.aa.drv [DRV] awaddr = d19c40f0 wdata = d8ec6e42 wstrb = 1 araddr = c363e438
UVM_INFO axi4_lite_scoreboard.sv(68) @ 2455: uvm_test_top.env.scb [RRESP] Matched : exp_rresp=3 actual_rresp =3 write = 0 read = 1
UVM_INFO axi4_lite_scoreboard.sv(72) @ 2455: uvm_test_top.env.scb [RDATA] Matched : exp_rdata=00000000 actual_rdata =00000000
UVM_INFO axi4_lite_subscriber.sv(41) @ 2475: uvm_test_top.env.sb [sb] INPUT COVERAGE = 19.79 %
UVM_INFO axi4_lite_inp_monitor.sv(38) @ 2475: uvm_test_top.env.aa.inp_mon [INPUT MONITOR] READ araddr=b120fcc8
UVM_INFO axi4_lite_out_monitor.sv(28) @ 2485: uvm_test_top.env.pa.out_mon [OUTPUT MONITOR] BRESP = 0 RRESP = 3 RDATA = 00000000
UVM_INFO axi4_lite_driver.sv(34) @ 2485: uvm_test_top.env.aa.drv [DRV] awaddr = a68fdc58 wdata = d4f1d3f2 wstrb = 0 araddr = b120fcc8
UVM_INFO axi4_lite_scoreboard.sv(68) @ 2485: uvm_test_top.env.scb [RRESP] Matched : exp_rresp=3 actual_rresp =3 write = 0 read = 1
UVM_INFO axi4_lite_scoreboard.sv(72) @ 2485: uvm_test_top.env.scb [RDATA] Matched : exp_rdata=00000000 actual_rdata =00000000
UVM_INFO axi4_lite_subscriber.sv(41) @ 2505: uvm_test_top.env.sb [sb] INPUT COVERAGE = 19.79 %
UVM_INFO axi4_lite_inp_monitor.sv(38) @ 2505: uvm_test_top.env.aa.inp_mon [INPUT MONITOR] READ araddr=be821ab0
UVM_INFO axi4_lite_out_monitor.sv(28) @ 2515: uvm_test_top.env.pa.out_mon [OUTPUT MONITOR] BRESP = 0 RRESP = 3 RDATA = 00000000
UVM_INFO axi4_lite_driver.sv(34) @ 2515: uvm_test_top.env.aa.drv [DRV] awaddr = e9fb2af8 wdata = 6cfa8a8e wstrb = 0 araddr = be821ab0
UVM_INFO axi4_lite_scoreboard.sv(68) @ 2515: uvm_test_top.env.scb [RRESP] Matched : exp_rresp=3 actual_rresp =3 write = 0 read = 1
UVM_INFO axi4_lite_scoreboard.sv(72) @ 2515: uvm_test_top.env.scb [RDATA] Matched : exp_rdata=00000000 actual_rdata =00000000
UVM_INFO axi4_lite_subscriber.sv(41) @ 2535: uvm_test_top.env.sb [sb] INPUT COVERAGE = 19.79 %
UVM_INFO axi4_lite_inp_monitor.sv(38) @ 2535: uvm_test_top.env.aa.inp_mon [INPUT MONITOR] READ araddr=44c029ec
UVM_INFO axi4_lite_out_monitor.sv(28) @ 2545: uvm_test_top.env.pa.out_mon [OUTPUT MONITOR] BRESP = 0 RRESP = 3 RDATA = 00000000
UVM_INFO axi4_lite_driver.sv(34) @ 2545: uvm_test_top.env.aa.drv [DRV] awaddr = b4a7a250 wdata = 9b9d956d wstrb = 2 araddr = 44c029ec
UVM_INFO axi4_lite_scoreboard.sv(68) @ 2545: uvm_test_top.env.scb [RRESP] Matched : exp_rresp=3 actual_rresp =3 write = 0 read = 1
UVM_INFO axi4_lite_scoreboard.sv(72) @ 2545: uvm_test_top.env.scb [RDATA] Matched : exp_rdata=00000000 actual_rdata =00000000
UVM_INFO axi4_lite_subscriber.sv(41) @ 2565: uvm_test_top.env.sb [sb] INPUT COVERAGE = 19.79 %
UVM_INFO axi4_lite_inp_monitor.sv(38) @ 2565: uvm_test_top.env.aa.inp_mon [INPUT MONITOR] READ araddr=8e779820
UVM_INFO axi4_lite_out_monitor.sv(28) @ 2575: uvm_test_top.env.pa.out_mon [OUTPUT MONITOR] BRESP = 0 RRESP = 3 RDATA = 00000000
UVM_INFO axi4_lite_driver.sv(34) @ 2575: uvm_test_top.env.aa.drv [DRV] awaddr = 709647e4 wdata = 5207145a wstrb = 7 araddr = 8e779820
UVM_INFO axi4_lite_scoreboard.sv(68) @ 2575: uvm_test_top.env.scb [RRESP] Matched : exp_rresp=3 actual_rresp =3 write = 0 read = 1
UVM_INFO axi4_lite_scoreboard.sv(72) @ 2575: uvm_test_top.env.scb [RDATA] Matched : exp_rdata=00000000 actual_rdata =00000000
UVM_INFO axi4_lite_subscriber.sv(41) @ 2595: uvm_test_top.env.sb [sb] INPUT COVERAGE = 19.79 %
UVM_INFO axi4_lite_inp_monitor.sv(38) @ 2595: uvm_test_top.env.aa.inp_mon [INPUT MONITOR] READ araddr=e65364ac
UVM_INFO axi4_lite_out_monitor.sv(28) @ 2605: uvm_test_top.env.pa.out_mon [OUTPUT MONITOR] BRESP = 0 RRESP = 3 RDATA = 00000000
UVM_INFO axi4_lite_driver.sv(34) @ 2605: uvm_test_top.env.aa.drv [DRV] awaddr = 31b9fe40 wdata = 9ba17f0f wstrb = 9 araddr = e65364ac
UVM_INFO axi4_lite_scoreboard.sv(68) @ 2605: uvm_test_top.env.scb [RRESP] Matched : exp_rresp=3 actual_rresp =3 write = 0 read = 1
UVM_INFO axi4_lite_scoreboard.sv(72) @ 2605: uvm_test_top.env.scb [RDATA] Matched : exp_rdata=00000000 actual_rdata =00000000
UVM_INFO axi4_lite_subscriber.sv(41) @ 2625: uvm_test_top.env.sb [sb] INPUT COVERAGE = 19.79 %
UVM_INFO axi4_lite_inp_monitor.sv(38) @ 2625: uvm_test_top.env.aa.inp_mon [INPUT MONITOR] READ araddr=280e8908
UVM_INFO axi4_lite_out_monitor.sv(28) @ 2635: uvm_test_top.env.pa.out_mon [OUTPUT MONITOR] BRESP = 0 RRESP = 3 RDATA = 00000000
UVM_INFO axi4_lite_driver.sv(34) @ 2635: uvm_test_top.env.aa.drv [DRV] awaddr = 66936a90 wdata = db5857cd wstrb = 2 araddr = 280e8908
UVM_INFO axi4_lite_scoreboard.sv(68) @ 2635: uvm_test_top.env.scb [RRESP] Matched : exp_rresp=3 actual_rresp =3 write = 0 read = 1
UVM_INFO axi4_lite_scoreboard.sv(72) @ 2635: uvm_test_top.env.scb [RDATA] Matched : exp_rdata=00000000 actual_rdata =00000000
UVM_INFO axi4_lite_subscriber.sv(41) @ 2655: uvm_test_top.env.sb [sb] INPUT COVERAGE = 19.79 %
UVM_INFO axi4_lite_inp_monitor.sv(38) @ 2655: uvm_test_top.env.aa.inp_mon [INPUT MONITOR] READ araddr=47d0cd7c
UVM_INFO axi4_lite_out_monitor.sv(28) @ 2665: uvm_test_top.env.pa.out_mon [OUTPUT MONITOR] BRESP = 0 RRESP = 3 RDATA = 00000000
UVM_INFO axi4_lite_driver.sv(34) @ 2665: uvm_test_top.env.aa.drv [DRV] awaddr = 2b7f4cf4 wdata = f21927da wstrb = 1 araddr = 47d0cd7c
UVM_INFO axi4_lite_scoreboard.sv(68) @ 2665: uvm_test_top.env.scb [RRESP] Matched : exp_rresp=3 actual_rresp =3 write = 0 read = 1
UVM_INFO axi4_lite_scoreboard.sv(72) @ 2665: uvm_test_top.env.scb [RDATA] Matched : exp_rdata=00000000 actual_rdata =00000000
UVM_INFO axi4_lite_subscriber.sv(41) @ 2685: uvm_test_top.env.sb [sb] INPUT COVERAGE = 19.79 %
UVM_INFO axi4_lite_inp_monitor.sv(38) @ 2685: uvm_test_top.env.aa.inp_mon [INPUT MONITOR] READ araddr=08e45fe0
UVM_INFO axi4_lite_out_monitor.sv(28) @ 2695: uvm_test_top.env.pa.out_mon [OUTPUT MONITOR] BRESP = 0 RRESP = 3 RDATA = 00000000
UVM_INFO axi4_lite_driver.sv(34) @ 2695: uvm_test_top.env.aa.drv [DRV] awaddr = 50730134 wdata = d3ac2043 wstrb = c araddr = 08e45fe0
UVM_INFO axi4_lite_scoreboard.sv(68) @ 2695: uvm_test_top.env.scb [RRESP] Matched : exp_rresp=3 actual_rresp =3 write = 0 read = 1
UVM_INFO axi4_lite_scoreboard.sv(72) @ 2695: uvm_test_top.env.scb [RDATA] Matched : exp_rdata=00000000 actual_rdata =00000000
UVM_INFO axi4_lite_subscriber.sv(41) @ 2715: uvm_test_top.env.sb [sb] INPUT COVERAGE = 19.79 %
UVM_INFO axi4_lite_inp_monitor.sv(38) @ 2715: uvm_test_top.env.aa.inp_mon [INPUT MONITOR] READ araddr=1ab00580
UVM_INFO axi4_lite_out_monitor.sv(28) @ 2725: uvm_test_top.env.pa.out_mon [OUTPUT MONITOR] BRESP = 0 RRESP = 3 RDATA = 00000000
UVM_INFO axi4_lite_driver.sv(34) @ 2725: uvm_test_top.env.aa.drv [DRV] awaddr = e7894d0c wdata = 6aed5ce3 wstrb = 3 araddr = 1ab00580
UVM_INFO axi4_lite_scoreboard.sv(68) @ 2725: uvm_test_top.env.scb [RRESP] Matched : exp_rresp=3 actual_rresp =3 write = 0 read = 1
UVM_INFO axi4_lite_scoreboard.sv(72) @ 2725: uvm_test_top.env.scb [RDATA] Matched : exp_rdata=00000000 actual_rdata =00000000
UVM_INFO axi4_lite_subscriber.sv(41) @ 2745: uvm_test_top.env.sb [sb] INPUT COVERAGE = 19.79 %
UVM_INFO axi4_lite_inp_monitor.sv(38) @ 2745: uvm_test_top.env.aa.inp_mon [INPUT MONITOR] READ araddr=206e9de8
UVM_INFO axi4_lite_out_monitor.sv(28) @ 2755: uvm_test_top.env.pa.out_mon [OUTPUT MONITOR] BRESP = 0 RRESP = 3 RDATA = 00000000
UVM_INFO axi4_lite_driver.sv(34) @ 2755: uvm_test_top.env.aa.drv [DRV] awaddr = 737f9134 wdata = fecc12a3 wstrb = 5 araddr = 206e9de8
UVM_INFO axi4_lite_scoreboard.sv(68) @ 2755: uvm_test_top.env.scb [RRESP] Matched : exp_rresp=3 actual_rresp =3 write = 0 read = 1
UVM_INFO axi4_lite_scoreboard.sv(72) @ 2755: uvm_test_top.env.scb [RDATA] Matched : exp_rdata=00000000 actual_rdata =00000000
UVM_INFO axi4_lite_subscriber.sv(41) @ 2775: uvm_test_top.env.sb [sb] INPUT COVERAGE = 19.79 %
UVM_INFO axi4_lite_inp_monitor.sv(38) @ 2775: uvm_test_top.env.aa.inp_mon [INPUT MONITOR] READ araddr=32559e98
UVM_INFO axi4_lite_out_monitor.sv(28) @ 2785: uvm_test_top.env.pa.out_mon [OUTPUT MONITOR] BRESP = 0 RRESP = 3 RDATA = 00000000
UVM_INFO axi4_lite_driver.sv(34) @ 2785: uvm_test_top.env.aa.drv [DRV] awaddr = 8fce3d54 wdata = d48291fc wstrb = 6 araddr = 32559e98
UVM_INFO axi4_lite_scoreboard.sv(68) @ 2785: uvm_test_top.env.scb [RRESP] Matched : exp_rresp=3 actual_rresp =3 write = 0 read = 1
UVM_INFO axi4_lite_scoreboard.sv(72) @ 2785: uvm_test_top.env.scb [RDATA] Matched : exp_rdata=00000000 actual_rdata =00000000
UVM_INFO axi4_lite_subscriber.sv(41) @ 2805: uvm_test_top.env.sb [sb] INPUT COVERAGE = 19.79 %
UVM_INFO axi4_lite_inp_monitor.sv(38) @ 2805: uvm_test_top.env.aa.inp_mon [INPUT MONITOR] READ araddr=164c2294
UVM_INFO axi4_lite_out_monitor.sv(28) @ 2815: uvm_test_top.env.pa.out_mon [OUTPUT MONITOR] BRESP = 0 RRESP = 3 RDATA = 00000000
UVM_INFO axi4_lite_driver.sv(34) @ 2815: uvm_test_top.env.aa.drv [DRV] awaddr = f944d58c wdata = 10249c51 wstrb = f araddr = 164c2294
UVM_INFO axi4_lite_scoreboard.sv(68) @ 2815: uvm_test_top.env.scb [RRESP] Matched : exp_rresp=3 actual_rresp =3 write = 0 read = 1
UVM_INFO axi4_lite_scoreboard.sv(72) @ 2815: uvm_test_top.env.scb [RDATA] Matched : exp_rdata=00000000 actual_rdata =00000000
UVM_INFO axi4_lite_subscriber.sv(41) @ 2835: uvm_test_top.env.sb [sb] INPUT COVERAGE = 19.79 %
UVM_INFO axi4_lite_inp_monitor.sv(38) @ 2835: uvm_test_top.env.aa.inp_mon [INPUT MONITOR] READ araddr=96362c08
UVM_INFO axi4_lite_out_monitor.sv(28) @ 2845: uvm_test_top.env.pa.out_mon [OUTPUT MONITOR] BRESP = 0 RRESP = 3 RDATA = 00000000
UVM_INFO axi4_lite_driver.sv(34) @ 2845: uvm_test_top.env.aa.drv [DRV] awaddr = 3e435408 wdata = e6b8e9ff wstrb = 8 araddr = 96362c08
UVM_INFO axi4_lite_scoreboard.sv(68) @ 2845: uvm_test_top.env.scb [RRESP] Matched : exp_rresp=3 actual_rresp =3 write = 0 read = 1
UVM_INFO axi4_lite_scoreboard.sv(72) @ 2845: uvm_test_top.env.scb [RDATA] Matched : exp_rdata=00000000 actual_rdata =00000000
UVM_INFO axi4_lite_subscriber.sv(41) @ 2865: uvm_test_top.env.sb [sb] INPUT COVERAGE = 19.79 %
UVM_INFO axi4_lite_inp_monitor.sv(38) @ 2865: uvm_test_top.env.aa.inp_mon [INPUT MONITOR] READ araddr=297ee184
UVM_INFO axi4_lite_out_monitor.sv(28) @ 2875: uvm_test_top.env.pa.out_mon [OUTPUT MONITOR] BRESP = 0 RRESP = 3 RDATA = 00000000
UVM_INFO axi4_lite_driver.sv(34) @ 2875: uvm_test_top.env.aa.drv [DRV] awaddr = d7bf9ed0 wdata = 31b099c4 wstrb = 7 araddr = 297ee184
UVM_INFO axi4_lite_scoreboard.sv(68) @ 2875: uvm_test_top.env.scb [RRESP] Matched : exp_rresp=3 actual_rresp =3 write = 0 read = 1
UVM_INFO axi4_lite_scoreboard.sv(72) @ 2875: uvm_test_top.env.scb [RDATA] Matched : exp_rdata=00000000 actual_rdata =00000000
UVM_INFO axi4_lite_subscriber.sv(41) @ 2895: uvm_test_top.env.sb [sb] INPUT COVERAGE = 19.79 %
UVM_INFO axi4_lite_inp_monitor.sv(38) @ 2895: uvm_test_top.env.aa.inp_mon [INPUT MONITOR] READ araddr=c088da58
UVM_INFO axi4_lite_out_monitor.sv(28) @ 2905: uvm_test_top.env.pa.out_mon [OUTPUT MONITOR] BRESP = 0 RRESP = 3 RDATA = 00000000
UVM_INFO axi4_lite_driver.sv(34) @ 2905: uvm_test_top.env.aa.drv [DRV] awaddr = c5ac0d50 wdata = 08b3ef1c wstrb = 6 araddr = c088da58
UVM_INFO axi4_lite_scoreboard.sv(68) @ 2905: uvm_test_top.env.scb [RRESP] Matched : exp_rresp=3 actual_rresp =3 write = 0 read = 1
UVM_INFO axi4_lite_scoreboard.sv(72) @ 2905: uvm_test_top.env.scb [RDATA] Matched : exp_rdata=00000000 actual_rdata =00000000
UVM_INFO axi4_lite_subscriber.sv(41) @ 2925: uvm_test_top.env.sb [sb] INPUT COVERAGE = 19.79 %
UVM_INFO axi4_lite_inp_monitor.sv(38) @ 2925: uvm_test_top.env.aa.inp_mon [INPUT MONITOR] READ araddr=b5a71224
UVM_INFO axi4_lite_out_monitor.sv(28) @ 2935: uvm_test_top.env.pa.out_mon [OUTPUT MONITOR] BRESP = 0 RRESP = 3 RDATA = 00000000
UVM_INFO axi4_lite_driver.sv(34) @ 2935: uvm_test_top.env.aa.drv [DRV] awaddr = 30110cc8 wdata = 2bc239ec wstrb = 7 araddr = b5a71224
UVM_INFO axi4_lite_scoreboard.sv(68) @ 2935: uvm_test_top.env.scb [RRESP] Matched : exp_rresp=3 actual_rresp =3 write = 0 read = 1
UVM_INFO axi4_lite_scoreboard.sv(72) @ 2935: uvm_test_top.env.scb [RDATA] Matched : exp_rdata=00000000 actual_rdata =00000000
UVM_INFO axi4_lite_subscriber.sv(41) @ 2955: uvm_test_top.env.sb [sb] INPUT COVERAGE = 19.79 %
UVM_INFO axi4_lite_inp_monitor.sv(38) @ 2955: uvm_test_top.env.aa.inp_mon [INPUT MONITOR] READ araddr=40ccefac
UVM_INFO axi4_lite_out_monitor.sv(28) @ 2965: uvm_test_top.env.pa.out_mon [OUTPUT MONITOR] BRESP = 0 RRESP = 3 RDATA = 00000000
UVM_INFO axi4_lite_driver.sv(34) @ 2965: uvm_test_top.env.aa.drv [DRV] awaddr = f72247d8 wdata = 7179d4a1 wstrb = 5 araddr = 40ccefac
UVM_INFO axi4_lite_scoreboard.sv(68) @ 2965: uvm_test_top.env.scb [RRESP] Matched : exp_rresp=3 actual_rresp =3 write = 0 read = 1
UVM_INFO axi4_lite_scoreboard.sv(72) @ 2965: uvm_test_top.env.scb [RDATA] Matched : exp_rdata=00000000 actual_rdata =00000000
UVM_INFO axi4_lite_subscriber.sv(41) @ 2985: uvm_test_top.env.sb [sb] INPUT COVERAGE = 19.79 %
UVM_INFO axi4_lite_inp_monitor.sv(38) @ 2985: uvm_test_top.env.aa.inp_mon [INPUT MONITOR] READ araddr=81ab48e0
UVM_INFO axi4_lite_out_monitor.sv(28) @ 2995: uvm_test_top.env.pa.out_mon [OUTPUT MONITOR] BRESP = 0 RRESP = 3 RDATA = 00000000
UVM_INFO axi4_lite_driver.sv(34) @ 2995: uvm_test_top.env.aa.drv [DRV] awaddr = b9e16104 wdata = 8d34bb2e wstrb = e araddr = 81ab48e0
UVM_INFO axi4_lite_scoreboard.sv(68) @ 2995: uvm_test_top.env.scb [RRESP] Matched : exp_rresp=3 actual_rresp =3 write = 0 read = 1
UVM_INFO axi4_lite_scoreboard.sv(72) @ 2995: uvm_test_top.env.scb [RDATA] Matched : exp_rdata=00000000 actual_rdata =00000000
UVM_INFO axi4_lite_test.sv(133) @ 2995: uvm_test_top [TEST] Read decerr completed
UVM_INFO /fetools/synopsys/installed_tools/vcs/vcs/Q-2020.03-SP2-8/etc/uvm/base/uvm_objection.svh(1274) @ 2995: reporter [TEST_DONE] 'run' phase is ready to proceed to the 'extract' phase

--- UVM Report Summary ---

** Report counts by severity
UVM_INFO :  604
UVM_WARNING :    0
UVM_ERROR :    0
UVM_FATAL :    0
** Report counts by id
[DRV]   100
[INPUT MONITOR]   100
[OUTPUT MONITOR]   100
[RDATA]   100
[RNTST]     1
[RRESP]   100
[TEST]     1
[TEST_DONE]     1
[UVMTOP]     1
[sb]   100
$finish called from file "/fetools/synopsys/installed_tools/vcs/vcs/Q-2020.03-SP2-8/etc/uvm/base/uvm_root.svh", line 437.
$finish at simulation time                 2995

---------------------------------------------------------------------------
VCS Coverage Metrics: during simulation line, cond, FSM, branch, tgl was monitored
---------------------------------------------------------------------------
           V C S   S i m u l a t i o n   R e p o r t 
Time: 2995 ns
CPU Time:      0.530 seconds;       Data structure size:   0.4Mb
Thu Sep 17 16:19:36 2026
