Command: /fetools/work_area/frontend/Batch_11/ananyaganesh/system_verilog/AXI4_LITE_SLAVE/src/work/simv +UVM_TESTNAME=axi4_lite_test_read +UVM_VERBOSITY=UVM_HIGH +ntb_random_seed=29447 -cm line+cond+fsm+tgl+branch+assert -cm_dir work/regression.vdb -cm_name axi4_lite_test_read_29447 -l work/logs/axi4_lite_test_read_29447.log +UVM_NO_RELNOTES
Chronologic VCS simulator copyright 1991-2020
Contains Synopsys proprietary information.
Compiler version Q-2020.03-SP2-8_Full64; Runtime version Q-2020.03-SP2-8_Full64;  Sep 17 21:45 2026
----------------------------------------------------------------
UVM-1.1d.Synopsys
(C) 2007-2013 Mentor Graphics Corporation
(C) 2007-2013 Cadence Design Systems, Inc.
(C) 2006-2013 Synopsys, Inc.
(C) 2011-2013 Cypress Semiconductor Corp.
----------------------------------------------------------------
UVM_INFO @ 0: reporter [RNTST] Running test axi4_lite_test_read...
UVM_INFO @ 0: reporter [UVMTOP] UVM testbench topology:
---------------------------------------------------------------
Name                       Type                     Size  Value
---------------------------------------------------------------
uvm_test_top               axi4_lite_test_read      -     @469 
  env                      axi4_lite_environment    -     @477 
    aa                     axi4_lite_active_agent   -     @489 
      drv                  axi4_lite_driver         -     @569 
        rsp_port           uvm_analysis_port        -     @586 
        seq_item_port      uvm_seq_item_pull_port   -     @577 
      inp_mon              axi4_lite_inp_monitor    -     @552 
        inp_mon_port       uvm_analysis_port        -     @560 
      seqr                 axi4_lite_seqr           -     @595 
        rsp_export         uvm_analysis_export      -     @603 
        seq_item_export    uvm_seq_item_pull_imp    -     @709 
        arbitration_queue  array                    0     -    
        lock_queue         array                    0     -    
        num_last_reqs      integral                 32    'd1  
        num_last_rsps      integral                 32    'd1  
    pa                     axi4_lite_passive_agent  -     @497 
      out_mon              axi4_lite_out_monitor    -     @726 
        out_mon_port       uvm_analysis_port        -     @734 
    sb                     axi4_lite_subscriber     -     @531 
      analysis_imp         uvm_analysis_imp         -     @539 
    scb                    axi4_lite_scoreboard     -     @505 
      inp_port             uvm_analysis_imp_in      -     @513 
      out_port             uvm_analysis_imp_out     -     @522 
---------------------------------------------------------------

UVM_INFO axi4_lite_subscriber.sv(41) @ 15: uvm_test_top.env.sb [sb] INPUT COVERAGE = 28.12 %
UVM_INFO axi4_lite_inp_monitor.sv(38) @ 15: uvm_test_top.env.aa.inp_mon [INPUT MONITOR] READ araddr=0000002c
UVM_INFO axi4_lite_out_monitor.sv(28) @ 25: uvm_test_top.env.pa.out_mon [OUTPUT MONITOR] BRESP = 0 RRESP = 0 RDATA = 00000000
UVM_INFO axi4_lite_driver.sv(34) @ 25: uvm_test_top.env.aa.drv [DRV] awaddr = 841ff948 wdata = 2aed9d46 wstrb = 5 araddr = 0000002c
UVM_INFO axi4_lite_scoreboard.sv(68) @ 25: uvm_test_top.env.scb [RRESP] Matched : exp_rresp=0 actual_rresp =0 write = 0 read = 1
UVM_INFO axi4_lite_scoreboard.sv(72) @ 25: uvm_test_top.env.scb [RDATA] Matched : exp_rdata=00000000 actual_rdata =00000000
UVM_INFO axi4_lite_subscriber.sv(41) @ 45: uvm_test_top.env.sb [sb] INPUT COVERAGE = 36.46 %
UVM_INFO axi4_lite_inp_monitor.sv(38) @ 45: uvm_test_top.env.aa.inp_mon [INPUT MONITOR] READ araddr=0000001c
UVM_INFO axi4_lite_out_monitor.sv(28) @ 55: uvm_test_top.env.pa.out_mon [OUTPUT MONITOR] BRESP = 0 RRESP = 0 RDATA = 00000000
UVM_INFO axi4_lite_driver.sv(34) @ 55: uvm_test_top.env.aa.drv [DRV] awaddr = 7c18810c wdata = 715d5043 wstrb = b araddr = 0000001c
UVM_INFO axi4_lite_scoreboard.sv(68) @ 55: uvm_test_top.env.scb [RRESP] Matched : exp_rresp=0 actual_rresp =0 write = 0 read = 1
UVM_INFO axi4_lite_scoreboard.sv(72) @ 55: uvm_test_top.env.scb [RDATA] Matched : exp_rdata=00000000 actual_rdata =00000000
UVM_INFO axi4_lite_subscriber.sv(41) @ 75: uvm_test_top.env.sb [sb] INPUT COVERAGE = 36.46 %
UVM_INFO axi4_lite_inp_monitor.sv(38) @ 75: uvm_test_top.env.aa.inp_mon [INPUT MONITOR] READ araddr=00000030
UVM_INFO axi4_lite_out_monitor.sv(28) @ 85: uvm_test_top.env.pa.out_mon [OUTPUT MONITOR] BRESP = 0 RRESP = 0 RDATA = 00000000
UVM_INFO axi4_lite_driver.sv(34) @ 85: uvm_test_top.env.aa.drv [DRV] awaddr = 0a454fd4 wdata = c11f8713 wstrb = 4 araddr = 00000030
UVM_INFO axi4_lite_scoreboard.sv(68) @ 85: uvm_test_top.env.scb [RRESP] Matched : exp_rresp=0 actual_rresp =0 write = 0 read = 1
UVM_INFO axi4_lite_scoreboard.sv(72) @ 85: uvm_test_top.env.scb [RDATA] Matched : exp_rdata=00000000 actual_rdata =00000000
UVM_INFO axi4_lite_subscriber.sv(41) @ 105: uvm_test_top.env.sb [sb] INPUT COVERAGE = 36.46 %
UVM_INFO axi4_lite_inp_monitor.sv(38) @ 105: uvm_test_top.env.aa.inp_mon [INPUT MONITOR] READ araddr=00000030
UVM_INFO axi4_lite_out_monitor.sv(28) @ 115: uvm_test_top.env.pa.out_mon [OUTPUT MONITOR] BRESP = 0 RRESP = 0 RDATA = 00000000
UVM_INFO axi4_lite_driver.sv(34) @ 115: uvm_test_top.env.aa.drv [DRV] awaddr = c9f81a78 wdata = 0e074363 wstrb = 3 araddr = 00000030
UVM_INFO axi4_lite_scoreboard.sv(68) @ 115: uvm_test_top.env.scb [RRESP] Matched : exp_rresp=0 actual_rresp =0 write = 0 read = 1
UVM_INFO axi4_lite_scoreboard.sv(72) @ 115: uvm_test_top.env.scb [RDATA] Matched : exp_rdata=00000000 actual_rdata =00000000
UVM_INFO axi4_lite_subscriber.sv(41) @ 135: uvm_test_top.env.sb [sb] INPUT COVERAGE = 44.79 %
UVM_INFO axi4_lite_inp_monitor.sv(38) @ 135: uvm_test_top.env.aa.inp_mon [INPUT MONITOR] READ araddr=00000034
UVM_INFO axi4_lite_out_monitor.sv(28) @ 145: uvm_test_top.env.pa.out_mon [OUTPUT MONITOR] BRESP = 0 RRESP = 2 RDATA = 00000000
UVM_INFO axi4_lite_driver.sv(34) @ 145: uvm_test_top.env.aa.drv [DRV] awaddr = 2a8f5640 wdata = 4dc7f0a3 wstrb = 9 araddr = 00000034
UVM_INFO axi4_lite_scoreboard.sv(68) @ 145: uvm_test_top.env.scb [RRESP] Matched : exp_rresp=2 actual_rresp =2 write = 0 read = 1
UVM_INFO axi4_lite_scoreboard.sv(72) @ 145: uvm_test_top.env.scb [RDATA] Matched : exp_rdata=00000000 actual_rdata =00000000
UVM_INFO axi4_lite_subscriber.sv(41) @ 165: uvm_test_top.env.sb [sb] INPUT COVERAGE = 44.79 %
UVM_INFO axi4_lite_inp_monitor.sv(38) @ 165: uvm_test_top.env.aa.inp_mon [INPUT MONITOR] READ araddr=00000038
UVM_INFO axi4_lite_out_monitor.sv(28) @ 175: uvm_test_top.env.pa.out_mon [OUTPUT MONITOR] BRESP = 0 RRESP = 2 RDATA = 00000000
UVM_INFO axi4_lite_driver.sv(34) @ 175: uvm_test_top.env.aa.drv [DRV] awaddr = 74f5f88c wdata = dfa762ce wstrb = b araddr = 00000038
UVM_INFO axi4_lite_scoreboard.sv(68) @ 175: uvm_test_top.env.scb [RRESP] Matched : exp_rresp=2 actual_rresp =2 write = 0 read = 1
UVM_INFO axi4_lite_scoreboard.sv(72) @ 175: uvm_test_top.env.scb [RDATA] Matched : exp_rdata=00000000 actual_rdata =00000000
UVM_INFO axi4_lite_subscriber.sv(41) @ 195: uvm_test_top.env.sb [sb] INPUT COVERAGE = 44.79 %
UVM_INFO axi4_lite_inp_monitor.sv(38) @ 195: uvm_test_top.env.aa.inp_mon [INPUT MONITOR] READ araddr=00000030
UVM_INFO axi4_lite_out_monitor.sv(28) @ 205: uvm_test_top.env.pa.out_mon [OUTPUT MONITOR] BRESP = 0 RRESP = 0 RDATA = 00000000
UVM_INFO axi4_lite_driver.sv(34) @ 205: uvm_test_top.env.aa.drv [DRV] awaddr = 30dbb7f8 wdata = 4b700d40 wstrb = 9 araddr = 00000030
UVM_INFO axi4_lite_scoreboard.sv(68) @ 205: uvm_test_top.env.scb [RRESP] Matched : exp_rresp=0 actual_rresp =0 write = 0 read = 1
UVM_INFO axi4_lite_scoreboard.sv(72) @ 205: uvm_test_top.env.scb [RDATA] Matched : exp_rdata=00000000 actual_rdata =00000000
UVM_INFO axi4_lite_subscriber.sv(41) @ 225: uvm_test_top.env.sb [sb] INPUT COVERAGE = 44.79 %
UVM_INFO axi4_lite_inp_monitor.sv(38) @ 225: uvm_test_top.env.aa.inp_mon [INPUT MONITOR] READ araddr=00000024
UVM_INFO axi4_lite_out_monitor.sv(28) @ 235: uvm_test_top.env.pa.out_mon [OUTPUT MONITOR] BRESP = 0 RRESP = 0 RDATA = 00000000
UVM_INFO axi4_lite_driver.sv(34) @ 235: uvm_test_top.env.aa.drv [DRV] awaddr = 108ebaec wdata = 8c2dd3ba wstrb = 5 araddr = 00000024
UVM_INFO axi4_lite_scoreboard.sv(68) @ 235: uvm_test_top.env.scb [RRESP] Matched : exp_rresp=0 actual_rresp =0 write = 0 read = 1
UVM_INFO axi4_lite_scoreboard.sv(72) @ 235: uvm_test_top.env.scb [RDATA] Matched : exp_rdata=00000000 actual_rdata =00000000
UVM_INFO axi4_lite_subscriber.sv(41) @ 255: uvm_test_top.env.sb [sb] INPUT COVERAGE = 44.79 %
UVM_INFO axi4_lite_inp_monitor.sv(38) @ 255: uvm_test_top.env.aa.inp_mon [INPUT MONITOR] READ araddr=00000034
UVM_INFO axi4_lite_out_monitor.sv(28) @ 265: uvm_test_top.env.pa.out_mon [OUTPUT MONITOR] BRESP = 0 RRESP = 2 RDATA = 00000000
UVM_INFO axi4_lite_driver.sv(34) @ 265: uvm_test_top.env.aa.drv [DRV] awaddr = 020d421c wdata = efe5e014 wstrb = 7 araddr = 00000034
UVM_INFO axi4_lite_scoreboard.sv(68) @ 265: uvm_test_top.env.scb [RRESP] Matched : exp_rresp=2 actual_rresp =2 write = 0 read = 1
UVM_INFO axi4_lite_scoreboard.sv(72) @ 265: uvm_test_top.env.scb [RDATA] Matched : exp_rdata=00000000 actual_rdata =00000000
UVM_INFO axi4_lite_subscriber.sv(41) @ 285: uvm_test_top.env.sb [sb] INPUT COVERAGE = 44.79 %
UVM_INFO axi4_lite_inp_monitor.sv(38) @ 285: uvm_test_top.env.aa.inp_mon [INPUT MONITOR] READ araddr=00000024
UVM_INFO axi4_lite_out_monitor.sv(28) @ 295: uvm_test_top.env.pa.out_mon [OUTPUT MONITOR] BRESP = 0 RRESP = 0 RDATA = 00000000
UVM_INFO axi4_lite_driver.sv(34) @ 295: uvm_test_top.env.aa.drv [DRV] awaddr = dd9de514 wdata = 13361a92 wstrb = 3 araddr = 00000024
UVM_INFO axi4_lite_scoreboard.sv(68) @ 295: uvm_test_top.env.scb [RRESP] Matched : exp_rresp=0 actual_rresp =0 write = 0 read = 1
UVM_INFO axi4_lite_scoreboard.sv(72) @ 295: uvm_test_top.env.scb [RDATA] Matched : exp_rdata=00000000 actual_rdata =00000000
UVM_INFO axi4_lite_subscriber.sv(41) @ 315: uvm_test_top.env.sb [sb] INPUT COVERAGE = 44.79 %
UVM_INFO axi4_lite_inp_monitor.sv(38) @ 315: uvm_test_top.env.aa.inp_mon [INPUT MONITOR] READ araddr=00000008
UVM_INFO axi4_lite_out_monitor.sv(28) @ 325: uvm_test_top.env.pa.out_mon [OUTPUT MONITOR] BRESP = 0 RRESP = 0 RDATA = 00000000
UVM_INFO axi4_lite_driver.sv(34) @ 325: uvm_test_top.env.aa.drv [DRV] awaddr = 5b59333c wdata = 724ad635 wstrb = 3 araddr = 00000008
UVM_INFO axi4_lite_scoreboard.sv(68) @ 325: uvm_test_top.env.scb [RRESP] Matched : exp_rresp=0 actual_rresp =0 write = 0 read = 1
UVM_INFO axi4_lite_scoreboard.sv(72) @ 325: uvm_test_top.env.scb [RDATA] Matched : exp_rdata=00000000 actual_rdata =00000000
UVM_INFO axi4_lite_subscriber.sv(41) @ 345: uvm_test_top.env.sb [sb] INPUT COVERAGE = 44.79 %
UVM_INFO axi4_lite_inp_monitor.sv(38) @ 345: uvm_test_top.env.aa.inp_mon [INPUT MONITOR] READ araddr=00000020
UVM_INFO axi4_lite_out_monitor.sv(28) @ 355: uvm_test_top.env.pa.out_mon [OUTPUT MONITOR] BRESP = 0 RRESP = 0 RDATA = 00000000
UVM_INFO axi4_lite_driver.sv(34) @ 355: uvm_test_top.env.aa.drv [DRV] awaddr = 2c8c94cc wdata = 24f22fe8 wstrb = e araddr = 00000020
UVM_INFO axi4_lite_scoreboard.sv(68) @ 355: uvm_test_top.env.scb [RRESP] Matched : exp_rresp=0 actual_rresp =0 write = 0 read = 1
UVM_INFO axi4_lite_scoreboard.sv(72) @ 355: uvm_test_top.env.scb [RDATA] Matched : exp_rdata=00000000 actual_rdata =00000000
UVM_INFO axi4_lite_subscriber.sv(41) @ 375: uvm_test_top.env.sb [sb] INPUT COVERAGE = 44.79 %
UVM_INFO axi4_lite_inp_monitor.sv(38) @ 375: uvm_test_top.env.aa.inp_mon [INPUT MONITOR] READ araddr=00000020
UVM_INFO axi4_lite_out_monitor.sv(28) @ 385: uvm_test_top.env.pa.out_mon [OUTPUT MONITOR] BRESP = 0 RRESP = 0 RDATA = 00000000
UVM_INFO axi4_lite_driver.sv(34) @ 385: uvm_test_top.env.aa.drv [DRV] awaddr = 2e439f68 wdata = 21a70688 wstrb = 9 araddr = 00000020
UVM_INFO axi4_lite_scoreboard.sv(68) @ 385: uvm_test_top.env.scb [RRESP] Matched : exp_rresp=0 actual_rresp =0 write = 0 read = 1
UVM_INFO axi4_lite_scoreboard.sv(72) @ 385: uvm_test_top.env.scb [RDATA] Matched : exp_rdata=00000000 actual_rdata =00000000
UVM_INFO axi4_lite_subscriber.sv(41) @ 405: uvm_test_top.env.sb [sb] INPUT COVERAGE = 44.79 %
UVM_INFO axi4_lite_inp_monitor.sv(38) @ 405: uvm_test_top.env.aa.inp_mon [INPUT MONITOR] READ araddr=00000004
UVM_INFO axi4_lite_out_monitor.sv(28) @ 415: uvm_test_top.env.pa.out_mon [OUTPUT MONITOR] BRESP = 0 RRESP = 0 RDATA = 00000000
UVM_INFO axi4_lite_driver.sv(34) @ 415: uvm_test_top.env.aa.drv [DRV] awaddr = f59471a0 wdata = d7ad499a wstrb = 8 araddr = 00000004
UVM_INFO axi4_lite_scoreboard.sv(68) @ 415: uvm_test_top.env.scb [RRESP] Matched : exp_rresp=0 actual_rresp =0 write = 0 read = 1
UVM_INFO axi4_lite_scoreboard.sv(72) @ 415: uvm_test_top.env.scb [RDATA] Matched : exp_rdata=00000000 actual_rdata =00000000
UVM_INFO axi4_lite_subscriber.sv(41) @ 435: uvm_test_top.env.sb [sb] INPUT COVERAGE = 44.79 %
UVM_INFO axi4_lite_inp_monitor.sv(38) @ 435: uvm_test_top.env.aa.inp_mon [INPUT MONITOR] READ araddr=00000004
UVM_INFO axi4_lite_out_monitor.sv(28) @ 445: uvm_test_top.env.pa.out_mon [OUTPUT MONITOR] BRESP = 0 RRESP = 0 RDATA = 00000000
UVM_INFO axi4_lite_driver.sv(34) @ 445: uvm_test_top.env.aa.drv [DRV] awaddr = c2f63f5c wdata = d43670a1 wstrb = 3 araddr = 00000004
UVM_INFO axi4_lite_scoreboard.sv(68) @ 445: uvm_test_top.env.scb [RRESP] Matched : exp_rresp=0 actual_rresp =0 write = 0 read = 1
UVM_INFO axi4_lite_scoreboard.sv(72) @ 445: uvm_test_top.env.scb [RDATA] Matched : exp_rdata=00000000 actual_rdata =00000000
UVM_INFO axi4_lite_subscriber.sv(41) @ 465: uvm_test_top.env.sb [sb] INPUT COVERAGE = 44.79 %
UVM_INFO axi4_lite_inp_monitor.sv(38) @ 465: uvm_test_top.env.aa.inp_mon [INPUT MONITOR] READ araddr=00000008
UVM_INFO axi4_lite_out_monitor.sv(28) @ 475: uvm_test_top.env.pa.out_mon [OUTPUT MONITOR] BRESP = 0 RRESP = 0 RDATA = 00000000
UVM_INFO axi4_lite_driver.sv(34) @ 475: uvm_test_top.env.aa.drv [DRV] awaddr = 0c62eddc wdata = 4c458cba wstrb = 1 araddr = 00000008
UVM_INFO axi4_lite_scoreboard.sv(68) @ 475: uvm_test_top.env.scb [RRESP] Matched : exp_rresp=0 actual_rresp =0 write = 0 read = 1
UVM_INFO axi4_lite_scoreboard.sv(72) @ 475: uvm_test_top.env.scb [RDATA] Matched : exp_rdata=00000000 actual_rdata =00000000
UVM_INFO axi4_lite_subscriber.sv(41) @ 495: uvm_test_top.env.sb [sb] INPUT COVERAGE = 44.79 %
UVM_INFO axi4_lite_inp_monitor.sv(38) @ 495: uvm_test_top.env.aa.inp_mon [INPUT MONITOR] READ araddr=00000004
UVM_INFO axi4_lite_out_monitor.sv(28) @ 505: uvm_test_top.env.pa.out_mon [OUTPUT MONITOR] BRESP = 0 RRESP = 0 RDATA = 00000000
UVM_INFO axi4_lite_driver.sv(34) @ 505: uvm_test_top.env.aa.drv [DRV] awaddr = 37ebacb0 wdata = 28aa9672 wstrb = 8 araddr = 00000004
UVM_INFO axi4_lite_scoreboard.sv(68) @ 505: uvm_test_top.env.scb [RRESP] Matched : exp_rresp=0 actual_rresp =0 write = 0 read = 1
UVM_INFO axi4_lite_scoreboard.sv(72) @ 505: uvm_test_top.env.scb [RDATA] Matched : exp_rdata=00000000 actual_rdata =00000000
UVM_INFO axi4_lite_subscriber.sv(41) @ 525: uvm_test_top.env.sb [sb] INPUT COVERAGE = 44.79 %
UVM_INFO axi4_lite_inp_monitor.sv(38) @ 525: uvm_test_top.env.aa.inp_mon [INPUT MONITOR] READ araddr=0000000c
UVM_INFO axi4_lite_out_monitor.sv(28) @ 535: uvm_test_top.env.pa.out_mon [OUTPUT MONITOR] BRESP = 0 RRESP = 0 RDATA = 00000000
UVM_INFO axi4_lite_driver.sv(34) @ 535: uvm_test_top.env.aa.drv [DRV] awaddr = ddb0490c wdata = 48267943 wstrb = 8 araddr = 0000000c
UVM_INFO axi4_lite_scoreboard.sv(68) @ 535: uvm_test_top.env.scb [RRESP] Matched : exp_rresp=0 actual_rresp =0 write = 0 read = 1
UVM_INFO axi4_lite_scoreboard.sv(72) @ 535: uvm_test_top.env.scb [RDATA] Matched : exp_rdata=00000000 actual_rdata =00000000
UVM_INFO axi4_lite_subscriber.sv(41) @ 555: uvm_test_top.env.sb [sb] INPUT COVERAGE = 44.79 %
UVM_INFO axi4_lite_inp_monitor.sv(38) @ 555: uvm_test_top.env.aa.inp_mon [INPUT MONITOR] READ araddr=00000018
UVM_INFO axi4_lite_out_monitor.sv(28) @ 565: uvm_test_top.env.pa.out_mon [OUTPUT MONITOR] BRESP = 0 RRESP = 0 RDATA = 00000000
UVM_INFO axi4_lite_driver.sv(34) @ 565: uvm_test_top.env.aa.drv [DRV] awaddr = 6176bdc8 wdata = a74d2952 wstrb = 9 araddr = 00000018
UVM_INFO axi4_lite_scoreboard.sv(68) @ 565: uvm_test_top.env.scb [RRESP] Matched : exp_rresp=0 actual_rresp =0 write = 0 read = 1
UVM_INFO axi4_lite_scoreboard.sv(72) @ 565: uvm_test_top.env.scb [RDATA] Matched : exp_rdata=00000000 actual_rdata =00000000
UVM_INFO axi4_lite_subscriber.sv(41) @ 585: uvm_test_top.env.sb [sb] INPUT COVERAGE = 44.79 %
UVM_INFO axi4_lite_inp_monitor.sv(38) @ 585: uvm_test_top.env.aa.inp_mon [INPUT MONITOR] READ araddr=00000018
UVM_INFO axi4_lite_out_monitor.sv(28) @ 595: uvm_test_top.env.pa.out_mon [OUTPUT MONITOR] BRESP = 0 RRESP = 0 RDATA = 00000000
UVM_INFO axi4_lite_driver.sv(34) @ 595: uvm_test_top.env.aa.drv [DRV] awaddr = 075e4fb8 wdata = 1cf76de5 wstrb = d araddr = 00000018
UVM_INFO axi4_lite_scoreboard.sv(68) @ 595: uvm_test_top.env.scb [RRESP] Matched : exp_rresp=0 actual_rresp =0 write = 0 read = 1
UVM_INFO axi4_lite_scoreboard.sv(72) @ 595: uvm_test_top.env.scb [RDATA] Matched : exp_rdata=00000000 actual_rdata =00000000
UVM_INFO axi4_lite_subscriber.sv(41) @ 615: uvm_test_top.env.sb [sb] INPUT COVERAGE = 44.79 %
UVM_INFO axi4_lite_inp_monitor.sv(38) @ 615: uvm_test_top.env.aa.inp_mon [INPUT MONITOR] READ araddr=00000018
UVM_INFO axi4_lite_out_monitor.sv(28) @ 625: uvm_test_top.env.pa.out_mon [OUTPUT MONITOR] BRESP = 0 RRESP = 0 RDATA = 00000000
UVM_INFO axi4_lite_driver.sv(34) @ 625: uvm_test_top.env.aa.drv [DRV] awaddr = ae39a2a8 wdata = 2ae0c4f0 wstrb = 7 araddr = 00000018
UVM_INFO axi4_lite_scoreboard.sv(68) @ 625: uvm_test_top.env.scb [RRESP] Matched : exp_rresp=0 actual_rresp =0 write = 0 read = 1
UVM_INFO axi4_lite_scoreboard.sv(72) @ 625: uvm_test_top.env.scb [RDATA] Matched : exp_rdata=00000000 actual_rdata =00000000
UVM_INFO axi4_lite_subscriber.sv(41) @ 645: uvm_test_top.env.sb [sb] INPUT COVERAGE = 44.79 %
UVM_INFO axi4_lite_inp_monitor.sv(38) @ 645: uvm_test_top.env.aa.inp_mon [INPUT MONITOR] READ araddr=00000004
UVM_INFO axi4_lite_out_monitor.sv(28) @ 655: uvm_test_top.env.pa.out_mon [OUTPUT MONITOR] BRESP = 0 RRESP = 0 RDATA = 00000000
UVM_INFO axi4_lite_driver.sv(34) @ 655: uvm_test_top.env.aa.drv [DRV] awaddr = 45606b38 wdata = b0f161c0 wstrb = 7 araddr = 00000004
UVM_INFO axi4_lite_scoreboard.sv(68) @ 655: uvm_test_top.env.scb [RRESP] Matched : exp_rresp=0 actual_rresp =0 write = 0 read = 1
UVM_INFO axi4_lite_scoreboard.sv(72) @ 655: uvm_test_top.env.scb [RDATA] Matched : exp_rdata=00000000 actual_rdata =00000000
UVM_INFO axi4_lite_subscriber.sv(41) @ 675: uvm_test_top.env.sb [sb] INPUT COVERAGE = 44.79 %
UVM_INFO axi4_lite_inp_monitor.sv(38) @ 675: uvm_test_top.env.aa.inp_mon [INPUT MONITOR] READ araddr=00000014
UVM_INFO axi4_lite_out_monitor.sv(28) @ 685: uvm_test_top.env.pa.out_mon [OUTPUT MONITOR] BRESP = 0 RRESP = 0 RDATA = 00000000
UVM_INFO axi4_lite_driver.sv(34) @ 685: uvm_test_top.env.aa.drv [DRV] awaddr = a309a1b4 wdata = ea1e9c29 wstrb = f araddr = 00000014
UVM_INFO axi4_lite_scoreboard.sv(68) @ 685: uvm_test_top.env.scb [RRESP] Matched : exp_rresp=0 actual_rresp =0 write = 0 read = 1
UVM_INFO axi4_lite_scoreboard.sv(72) @ 685: uvm_test_top.env.scb [RDATA] Matched : exp_rdata=00000000 actual_rdata =00000000
UVM_INFO axi4_lite_subscriber.sv(41) @ 705: uvm_test_top.env.sb [sb] INPUT COVERAGE = 44.79 %
UVM_INFO axi4_lite_inp_monitor.sv(38) @ 705: uvm_test_top.env.aa.inp_mon [INPUT MONITOR] READ araddr=0000002c
UVM_INFO axi4_lite_out_monitor.sv(28) @ 715: uvm_test_top.env.pa.out_mon [OUTPUT MONITOR] BRESP = 0 RRESP = 0 RDATA = 00000000
UVM_INFO axi4_lite_driver.sv(34) @ 715: uvm_test_top.env.aa.drv [DRV] awaddr = 138213ec wdata = 07784ffd wstrb = 2 araddr = 0000002c
UVM_INFO axi4_lite_scoreboard.sv(68) @ 715: uvm_test_top.env.scb [RRESP] Matched : exp_rresp=0 actual_rresp =0 write = 0 read = 1
UVM_INFO axi4_lite_scoreboard.sv(72) @ 715: uvm_test_top.env.scb [RDATA] Matched : exp_rdata=00000000 actual_rdata =00000000
UVM_INFO axi4_lite_subscriber.sv(41) @ 735: uvm_test_top.env.sb [sb] INPUT COVERAGE = 44.79 %
UVM_INFO axi4_lite_inp_monitor.sv(38) @ 735: uvm_test_top.env.aa.inp_mon [INPUT MONITOR] READ araddr=00000010
UVM_INFO axi4_lite_out_monitor.sv(28) @ 745: uvm_test_top.env.pa.out_mon [OUTPUT MONITOR] BRESP = 0 RRESP = 0 RDATA = 00000000
UVM_INFO axi4_lite_driver.sv(34) @ 745: uvm_test_top.env.aa.drv [DRV] awaddr = cf8e73c4 wdata = e61f8df5 wstrb = 2 araddr = 00000010
UVM_INFO axi4_lite_scoreboard.sv(68) @ 745: uvm_test_top.env.scb [RRESP] Matched : exp_rresp=0 actual_rresp =0 write = 0 read = 1
UVM_INFO axi4_lite_scoreboard.sv(72) @ 745: uvm_test_top.env.scb [RDATA] Matched : exp_rdata=00000000 actual_rdata =00000000
UVM_INFO axi4_lite_subscriber.sv(41) @ 765: uvm_test_top.env.sb [sb] INPUT COVERAGE = 44.79 %
UVM_INFO axi4_lite_inp_monitor.sv(38) @ 765: uvm_test_top.env.aa.inp_mon [INPUT MONITOR] READ araddr=00000008
UVM_INFO axi4_lite_out_monitor.sv(28) @ 775: uvm_test_top.env.pa.out_mon [OUTPUT MONITOR] BRESP = 0 RRESP = 0 RDATA = 00000000
UVM_INFO axi4_lite_driver.sv(34) @ 775: uvm_test_top.env.aa.drv [DRV] awaddr = 311cc504 wdata = 4e12c8ce wstrb = b araddr = 00000008
UVM_INFO axi4_lite_scoreboard.sv(68) @ 775: uvm_test_top.env.scb [RRESP] Matched : exp_rresp=0 actual_rresp =0 write = 0 read = 1
UVM_INFO axi4_lite_scoreboard.sv(72) @ 775: uvm_test_top.env.scb [RDATA] Matched : exp_rdata=00000000 actual_rdata =00000000
UVM_INFO axi4_lite_subscriber.sv(41) @ 795: uvm_test_top.env.sb [sb] INPUT COVERAGE = 44.79 %
UVM_INFO axi4_lite_inp_monitor.sv(38) @ 795: uvm_test_top.env.aa.inp_mon [INPUT MONITOR] READ araddr=00000030
UVM_INFO axi4_lite_out_monitor.sv(28) @ 805: uvm_test_top.env.pa.out_mon [OUTPUT MONITOR] BRESP = 0 RRESP = 0 RDATA = 00000000
UVM_INFO axi4_lite_driver.sv(34) @ 805: uvm_test_top.env.aa.drv [DRV] awaddr = 9029cca0 wdata = 3344aa1c wstrb = d araddr = 00000030
UVM_INFO axi4_lite_scoreboard.sv(68) @ 805: uvm_test_top.env.scb [RRESP] Matched : exp_rresp=0 actual_rresp =0 write = 0 read = 1
UVM_INFO axi4_lite_scoreboard.sv(72) @ 805: uvm_test_top.env.scb [RDATA] Matched : exp_rdata=00000000 actual_rdata =00000000
UVM_INFO axi4_lite_subscriber.sv(41) @ 825: uvm_test_top.env.sb [sb] INPUT COVERAGE = 44.79 %
UVM_INFO axi4_lite_inp_monitor.sv(38) @ 825: uvm_test_top.env.aa.inp_mon [INPUT MONITOR] READ araddr=00000038
UVM_INFO axi4_lite_out_monitor.sv(28) @ 835: uvm_test_top.env.pa.out_mon [OUTPUT MONITOR] BRESP = 0 RRESP = 2 RDATA = 00000000
UVM_INFO axi4_lite_driver.sv(34) @ 835: uvm_test_top.env.aa.drv [DRV] awaddr = 89c9de88 wdata = 8e7bcf2a wstrb = 3 araddr = 00000038
UVM_INFO axi4_lite_scoreboard.sv(68) @ 835: uvm_test_top.env.scb [RRESP] Matched : exp_rresp=2 actual_rresp =2 write = 0 read = 1
UVM_INFO axi4_lite_scoreboard.sv(72) @ 835: uvm_test_top.env.scb [RDATA] Matched : exp_rdata=00000000 actual_rdata =00000000
UVM_INFO axi4_lite_subscriber.sv(41) @ 855: uvm_test_top.env.sb [sb] INPUT COVERAGE = 44.79 %
UVM_INFO axi4_lite_inp_monitor.sv(38) @ 855: uvm_test_top.env.aa.inp_mon [INPUT MONITOR] READ araddr=00000010
UVM_INFO axi4_lite_out_monitor.sv(28) @ 865: uvm_test_top.env.pa.out_mon [OUTPUT MONITOR] BRESP = 0 RRESP = 0 RDATA = 00000000
UVM_INFO axi4_lite_driver.sv(34) @ 865: uvm_test_top.env.aa.drv [DRV] awaddr = b01e03c8 wdata = 994e5ee7 wstrb = 9 araddr = 00000010
UVM_INFO axi4_lite_scoreboard.sv(68) @ 865: uvm_test_top.env.scb [RRESP] Matched : exp_rresp=0 actual_rresp =0 write = 0 read = 1
UVM_INFO axi4_lite_scoreboard.sv(72) @ 865: uvm_test_top.env.scb [RDATA] Matched : exp_rdata=00000000 actual_rdata =00000000
UVM_INFO axi4_lite_subscriber.sv(41) @ 885: uvm_test_top.env.sb [sb] INPUT COVERAGE = 44.79 %
UVM_INFO axi4_lite_inp_monitor.sv(38) @ 885: uvm_test_top.env.aa.inp_mon [INPUT MONITOR] READ araddr=00000034
UVM_INFO axi4_lite_out_monitor.sv(28) @ 895: uvm_test_top.env.pa.out_mon [OUTPUT MONITOR] BRESP = 0 RRESP = 2 RDATA = 00000000
UVM_INFO axi4_lite_driver.sv(34) @ 895: uvm_test_top.env.aa.drv [DRV] awaddr = 32dbf9a4 wdata = a070ba97 wstrb = c araddr = 00000034
UVM_INFO axi4_lite_scoreboard.sv(68) @ 895: uvm_test_top.env.scb [RRESP] Matched : exp_rresp=2 actual_rresp =2 write = 0 read = 1
UVM_INFO axi4_lite_scoreboard.sv(72) @ 895: uvm_test_top.env.scb [RDATA] Matched : exp_rdata=00000000 actual_rdata =00000000
UVM_INFO axi4_lite_subscriber.sv(41) @ 915: uvm_test_top.env.sb [sb] INPUT COVERAGE = 44.79 %
UVM_INFO axi4_lite_inp_monitor.sv(38) @ 915: uvm_test_top.env.aa.inp_mon [INPUT MONITOR] READ araddr=0000002c
UVM_INFO axi4_lite_out_monitor.sv(28) @ 925: uvm_test_top.env.pa.out_mon [OUTPUT MONITOR] BRESP = 0 RRESP = 0 RDATA = 00000000
UVM_INFO axi4_lite_driver.sv(34) @ 925: uvm_test_top.env.aa.drv [DRV] awaddr = bd671ed4 wdata = 850a1c5d wstrb = e araddr = 0000002c
UVM_INFO axi4_lite_scoreboard.sv(68) @ 925: uvm_test_top.env.scb [RRESP] Matched : exp_rresp=0 actual_rresp =0 write = 0 read = 1
UVM_INFO axi4_lite_scoreboard.sv(72) @ 925: uvm_test_top.env.scb [RDATA] Matched : exp_rdata=00000000 actual_rdata =00000000
UVM_INFO axi4_lite_subscriber.sv(41) @ 945: uvm_test_top.env.sb [sb] INPUT COVERAGE = 44.79 %
UVM_INFO axi4_lite_inp_monitor.sv(38) @ 945: uvm_test_top.env.aa.inp_mon [INPUT MONITOR] READ araddr=00000028
UVM_INFO axi4_lite_out_monitor.sv(28) @ 955: uvm_test_top.env.pa.out_mon [OUTPUT MONITOR] BRESP = 0 RRESP = 0 RDATA = 00000000
UVM_INFO axi4_lite_driver.sv(34) @ 955: uvm_test_top.env.aa.drv [DRV] awaddr = 4925158c wdata = c6206412 wstrb = c araddr = 00000028
UVM_INFO axi4_lite_scoreboard.sv(68) @ 955: uvm_test_top.env.scb [RRESP] Matched : exp_rresp=0 actual_rresp =0 write = 0 read = 1
UVM_INFO axi4_lite_scoreboard.sv(72) @ 955: uvm_test_top.env.scb [RDATA] Matched : exp_rdata=00000000 actual_rdata =00000000
UVM_INFO axi4_lite_subscriber.sv(41) @ 975: uvm_test_top.env.sb [sb] INPUT COVERAGE = 44.79 %
UVM_INFO axi4_lite_inp_monitor.sv(38) @ 975: uvm_test_top.env.aa.inp_mon [INPUT MONITOR] READ araddr=00000008
UVM_INFO axi4_lite_out_monitor.sv(28) @ 985: uvm_test_top.env.pa.out_mon [OUTPUT MONITOR] BRESP = 0 RRESP = 0 RDATA = 00000000
UVM_INFO axi4_lite_driver.sv(34) @ 985: uvm_test_top.env.aa.drv [DRV] awaddr = d0dd7730 wdata = 57add674 wstrb = 5 araddr = 00000008
UVM_INFO axi4_lite_scoreboard.sv(68) @ 985: uvm_test_top.env.scb [RRESP] Matched : exp_rresp=0 actual_rresp =0 write = 0 read = 1
UVM_INFO axi4_lite_scoreboard.sv(72) @ 985: uvm_test_top.env.scb [RDATA] Matched : exp_rdata=00000000 actual_rdata =00000000
UVM_INFO axi4_lite_subscriber.sv(41) @ 1005: uvm_test_top.env.sb [sb] INPUT COVERAGE = 44.79 %
UVM_INFO axi4_lite_inp_monitor.sv(38) @ 1005: uvm_test_top.env.aa.inp_mon [INPUT MONITOR] READ araddr=00000038
UVM_INFO axi4_lite_out_monitor.sv(28) @ 1015: uvm_test_top.env.pa.out_mon [OUTPUT MONITOR] BRESP = 0 RRESP = 2 RDATA = 00000000
UVM_INFO axi4_lite_driver.sv(34) @ 1015: uvm_test_top.env.aa.drv [DRV] awaddr = a05d5988 wdata = 2086b3a8 wstrb = a araddr = 00000038
UVM_INFO axi4_lite_scoreboard.sv(68) @ 1015: uvm_test_top.env.scb [RRESP] Matched : exp_rresp=2 actual_rresp =2 write = 0 read = 1
UVM_INFO axi4_lite_scoreboard.sv(72) @ 1015: uvm_test_top.env.scb [RDATA] Matched : exp_rdata=00000000 actual_rdata =00000000
UVM_INFO axi4_lite_subscriber.sv(41) @ 1035: uvm_test_top.env.sb [sb] INPUT COVERAGE = 44.79 %
UVM_INFO axi4_lite_inp_monitor.sv(38) @ 1035: uvm_test_top.env.aa.inp_mon [INPUT MONITOR] READ araddr=00000008
UVM_INFO axi4_lite_out_monitor.sv(28) @ 1045: uvm_test_top.env.pa.out_mon [OUTPUT MONITOR] BRESP = 0 RRESP = 0 RDATA = 00000000
UVM_INFO axi4_lite_driver.sv(34) @ 1045: uvm_test_top.env.aa.drv [DRV] awaddr = 9d9bd7a0 wdata = f13b10e7 wstrb = 6 araddr = 00000008
UVM_INFO axi4_lite_scoreboard.sv(68) @ 1045: uvm_test_top.env.scb [RRESP] Matched : exp_rresp=0 actual_rresp =0 write = 0 read = 1
UVM_INFO axi4_lite_scoreboard.sv(72) @ 1045: uvm_test_top.env.scb [RDATA] Matched : exp_rdata=00000000 actual_rdata =00000000
UVM_INFO axi4_lite_subscriber.sv(41) @ 1065: uvm_test_top.env.sb [sb] INPUT COVERAGE = 44.79 %
UVM_INFO axi4_lite_inp_monitor.sv(38) @ 1065: uvm_test_top.env.aa.inp_mon [INPUT MONITOR] READ araddr=00000008
UVM_INFO axi4_lite_out_monitor.sv(28) @ 1075: uvm_test_top.env.pa.out_mon [OUTPUT MONITOR] BRESP = 0 RRESP = 0 RDATA = 00000000
UVM_INFO axi4_lite_driver.sv(34) @ 1075: uvm_test_top.env.aa.drv [DRV] awaddr = db0f35ec wdata = 3cc8313a wstrb = 3 araddr = 00000008
UVM_INFO axi4_lite_scoreboard.sv(68) @ 1075: uvm_test_top.env.scb [RRESP] Matched : exp_rresp=0 actual_rresp =0 write = 0 read = 1
UVM_INFO axi4_lite_scoreboard.sv(72) @ 1075: uvm_test_top.env.scb [RDATA] Matched : exp_rdata=00000000 actual_rdata =00000000
UVM_INFO axi4_lite_subscriber.sv(41) @ 1095: uvm_test_top.env.sb [sb] INPUT COVERAGE = 44.79 %
UVM_INFO axi4_lite_inp_monitor.sv(38) @ 1095: uvm_test_top.env.aa.inp_mon [INPUT MONITOR] READ araddr=0000000c
UVM_INFO axi4_lite_out_monitor.sv(28) @ 1105: uvm_test_top.env.pa.out_mon [OUTPUT MONITOR] BRESP = 0 RRESP = 0 RDATA = 00000000
UVM_INFO axi4_lite_driver.sv(34) @ 1105: uvm_test_top.env.aa.drv [DRV] awaddr = 06ad90d8 wdata = aad59685 wstrb = 2 araddr = 0000000c
UVM_INFO axi4_lite_scoreboard.sv(68) @ 1105: uvm_test_top.env.scb [RRESP] Matched : exp_rresp=0 actual_rresp =0 write = 0 read = 1
UVM_INFO axi4_lite_scoreboard.sv(72) @ 1105: uvm_test_top.env.scb [RDATA] Matched : exp_rdata=00000000 actual_rdata =00000000
UVM_INFO axi4_lite_subscriber.sv(41) @ 1125: uvm_test_top.env.sb [sb] INPUT COVERAGE = 44.79 %
UVM_INFO axi4_lite_inp_monitor.sv(38) @ 1125: uvm_test_top.env.aa.inp_mon [INPUT MONITOR] READ araddr=00000014
UVM_INFO axi4_lite_out_monitor.sv(28) @ 1135: uvm_test_top.env.pa.out_mon [OUTPUT MONITOR] BRESP = 0 RRESP = 0 RDATA = 00000000
UVM_INFO axi4_lite_driver.sv(34) @ 1135: uvm_test_top.env.aa.drv [DRV] awaddr = 23533c5c wdata = b6133150 wstrb = 6 araddr = 00000014
UVM_INFO axi4_lite_scoreboard.sv(68) @ 1135: uvm_test_top.env.scb [RRESP] Matched : exp_rresp=0 actual_rresp =0 write = 0 read = 1
UVM_INFO axi4_lite_scoreboard.sv(72) @ 1135: uvm_test_top.env.scb [RDATA] Matched : exp_rdata=00000000 actual_rdata =00000000
UVM_INFO axi4_lite_subscriber.sv(41) @ 1155: uvm_test_top.env.sb [sb] INPUT COVERAGE = 44.79 %
UVM_INFO axi4_lite_inp_monitor.sv(38) @ 1155: uvm_test_top.env.aa.inp_mon [INPUT MONITOR] READ araddr=0000001c
UVM_INFO axi4_lite_out_monitor.sv(28) @ 1165: uvm_test_top.env.pa.out_mon [OUTPUT MONITOR] BRESP = 0 RRESP = 0 RDATA = 00000000
UVM_INFO axi4_lite_driver.sv(34) @ 1165: uvm_test_top.env.aa.drv [DRV] awaddr = d1fe3fe8 wdata = b69c36b3 wstrb = 3 araddr = 0000001c
UVM_INFO axi4_lite_scoreboard.sv(68) @ 1165: uvm_test_top.env.scb [RRESP] Matched : exp_rresp=0 actual_rresp =0 write = 0 read = 1
UVM_INFO axi4_lite_scoreboard.sv(72) @ 1165: uvm_test_top.env.scb [RDATA] Matched : exp_rdata=00000000 actual_rdata =00000000
UVM_INFO axi4_lite_subscriber.sv(41) @ 1185: uvm_test_top.env.sb [sb] INPUT COVERAGE = 44.79 %
UVM_INFO axi4_lite_inp_monitor.sv(38) @ 1185: uvm_test_top.env.aa.inp_mon [INPUT MONITOR] READ araddr=0000002c
UVM_INFO axi4_lite_out_monitor.sv(28) @ 1195: uvm_test_top.env.pa.out_mon [OUTPUT MONITOR] BRESP = 0 RRESP = 0 RDATA = 00000000
UVM_INFO axi4_lite_driver.sv(34) @ 1195: uvm_test_top.env.aa.drv [DRV] awaddr = f3ae0818 wdata = b68b932d wstrb = 1 araddr = 0000002c
UVM_INFO axi4_lite_scoreboard.sv(68) @ 1195: uvm_test_top.env.scb [RRESP] Matched : exp_rresp=0 actual_rresp =0 write = 0 read = 1
UVM_INFO axi4_lite_scoreboard.sv(72) @ 1195: uvm_test_top.env.scb [RDATA] Matched : exp_rdata=00000000 actual_rdata =00000000
UVM_INFO axi4_lite_subscriber.sv(41) @ 1215: uvm_test_top.env.sb [sb] INPUT COVERAGE = 44.79 %
UVM_INFO axi4_lite_inp_monitor.sv(38) @ 1215: uvm_test_top.env.aa.inp_mon [INPUT MONITOR] READ araddr=0000001c
UVM_INFO axi4_lite_out_monitor.sv(28) @ 1225: uvm_test_top.env.pa.out_mon [OUTPUT MONITOR] BRESP = 0 RRESP = 0 RDATA = 00000000
UVM_INFO axi4_lite_driver.sv(34) @ 1225: uvm_test_top.env.aa.drv [DRV] awaddr = f095eeb8 wdata = 1f723acd wstrb = 0 araddr = 0000001c
UVM_INFO axi4_lite_scoreboard.sv(68) @ 1225: uvm_test_top.env.scb [RRESP] Matched : exp_rresp=0 actual_rresp =0 write = 0 read = 1
UVM_INFO axi4_lite_scoreboard.sv(72) @ 1225: uvm_test_top.env.scb [RDATA] Matched : exp_rdata=00000000 actual_rdata =00000000
UVM_INFO axi4_lite_subscriber.sv(41) @ 1245: uvm_test_top.env.sb [sb] INPUT COVERAGE = 44.79 %
UVM_INFO axi4_lite_inp_monitor.sv(38) @ 1245: uvm_test_top.env.aa.inp_mon [INPUT MONITOR] READ araddr=00000024
UVM_INFO axi4_lite_out_monitor.sv(28) @ 1255: uvm_test_top.env.pa.out_mon [OUTPUT MONITOR] BRESP = 0 RRESP = 0 RDATA = 00000000
UVM_INFO axi4_lite_driver.sv(34) @ 1255: uvm_test_top.env.aa.drv [DRV] awaddr = d2719708 wdata = 15c27cb2 wstrb = c araddr = 00000024
UVM_INFO axi4_lite_scoreboard.sv(68) @ 1255: uvm_test_top.env.scb [RRESP] Matched : exp_rresp=0 actual_rresp =0 write = 0 read = 1
UVM_INFO axi4_lite_scoreboard.sv(72) @ 1255: uvm_test_top.env.scb [RDATA] Matched : exp_rdata=00000000 actual_rdata =00000000
UVM_INFO axi4_lite_subscriber.sv(41) @ 1275: uvm_test_top.env.sb [sb] INPUT COVERAGE = 44.79 %
UVM_INFO axi4_lite_inp_monitor.sv(38) @ 1275: uvm_test_top.env.aa.inp_mon [INPUT MONITOR] READ araddr=00000024
UVM_INFO axi4_lite_out_monitor.sv(28) @ 1285: uvm_test_top.env.pa.out_mon [OUTPUT MONITOR] BRESP = 0 RRESP = 0 RDATA = 00000000
UVM_INFO axi4_lite_driver.sv(34) @ 1285: uvm_test_top.env.aa.drv [DRV] awaddr = 213d51dc wdata = 933dc861 wstrb = 5 araddr = 00000024
UVM_INFO axi4_lite_scoreboard.sv(68) @ 1285: uvm_test_top.env.scb [RRESP] Matched : exp_rresp=0 actual_rresp =0 write = 0 read = 1
UVM_INFO axi4_lite_scoreboard.sv(72) @ 1285: uvm_test_top.env.scb [RDATA] Matched : exp_rdata=00000000 actual_rdata =00000000
UVM_INFO axi4_lite_subscriber.sv(41) @ 1305: uvm_test_top.env.sb [sb] INPUT COVERAGE = 44.79 %
UVM_INFO axi4_lite_inp_monitor.sv(38) @ 1305: uvm_test_top.env.aa.inp_mon [INPUT MONITOR] READ araddr=00000020
UVM_INFO axi4_lite_out_monitor.sv(28) @ 1315: uvm_test_top.env.pa.out_mon [OUTPUT MONITOR] BRESP = 0 RRESP = 0 RDATA = 00000000
UVM_INFO axi4_lite_driver.sv(34) @ 1315: uvm_test_top.env.aa.drv [DRV] awaddr = 054a52e4 wdata = 9f1060f3 wstrb = 4 araddr = 00000020
UVM_INFO axi4_lite_scoreboard.sv(68) @ 1315: uvm_test_top.env.scb [RRESP] Matched : exp_rresp=0 actual_rresp =0 write = 0 read = 1
UVM_INFO axi4_lite_scoreboard.sv(72) @ 1315: uvm_test_top.env.scb [RDATA] Matched : exp_rdata=00000000 actual_rdata =00000000
UVM_INFO axi4_lite_subscriber.sv(41) @ 1335: uvm_test_top.env.sb [sb] INPUT COVERAGE = 44.79 %
UVM_INFO axi4_lite_inp_monitor.sv(38) @ 1335: uvm_test_top.env.aa.inp_mon [INPUT MONITOR] READ araddr=00000030
UVM_INFO axi4_lite_out_monitor.sv(28) @ 1345: uvm_test_top.env.pa.out_mon [OUTPUT MONITOR] BRESP = 0 RRESP = 0 RDATA = 00000000
UVM_INFO axi4_lite_driver.sv(34) @ 1345: uvm_test_top.env.aa.drv [DRV] awaddr = 626abf2c wdata = 61fea261 wstrb = d araddr = 00000030
UVM_INFO axi4_lite_scoreboard.sv(68) @ 1345: uvm_test_top.env.scb [RRESP] Matched : exp_rresp=0 actual_rresp =0 write = 0 read = 1
UVM_INFO axi4_lite_scoreboard.sv(72) @ 1345: uvm_test_top.env.scb [RDATA] Matched : exp_rdata=00000000 actual_rdata =00000000
UVM_INFO axi4_lite_subscriber.sv(41) @ 1365: uvm_test_top.env.sb [sb] INPUT COVERAGE = 44.79 %
UVM_INFO axi4_lite_inp_monitor.sv(38) @ 1365: uvm_test_top.env.aa.inp_mon [INPUT MONITOR] READ araddr=00000024
UVM_INFO axi4_lite_out_monitor.sv(28) @ 1375: uvm_test_top.env.pa.out_mon [OUTPUT MONITOR] BRESP = 0 RRESP = 0 RDATA = 00000000
UVM_INFO axi4_lite_driver.sv(34) @ 1375: uvm_test_top.env.aa.drv [DRV] awaddr = d3e80dd4 wdata = 8eb85a32 wstrb = f araddr = 00000024
UVM_INFO axi4_lite_scoreboard.sv(68) @ 1375: uvm_test_top.env.scb [RRESP] Matched : exp_rresp=0 actual_rresp =0 write = 0 read = 1
UVM_INFO axi4_lite_scoreboard.sv(72) @ 1375: uvm_test_top.env.scb [RDATA] Matched : exp_rdata=00000000 actual_rdata =00000000
UVM_INFO axi4_lite_subscriber.sv(41) @ 1395: uvm_test_top.env.sb [sb] INPUT COVERAGE = 44.79 %
UVM_INFO axi4_lite_inp_monitor.sv(38) @ 1395: uvm_test_top.env.aa.inp_mon [INPUT MONITOR] READ araddr=00000000
UVM_INFO axi4_lite_out_monitor.sv(28) @ 1405: uvm_test_top.env.pa.out_mon [OUTPUT MONITOR] BRESP = 0 RRESP = 0 RDATA = 00000000
UVM_INFO axi4_lite_driver.sv(34) @ 1405: uvm_test_top.env.aa.drv [DRV] awaddr = 810abba0 wdata = d856581d wstrb = 3 araddr = 00000000
UVM_INFO axi4_lite_scoreboard.sv(68) @ 1405: uvm_test_top.env.scb [RRESP] Matched : exp_rresp=0 actual_rresp =0 write = 0 read = 1
UVM_INFO axi4_lite_scoreboard.sv(72) @ 1405: uvm_test_top.env.scb [RDATA] Matched : exp_rdata=00000000 actual_rdata =00000000
UVM_INFO axi4_lite_subscriber.sv(41) @ 1425: uvm_test_top.env.sb [sb] INPUT COVERAGE = 44.79 %
UVM_INFO axi4_lite_inp_monitor.sv(38) @ 1425: uvm_test_top.env.aa.inp_mon [INPUT MONITOR] READ araddr=00000004
UVM_INFO axi4_lite_out_monitor.sv(28) @ 1435: uvm_test_top.env.pa.out_mon [OUTPUT MONITOR] BRESP = 0 RRESP = 0 RDATA = 00000000
UVM_INFO axi4_lite_driver.sv(34) @ 1435: uvm_test_top.env.aa.drv [DRV] awaddr = 7f31ed34 wdata = c051f8c3 wstrb = 1 araddr = 00000004
UVM_INFO axi4_lite_scoreboard.sv(68) @ 1435: uvm_test_top.env.scb [RRESP] Matched : exp_rresp=0 actual_rresp =0 write = 0 read = 1
UVM_INFO axi4_lite_scoreboard.sv(72) @ 1435: uvm_test_top.env.scb [RDATA] Matched : exp_rdata=00000000 actual_rdata =00000000
UVM_INFO axi4_lite_subscriber.sv(41) @ 1455: uvm_test_top.env.sb [sb] INPUT COVERAGE = 44.79 %
UVM_INFO axi4_lite_inp_monitor.sv(38) @ 1455: uvm_test_top.env.aa.inp_mon [INPUT MONITOR] READ araddr=00000024
UVM_INFO axi4_lite_out_monitor.sv(28) @ 1465: uvm_test_top.env.pa.out_mon [OUTPUT MONITOR] BRESP = 0 RRESP = 0 RDATA = 00000000
UVM_INFO axi4_lite_driver.sv(34) @ 1465: uvm_test_top.env.aa.drv [DRV] awaddr = 657741c4 wdata = 74e6b025 wstrb = 9 araddr = 00000024
UVM_INFO axi4_lite_scoreboard.sv(68) @ 1465: uvm_test_top.env.scb [RRESP] Matched : exp_rresp=0 actual_rresp =0 write = 0 read = 1
UVM_INFO axi4_lite_scoreboard.sv(72) @ 1465: uvm_test_top.env.scb [RDATA] Matched : exp_rdata=00000000 actual_rdata =00000000
UVM_INFO axi4_lite_subscriber.sv(41) @ 1485: uvm_test_top.env.sb [sb] INPUT COVERAGE = 44.79 %
UVM_INFO axi4_lite_inp_monitor.sv(38) @ 1485: uvm_test_top.env.aa.inp_mon [INPUT MONITOR] READ araddr=0000002c
UVM_INFO axi4_lite_out_monitor.sv(28) @ 1495: uvm_test_top.env.pa.out_mon [OUTPUT MONITOR] BRESP = 0 RRESP = 0 RDATA = 00000000
UVM_INFO axi4_lite_driver.sv(34) @ 1495: uvm_test_top.env.aa.drv [DRV] awaddr = 59989dbc wdata = 5a717b94 wstrb = 9 araddr = 0000002c
UVM_INFO axi4_lite_scoreboard.sv(68) @ 1495: uvm_test_top.env.scb [RRESP] Matched : exp_rresp=0 actual_rresp =0 write = 0 read = 1
UVM_INFO axi4_lite_scoreboard.sv(72) @ 1495: uvm_test_top.env.scb [RDATA] Matched : exp_rdata=00000000 actual_rdata =00000000
UVM_INFO axi4_lite_subscriber.sv(41) @ 1515: uvm_test_top.env.sb [sb] INPUT COVERAGE = 44.79 %
UVM_INFO axi4_lite_inp_monitor.sv(38) @ 1515: uvm_test_top.env.aa.inp_mon [INPUT MONITOR] READ araddr=00000030
UVM_INFO axi4_lite_out_monitor.sv(28) @ 1525: uvm_test_top.env.pa.out_mon [OUTPUT MONITOR] BRESP = 0 RRESP = 0 RDATA = 00000000
UVM_INFO axi4_lite_driver.sv(34) @ 1525: uvm_test_top.env.aa.drv [DRV] awaddr = cd54d78c wdata = 661e9ec7 wstrb = e araddr = 00000030
UVM_INFO axi4_lite_scoreboard.sv(68) @ 1525: uvm_test_top.env.scb [RRESP] Matched : exp_rresp=0 actual_rresp =0 write = 0 read = 1
UVM_INFO axi4_lite_scoreboard.sv(72) @ 1525: uvm_test_top.env.scb [RDATA] Matched : exp_rdata=00000000 actual_rdata =00000000
UVM_INFO axi4_lite_subscriber.sv(41) @ 1545: uvm_test_top.env.sb [sb] INPUT COVERAGE = 44.79 %
UVM_INFO axi4_lite_inp_monitor.sv(38) @ 1545: uvm_test_top.env.aa.inp_mon [INPUT MONITOR] READ araddr=00000010
UVM_INFO axi4_lite_out_monitor.sv(28) @ 1555: uvm_test_top.env.pa.out_mon [OUTPUT MONITOR] BRESP = 0 RRESP = 0 RDATA = 00000000
UVM_INFO axi4_lite_driver.sv(34) @ 1555: uvm_test_top.env.aa.drv [DRV] awaddr = be67f150 wdata = 6add9321 wstrb = c araddr = 00000010
UVM_INFO axi4_lite_scoreboard.sv(68) @ 1555: uvm_test_top.env.scb [RRESP] Matched : exp_rresp=0 actual_rresp =0 write = 0 read = 1
UVM_INFO axi4_lite_scoreboard.sv(72) @ 1555: uvm_test_top.env.scb [RDATA] Matched : exp_rdata=00000000 actual_rdata =00000000
UVM_INFO axi4_lite_subscriber.sv(41) @ 1575: uvm_test_top.env.sb [sb] INPUT COVERAGE = 44.79 %
UVM_INFO axi4_lite_inp_monitor.sv(38) @ 1575: uvm_test_top.env.aa.inp_mon [INPUT MONITOR] READ araddr=00000030
UVM_INFO axi4_lite_out_monitor.sv(28) @ 1585: uvm_test_top.env.pa.out_mon [OUTPUT MONITOR] BRESP = 0 RRESP = 0 RDATA = 00000000
UVM_INFO axi4_lite_driver.sv(34) @ 1585: uvm_test_top.env.aa.drv [DRV] awaddr = cb567e7c wdata = 5381cac9 wstrb = c araddr = 00000030
UVM_INFO axi4_lite_scoreboard.sv(68) @ 1585: uvm_test_top.env.scb [RRESP] Matched : exp_rresp=0 actual_rresp =0 write = 0 read = 1
UVM_INFO axi4_lite_scoreboard.sv(72) @ 1585: uvm_test_top.env.scb [RDATA] Matched : exp_rdata=00000000 actual_rdata =00000000
UVM_INFO axi4_lite_subscriber.sv(41) @ 1605: uvm_test_top.env.sb [sb] INPUT COVERAGE = 44.79 %
UVM_INFO axi4_lite_inp_monitor.sv(38) @ 1605: uvm_test_top.env.aa.inp_mon [INPUT MONITOR] READ araddr=0000000c
UVM_INFO axi4_lite_out_monitor.sv(28) @ 1615: uvm_test_top.env.pa.out_mon [OUTPUT MONITOR] BRESP = 0 RRESP = 0 RDATA = 00000000
UVM_INFO axi4_lite_driver.sv(34) @ 1615: uvm_test_top.env.aa.drv [DRV] awaddr = 39edff5c wdata = 37f48333 wstrb = 3 araddr = 0000000c
UVM_INFO axi4_lite_scoreboard.sv(68) @ 1615: uvm_test_top.env.scb [RRESP] Matched : exp_rresp=0 actual_rresp =0 write = 0 read = 1
UVM_INFO axi4_lite_scoreboard.sv(72) @ 1615: uvm_test_top.env.scb [RDATA] Matched : exp_rdata=00000000 actual_rdata =00000000
UVM_INFO axi4_lite_subscriber.sv(41) @ 1635: uvm_test_top.env.sb [sb] INPUT COVERAGE = 44.79 %
UVM_INFO axi4_lite_inp_monitor.sv(38) @ 1635: uvm_test_top.env.aa.inp_mon [INPUT MONITOR] READ araddr=00000008
UVM_INFO axi4_lite_out_monitor.sv(28) @ 1645: uvm_test_top.env.pa.out_mon [OUTPUT MONITOR] BRESP = 0 RRESP = 0 RDATA = 00000000
UVM_INFO axi4_lite_driver.sv(34) @ 1645: uvm_test_top.env.aa.drv [DRV] awaddr = 9d49bb34 wdata = f40c83f3 wstrb = 9 araddr = 00000008
UVM_INFO axi4_lite_scoreboard.sv(68) @ 1645: uvm_test_top.env.scb [RRESP] Matched : exp_rresp=0 actual_rresp =0 write = 0 read = 1
UVM_INFO axi4_lite_scoreboard.sv(72) @ 1645: uvm_test_top.env.scb [RDATA] Matched : exp_rdata=00000000 actual_rdata =00000000
UVM_INFO axi4_lite_subscriber.sv(41) @ 1665: uvm_test_top.env.sb [sb] INPUT COVERAGE = 44.79 %
UVM_INFO axi4_lite_inp_monitor.sv(38) @ 1665: uvm_test_top.env.aa.inp_mon [INPUT MONITOR] READ araddr=0000000c
UVM_INFO axi4_lite_out_monitor.sv(28) @ 1675: uvm_test_top.env.pa.out_mon [OUTPUT MONITOR] BRESP = 0 RRESP = 0 RDATA = 00000000
UVM_INFO axi4_lite_driver.sv(34) @ 1675: uvm_test_top.env.aa.drv [DRV] awaddr = 54987ac0 wdata = e1686baa wstrb = a araddr = 0000000c
UVM_INFO axi4_lite_scoreboard.sv(68) @ 1675: uvm_test_top.env.scb [RRESP] Matched : exp_rresp=0 actual_rresp =0 write = 0 read = 1
UVM_INFO axi4_lite_scoreboard.sv(72) @ 1675: uvm_test_top.env.scb [RDATA] Matched : exp_rdata=00000000 actual_rdata =00000000
UVM_INFO axi4_lite_subscriber.sv(41) @ 1695: uvm_test_top.env.sb [sb] INPUT COVERAGE = 44.79 %
UVM_INFO axi4_lite_inp_monitor.sv(38) @ 1695: uvm_test_top.env.aa.inp_mon [INPUT MONITOR] READ araddr=00000030
UVM_INFO axi4_lite_out_monitor.sv(28) @ 1705: uvm_test_top.env.pa.out_mon [OUTPUT MONITOR] BRESP = 0 RRESP = 0 RDATA = 00000000
UVM_INFO axi4_lite_driver.sv(34) @ 1705: uvm_test_top.env.aa.drv [DRV] awaddr = d044ad04 wdata = 07ae29f6 wstrb = c araddr = 00000030
UVM_INFO axi4_lite_scoreboard.sv(68) @ 1705: uvm_test_top.env.scb [RRESP] Matched : exp_rresp=0 actual_rresp =0 write = 0 read = 1
UVM_INFO axi4_lite_scoreboard.sv(72) @ 1705: uvm_test_top.env.scb [RDATA] Matched : exp_rdata=00000000 actual_rdata =00000000
UVM_INFO axi4_lite_subscriber.sv(41) @ 1725: uvm_test_top.env.sb [sb] INPUT COVERAGE = 44.79 %
UVM_INFO axi4_lite_inp_monitor.sv(38) @ 1725: uvm_test_top.env.aa.inp_mon [INPUT MONITOR] READ araddr=0000000c
UVM_INFO axi4_lite_out_monitor.sv(28) @ 1735: uvm_test_top.env.pa.out_mon [OUTPUT MONITOR] BRESP = 0 RRESP = 0 RDATA = 00000000
UVM_INFO axi4_lite_driver.sv(34) @ 1735: uvm_test_top.env.aa.drv [DRV] awaddr = aa5a6324 wdata = 68267445 wstrb = 5 araddr = 0000000c
UVM_INFO axi4_lite_scoreboard.sv(68) @ 1735: uvm_test_top.env.scb [RRESP] Matched : exp_rresp=0 actual_rresp =0 write = 0 read = 1
UVM_INFO axi4_lite_scoreboard.sv(72) @ 1735: uvm_test_top.env.scb [RDATA] Matched : exp_rdata=00000000 actual_rdata =00000000
UVM_INFO axi4_lite_subscriber.sv(41) @ 1755: uvm_test_top.env.sb [sb] INPUT COVERAGE = 44.79 %
UVM_INFO axi4_lite_inp_monitor.sv(38) @ 1755: uvm_test_top.env.aa.inp_mon [INPUT MONITOR] READ araddr=00000020
UVM_INFO axi4_lite_out_monitor.sv(28) @ 1765: uvm_test_top.env.pa.out_mon [OUTPUT MONITOR] BRESP = 0 RRESP = 0 RDATA = 00000000
UVM_INFO axi4_lite_driver.sv(34) @ 1765: uvm_test_top.env.aa.drv [DRV] awaddr = a0c93c24 wdata = 5873cfd1 wstrb = d araddr = 00000020
UVM_INFO axi4_lite_scoreboard.sv(68) @ 1765: uvm_test_top.env.scb [RRESP] Matched : exp_rresp=0 actual_rresp =0 write = 0 read = 1
UVM_INFO axi4_lite_scoreboard.sv(72) @ 1765: uvm_test_top.env.scb [RDATA] Matched : exp_rdata=00000000 actual_rdata =00000000
UVM_INFO axi4_lite_subscriber.sv(41) @ 1785: uvm_test_top.env.sb [sb] INPUT COVERAGE = 44.79 %
UVM_INFO axi4_lite_inp_monitor.sv(38) @ 1785: uvm_test_top.env.aa.inp_mon [INPUT MONITOR] READ araddr=00000028
UVM_INFO axi4_lite_out_monitor.sv(28) @ 1795: uvm_test_top.env.pa.out_mon [OUTPUT MONITOR] BRESP = 0 RRESP = 0 RDATA = 00000000
UVM_INFO axi4_lite_driver.sv(34) @ 1795: uvm_test_top.env.aa.drv [DRV] awaddr = 78e9bd78 wdata = a3a3a9bc wstrb = c araddr = 00000028
UVM_INFO axi4_lite_scoreboard.sv(68) @ 1795: uvm_test_top.env.scb [RRESP] Matched : exp_rresp=0 actual_rresp =0 write = 0 read = 1
UVM_INFO axi4_lite_scoreboard.sv(72) @ 1795: uvm_test_top.env.scb [RDATA] Matched : exp_rdata=00000000 actual_rdata =00000000
UVM_INFO axi4_lite_subscriber.sv(41) @ 1815: uvm_test_top.env.sb [sb] INPUT COVERAGE = 44.79 %
UVM_INFO axi4_lite_inp_monitor.sv(38) @ 1815: uvm_test_top.env.aa.inp_mon [INPUT MONITOR] READ araddr=00000010
UVM_INFO axi4_lite_out_monitor.sv(28) @ 1825: uvm_test_top.env.pa.out_mon [OUTPUT MONITOR] BRESP = 0 RRESP = 0 RDATA = 00000000
UVM_INFO axi4_lite_driver.sv(34) @ 1825: uvm_test_top.env.aa.drv [DRV] awaddr = 7fb9c3b8 wdata = d754aa08 wstrb = e araddr = 00000010
UVM_INFO axi4_lite_scoreboard.sv(68) @ 1825: uvm_test_top.env.scb [RRESP] Matched : exp_rresp=0 actual_rresp =0 write = 0 read = 1
UVM_INFO axi4_lite_scoreboard.sv(72) @ 1825: uvm_test_top.env.scb [RDATA] Matched : exp_rdata=00000000 actual_rdata =00000000
UVM_INFO axi4_lite_subscriber.sv(41) @ 1845: uvm_test_top.env.sb [sb] INPUT COVERAGE = 44.79 %
UVM_INFO axi4_lite_inp_monitor.sv(38) @ 1845: uvm_test_top.env.aa.inp_mon [INPUT MONITOR] READ araddr=00000018
UVM_INFO axi4_lite_out_monitor.sv(28) @ 1855: uvm_test_top.env.pa.out_mon [OUTPUT MONITOR] BRESP = 0 RRESP = 0 RDATA = 00000000
UVM_INFO axi4_lite_driver.sv(34) @ 1855: uvm_test_top.env.aa.drv [DRV] awaddr = 54bbf87c wdata = fedf3a01 wstrb = 6 araddr = 00000018
UVM_INFO axi4_lite_scoreboard.sv(68) @ 1855: uvm_test_top.env.scb [RRESP] Matched : exp_rresp=0 actual_rresp =0 write = 0 read = 1
UVM_INFO axi4_lite_scoreboard.sv(72) @ 1855: uvm_test_top.env.scb [RDATA] Matched : exp_rdata=00000000 actual_rdata =00000000
UVM_INFO axi4_lite_subscriber.sv(41) @ 1875: uvm_test_top.env.sb [sb] INPUT COVERAGE = 44.79 %
UVM_INFO axi4_lite_inp_monitor.sv(38) @ 1875: uvm_test_top.env.aa.inp_mon [INPUT MONITOR] READ araddr=00000000
UVM_INFO axi4_lite_out_monitor.sv(28) @ 1885: uvm_test_top.env.pa.out_mon [OUTPUT MONITOR] BRESP = 0 RRESP = 0 RDATA = 00000000
UVM_INFO axi4_lite_driver.sv(34) @ 1885: uvm_test_top.env.aa.drv [DRV] awaddr = 18f1b2d8 wdata = 4c18fce1 wstrb = 1 araddr = 00000000
UVM_INFO axi4_lite_scoreboard.sv(68) @ 1885: uvm_test_top.env.scb [RRESP] Matched : exp_rresp=0 actual_rresp =0 write = 0 read = 1
UVM_INFO axi4_lite_scoreboard.sv(72) @ 1885: uvm_test_top.env.scb [RDATA] Matched : exp_rdata=00000000 actual_rdata =00000000
UVM_INFO axi4_lite_subscriber.sv(41) @ 1905: uvm_test_top.env.sb [sb] INPUT COVERAGE = 44.79 %
UVM_INFO axi4_lite_inp_monitor.sv(38) @ 1905: uvm_test_top.env.aa.inp_mon [INPUT MONITOR] READ araddr=0000001c
UVM_INFO axi4_lite_out_monitor.sv(28) @ 1915: uvm_test_top.env.pa.out_mon [OUTPUT MONITOR] BRESP = 0 RRESP = 0 RDATA = 00000000
UVM_INFO axi4_lite_driver.sv(34) @ 1915: uvm_test_top.env.aa.drv [DRV] awaddr = 1d501a68 wdata = cb372834 wstrb = 6 araddr = 0000001c
UVM_INFO axi4_lite_scoreboard.sv(68) @ 1915: uvm_test_top.env.scb [RRESP] Matched : exp_rresp=0 actual_rresp =0 write = 0 read = 1
UVM_INFO axi4_lite_scoreboard.sv(72) @ 1915: uvm_test_top.env.scb [RDATA] Matched : exp_rdata=00000000 actual_rdata =00000000
UVM_INFO axi4_lite_subscriber.sv(41) @ 1935: uvm_test_top.env.sb [sb] INPUT COVERAGE = 44.79 %
UVM_INFO axi4_lite_inp_monitor.sv(38) @ 1935: uvm_test_top.env.aa.inp_mon [INPUT MONITOR] READ araddr=00000034
UVM_INFO axi4_lite_out_monitor.sv(28) @ 1945: uvm_test_top.env.pa.out_mon [OUTPUT MONITOR] BRESP = 0 RRESP = 2 RDATA = 00000000
UVM_INFO axi4_lite_driver.sv(34) @ 1945: uvm_test_top.env.aa.drv [DRV] awaddr = e9ab0954 wdata = d310a948 wstrb = c araddr = 00000034
UVM_INFO axi4_lite_scoreboard.sv(68) @ 1945: uvm_test_top.env.scb [RRESP] Matched : exp_rresp=2 actual_rresp =2 write = 0 read = 1
UVM_INFO axi4_lite_scoreboard.sv(72) @ 1945: uvm_test_top.env.scb [RDATA] Matched : exp_rdata=00000000 actual_rdata =00000000
UVM_INFO axi4_lite_subscriber.sv(41) @ 1965: uvm_test_top.env.sb [sb] INPUT COVERAGE = 44.79 %
UVM_INFO axi4_lite_inp_monitor.sv(38) @ 1965: uvm_test_top.env.aa.inp_mon [INPUT MONITOR] READ araddr=00000018
UVM_INFO axi4_lite_out_monitor.sv(28) @ 1975: uvm_test_top.env.pa.out_mon [OUTPUT MONITOR] BRESP = 0 RRESP = 0 RDATA = 00000000
UVM_INFO axi4_lite_driver.sv(34) @ 1975: uvm_test_top.env.aa.drv [DRV] awaddr = 07c52b4c wdata = 84fa5cdd wstrb = 8 araddr = 00000018
UVM_INFO axi4_lite_scoreboard.sv(68) @ 1975: uvm_test_top.env.scb [RRESP] Matched : exp_rresp=0 actual_rresp =0 write = 0 read = 1
UVM_INFO axi4_lite_scoreboard.sv(72) @ 1975: uvm_test_top.env.scb [RDATA] Matched : exp_rdata=00000000 actual_rdata =00000000
UVM_INFO axi4_lite_subscriber.sv(41) @ 1995: uvm_test_top.env.sb [sb] INPUT COVERAGE = 44.79 %
UVM_INFO axi4_lite_inp_monitor.sv(38) @ 1995: uvm_test_top.env.aa.inp_mon [INPUT MONITOR] READ araddr=0000002c
UVM_INFO axi4_lite_out_monitor.sv(28) @ 2005: uvm_test_top.env.pa.out_mon [OUTPUT MONITOR] BRESP = 0 RRESP = 0 RDATA = 00000000
UVM_INFO axi4_lite_driver.sv(34) @ 2005: uvm_test_top.env.aa.drv [DRV] awaddr = 1c416480 wdata = 5db24580 wstrb = c araddr = 0000002c
UVM_INFO axi4_lite_scoreboard.sv(68) @ 2005: uvm_test_top.env.scb [RRESP] Matched : exp_rresp=0 actual_rresp =0 write = 0 read = 1
UVM_INFO axi4_lite_scoreboard.sv(72) @ 2005: uvm_test_top.env.scb [RDATA] Matched : exp_rdata=00000000 actual_rdata =00000000
UVM_INFO axi4_lite_subscriber.sv(41) @ 2025: uvm_test_top.env.sb [sb] INPUT COVERAGE = 44.79 %
UVM_INFO axi4_lite_inp_monitor.sv(38) @ 2025: uvm_test_top.env.aa.inp_mon [INPUT MONITOR] READ araddr=00000024
UVM_INFO axi4_lite_out_monitor.sv(28) @ 2035: uvm_test_top.env.pa.out_mon [OUTPUT MONITOR] BRESP = 0 RRESP = 0 RDATA = 00000000
UVM_INFO axi4_lite_driver.sv(34) @ 2035: uvm_test_top.env.aa.drv [DRV] awaddr = ff9aea38 wdata = a4561fd1 wstrb = b araddr = 00000024
UVM_INFO axi4_lite_scoreboard.sv(68) @ 2035: uvm_test_top.env.scb [RRESP] Matched : exp_rresp=0 actual_rresp =0 write = 0 read = 1
UVM_INFO axi4_lite_scoreboard.sv(72) @ 2035: uvm_test_top.env.scb [RDATA] Matched : exp_rdata=00000000 actual_rdata =00000000
UVM_INFO axi4_lite_subscriber.sv(41) @ 2055: uvm_test_top.env.sb [sb] INPUT COVERAGE = 44.79 %
UVM_INFO axi4_lite_inp_monitor.sv(38) @ 2055: uvm_test_top.env.aa.inp_mon [INPUT MONITOR] READ araddr=00000018
UVM_INFO axi4_lite_out_monitor.sv(28) @ 2065: uvm_test_top.env.pa.out_mon [OUTPUT MONITOR] BRESP = 0 RRESP = 0 RDATA = 00000000
UVM_INFO axi4_lite_driver.sv(34) @ 2065: uvm_test_top.env.aa.drv [DRV] awaddr = 09d72634 wdata = ba56115a wstrb = 7 araddr = 00000018
UVM_INFO axi4_lite_scoreboard.sv(68) @ 2065: uvm_test_top.env.scb [RRESP] Matched : exp_rresp=0 actual_rresp =0 write = 0 read = 1
UVM_INFO axi4_lite_scoreboard.sv(72) @ 2065: uvm_test_top.env.scb [RDATA] Matched : exp_rdata=00000000 actual_rdata =00000000
UVM_INFO axi4_lite_subscriber.sv(41) @ 2085: uvm_test_top.env.sb [sb] INPUT COVERAGE = 44.79 %
UVM_INFO axi4_lite_inp_monitor.sv(38) @ 2085: uvm_test_top.env.aa.inp_mon [INPUT MONITOR] READ araddr=00000004
UVM_INFO axi4_lite_out_monitor.sv(28) @ 2095: uvm_test_top.env.pa.out_mon [OUTPUT MONITOR] BRESP = 0 RRESP = 0 RDATA = 00000000
UVM_INFO axi4_lite_driver.sv(34) @ 2095: uvm_test_top.env.aa.drv [DRV] awaddr = 1cca0b60 wdata = 0dc68d83 wstrb = 3 araddr = 00000004
UVM_INFO axi4_lite_scoreboard.sv(68) @ 2095: uvm_test_top.env.scb [RRESP] Matched : exp_rresp=0 actual_rresp =0 write = 0 read = 1
UVM_INFO axi4_lite_scoreboard.sv(72) @ 2095: uvm_test_top.env.scb [RDATA] Matched : exp_rdata=00000000 actual_rdata =00000000
UVM_INFO axi4_lite_subscriber.sv(41) @ 2115: uvm_test_top.env.sb [sb] INPUT COVERAGE = 44.79 %
UVM_INFO axi4_lite_inp_monitor.sv(38) @ 2115: uvm_test_top.env.aa.inp_mon [INPUT MONITOR] READ araddr=0000000c
UVM_INFO axi4_lite_out_monitor.sv(28) @ 2125: uvm_test_top.env.pa.out_mon [OUTPUT MONITOR] BRESP = 0 RRESP = 0 RDATA = 00000000
UVM_INFO axi4_lite_driver.sv(34) @ 2125: uvm_test_top.env.aa.drv [DRV] awaddr = 1fd03d84 wdata = e8cd2fba wstrb = f araddr = 0000000c
UVM_INFO axi4_lite_scoreboard.sv(68) @ 2125: uvm_test_top.env.scb [RRESP] Matched : exp_rresp=0 actual_rresp =0 write = 0 read = 1
UVM_INFO axi4_lite_scoreboard.sv(72) @ 2125: uvm_test_top.env.scb [RDATA] Matched : exp_rdata=00000000 actual_rdata =00000000
UVM_INFO axi4_lite_subscriber.sv(41) @ 2145: uvm_test_top.env.sb [sb] INPUT COVERAGE = 44.79 %
UVM_INFO axi4_lite_inp_monitor.sv(38) @ 2145: uvm_test_top.env.aa.inp_mon [INPUT MONITOR] READ araddr=00000038
UVM_INFO axi4_lite_out_monitor.sv(28) @ 2155: uvm_test_top.env.pa.out_mon [OUTPUT MONITOR] BRESP = 0 RRESP = 2 RDATA = 00000000
UVM_INFO axi4_lite_driver.sv(34) @ 2155: uvm_test_top.env.aa.drv [DRV] awaddr = 845b25fc wdata = bc0e4849 wstrb = e araddr = 00000038
UVM_INFO axi4_lite_scoreboard.sv(68) @ 2155: uvm_test_top.env.scb [RRESP] Matched : exp_rresp=2 actual_rresp =2 write = 0 read = 1
UVM_INFO axi4_lite_scoreboard.sv(72) @ 2155: uvm_test_top.env.scb [RDATA] Matched : exp_rdata=00000000 actual_rdata =00000000
UVM_INFO axi4_lite_subscriber.sv(41) @ 2175: uvm_test_top.env.sb [sb] INPUT COVERAGE = 44.79 %
UVM_INFO axi4_lite_inp_monitor.sv(38) @ 2175: uvm_test_top.env.aa.inp_mon [INPUT MONITOR] READ araddr=00000008
UVM_INFO axi4_lite_out_monitor.sv(28) @ 2185: uvm_test_top.env.pa.out_mon [OUTPUT MONITOR] BRESP = 0 RRESP = 0 RDATA = 00000000
UVM_INFO axi4_lite_driver.sv(34) @ 2185: uvm_test_top.env.aa.drv [DRV] awaddr = 9a5f2ddc wdata = 19dfbba5 wstrb = 6 araddr = 00000008
UVM_INFO axi4_lite_scoreboard.sv(68) @ 2185: uvm_test_top.env.scb [RRESP] Matched : exp_rresp=0 actual_rresp =0 write = 0 read = 1
UVM_INFO axi4_lite_scoreboard.sv(72) @ 2185: uvm_test_top.env.scb [RDATA] Matched : exp_rdata=00000000 actual_rdata =00000000
UVM_INFO axi4_lite_subscriber.sv(41) @ 2205: uvm_test_top.env.sb [sb] INPUT COVERAGE = 44.79 %
UVM_INFO axi4_lite_inp_monitor.sv(38) @ 2205: uvm_test_top.env.aa.inp_mon [INPUT MONITOR] READ araddr=00000028
UVM_INFO axi4_lite_out_monitor.sv(28) @ 2215: uvm_test_top.env.pa.out_mon [OUTPUT MONITOR] BRESP = 0 RRESP = 0 RDATA = 00000000
UVM_INFO axi4_lite_driver.sv(34) @ 2215: uvm_test_top.env.aa.drv [DRV] awaddr = 5e83b404 wdata = de84543b wstrb = a araddr = 00000028
UVM_INFO axi4_lite_scoreboard.sv(68) @ 2215: uvm_test_top.env.scb [RRESP] Matched : exp_rresp=0 actual_rresp =0 write = 0 read = 1
UVM_INFO axi4_lite_scoreboard.sv(72) @ 2215: uvm_test_top.env.scb [RDATA] Matched : exp_rdata=00000000 actual_rdata =00000000
UVM_INFO axi4_lite_subscriber.sv(41) @ 2235: uvm_test_top.env.sb [sb] INPUT COVERAGE = 44.79 %
UVM_INFO axi4_lite_inp_monitor.sv(38) @ 2235: uvm_test_top.env.aa.inp_mon [INPUT MONITOR] READ araddr=00000008
UVM_INFO axi4_lite_out_monitor.sv(28) @ 2245: uvm_test_top.env.pa.out_mon [OUTPUT MONITOR] BRESP = 0 RRESP = 0 RDATA = 00000000
UVM_INFO axi4_lite_driver.sv(34) @ 2245: uvm_test_top.env.aa.drv [DRV] awaddr = e9b4bbb4 wdata = ab665942 wstrb = 1 araddr = 00000008
UVM_INFO axi4_lite_scoreboard.sv(68) @ 2245: uvm_test_top.env.scb [RRESP] Matched : exp_rresp=0 actual_rresp =0 write = 0 read = 1
UVM_INFO axi4_lite_scoreboard.sv(72) @ 2245: uvm_test_top.env.scb [RDATA] Matched : exp_rdata=00000000 actual_rdata =00000000
UVM_INFO axi4_lite_subscriber.sv(41) @ 2265: uvm_test_top.env.sb [sb] INPUT COVERAGE = 44.79 %
UVM_INFO axi4_lite_inp_monitor.sv(38) @ 2265: uvm_test_top.env.aa.inp_mon [INPUT MONITOR] READ araddr=00000030
UVM_INFO axi4_lite_out_monitor.sv(28) @ 2275: uvm_test_top.env.pa.out_mon [OUTPUT MONITOR] BRESP = 0 RRESP = 0 RDATA = 00000000
UVM_INFO axi4_lite_driver.sv(34) @ 2275: uvm_test_top.env.aa.drv [DRV] awaddr = 354fb9ac wdata = 8b023d50 wstrb = 6 araddr = 00000030
UVM_INFO axi4_lite_scoreboard.sv(68) @ 2275: uvm_test_top.env.scb [RRESP] Matched : exp_rresp=0 actual_rresp =0 write = 0 read = 1
UVM_INFO axi4_lite_scoreboard.sv(72) @ 2275: uvm_test_top.env.scb [RDATA] Matched : exp_rdata=00000000 actual_rdata =00000000
UVM_INFO axi4_lite_subscriber.sv(41) @ 2295: uvm_test_top.env.sb [sb] INPUT COVERAGE = 44.79 %
UVM_INFO axi4_lite_inp_monitor.sv(38) @ 2295: uvm_test_top.env.aa.inp_mon [INPUT MONITOR] READ araddr=0000000c
UVM_INFO axi4_lite_out_monitor.sv(28) @ 2305: uvm_test_top.env.pa.out_mon [OUTPUT MONITOR] BRESP = 0 RRESP = 0 RDATA = 00000000
UVM_INFO axi4_lite_driver.sv(34) @ 2305: uvm_test_top.env.aa.drv [DRV] awaddr = 750498f4 wdata = 377a9544 wstrb = c araddr = 0000000c
UVM_INFO axi4_lite_scoreboard.sv(68) @ 2305: uvm_test_top.env.scb [RRESP] Matched : exp_rresp=0 actual_rresp =0 write = 0 read = 1
UVM_INFO axi4_lite_scoreboard.sv(72) @ 2305: uvm_test_top.env.scb [RDATA] Matched : exp_rdata=00000000 actual_rdata =00000000
UVM_INFO axi4_lite_subscriber.sv(41) @ 2325: uvm_test_top.env.sb [sb] INPUT COVERAGE = 44.79 %
UVM_INFO axi4_lite_inp_monitor.sv(38) @ 2325: uvm_test_top.env.aa.inp_mon [INPUT MONITOR] READ araddr=00000038
UVM_INFO axi4_lite_out_monitor.sv(28) @ 2335: uvm_test_top.env.pa.out_mon [OUTPUT MONITOR] BRESP = 0 RRESP = 2 RDATA = 00000000
UVM_INFO axi4_lite_driver.sv(34) @ 2335: uvm_test_top.env.aa.drv [DRV] awaddr = 1ac70404 wdata = 9bea8045 wstrb = c araddr = 00000038
UVM_INFO axi4_lite_scoreboard.sv(68) @ 2335: uvm_test_top.env.scb [RRESP] Matched : exp_rresp=2 actual_rresp =2 write = 0 read = 1
UVM_INFO axi4_lite_scoreboard.sv(72) @ 2335: uvm_test_top.env.scb [RDATA] Matched : exp_rdata=00000000 actual_rdata =00000000
UVM_INFO axi4_lite_subscriber.sv(41) @ 2355: uvm_test_top.env.sb [sb] INPUT COVERAGE = 44.79 %
UVM_INFO axi4_lite_inp_monitor.sv(38) @ 2355: uvm_test_top.env.aa.inp_mon [INPUT MONITOR] READ araddr=00000024
UVM_INFO axi4_lite_out_monitor.sv(28) @ 2365: uvm_test_top.env.pa.out_mon [OUTPUT MONITOR] BRESP = 0 RRESP = 0 RDATA = 00000000
UVM_INFO axi4_lite_driver.sv(34) @ 2365: uvm_test_top.env.aa.drv [DRV] awaddr = 34674860 wdata = 6fb5aae1 wstrb = 0 araddr = 00000024
UVM_INFO axi4_lite_scoreboard.sv(68) @ 2365: uvm_test_top.env.scb [RRESP] Matched : exp_rresp=0 actual_rresp =0 write = 0 read = 1
UVM_INFO axi4_lite_scoreboard.sv(72) @ 2365: uvm_test_top.env.scb [RDATA] Matched : exp_rdata=00000000 actual_rdata =00000000
UVM_INFO axi4_lite_subscriber.sv(41) @ 2385: uvm_test_top.env.sb [sb] INPUT COVERAGE = 44.79 %
UVM_INFO axi4_lite_inp_monitor.sv(38) @ 2385: uvm_test_top.env.aa.inp_mon [INPUT MONITOR] READ araddr=00000020
UVM_INFO axi4_lite_out_monitor.sv(28) @ 2395: uvm_test_top.env.pa.out_mon [OUTPUT MONITOR] BRESP = 0 RRESP = 0 RDATA = 00000000
UVM_INFO axi4_lite_driver.sv(34) @ 2395: uvm_test_top.env.aa.drv [DRV] awaddr = c6c0b614 wdata = 7e080927 wstrb = b araddr = 00000020
UVM_INFO axi4_lite_scoreboard.sv(68) @ 2395: uvm_test_top.env.scb [RRESP] Matched : exp_rresp=0 actual_rresp =0 write = 0 read = 1
UVM_INFO axi4_lite_scoreboard.sv(72) @ 2395: uvm_test_top.env.scb [RDATA] Matched : exp_rdata=00000000 actual_rdata =00000000
UVM_INFO axi4_lite_subscriber.sv(41) @ 2415: uvm_test_top.env.sb [sb] INPUT COVERAGE = 44.79 %
UVM_INFO axi4_lite_inp_monitor.sv(38) @ 2415: uvm_test_top.env.aa.inp_mon [INPUT MONITOR] READ araddr=00000024
UVM_INFO axi4_lite_out_monitor.sv(28) @ 2425: uvm_test_top.env.pa.out_mon [OUTPUT MONITOR] BRESP = 0 RRESP = 0 RDATA = 00000000
UVM_INFO axi4_lite_driver.sv(34) @ 2425: uvm_test_top.env.aa.drv [DRV] awaddr = d8a92a84 wdata = c40f257e wstrb = 1 araddr = 00000024
UVM_INFO axi4_lite_scoreboard.sv(68) @ 2425: uvm_test_top.env.scb [RRESP] Matched : exp_rresp=0 actual_rresp =0 write = 0 read = 1
UVM_INFO axi4_lite_scoreboard.sv(72) @ 2425: uvm_test_top.env.scb [RDATA] Matched : exp_rdata=00000000 actual_rdata =00000000
UVM_INFO axi4_lite_subscriber.sv(41) @ 2445: uvm_test_top.env.sb [sb] INPUT COVERAGE = 44.79 %
UVM_INFO axi4_lite_inp_monitor.sv(38) @ 2445: uvm_test_top.env.aa.inp_mon [INPUT MONITOR] READ araddr=00000020
UVM_INFO axi4_lite_out_monitor.sv(28) @ 2455: uvm_test_top.env.pa.out_mon [OUTPUT MONITOR] BRESP = 0 RRESP = 0 RDATA = 00000000
UVM_INFO axi4_lite_driver.sv(34) @ 2455: uvm_test_top.env.aa.drv [DRV] awaddr = 808bdd3c wdata = 0ccea2a4 wstrb = 6 araddr = 00000020
UVM_INFO axi4_lite_scoreboard.sv(68) @ 2455: uvm_test_top.env.scb [RRESP] Matched : exp_rresp=0 actual_rresp =0 write = 0 read = 1
UVM_INFO axi4_lite_scoreboard.sv(72) @ 2455: uvm_test_top.env.scb [RDATA] Matched : exp_rdata=00000000 actual_rdata =00000000
UVM_INFO axi4_lite_subscriber.sv(41) @ 2475: uvm_test_top.env.sb [sb] INPUT COVERAGE = 44.79 %
UVM_INFO axi4_lite_inp_monitor.sv(38) @ 2475: uvm_test_top.env.aa.inp_mon [INPUT MONITOR] READ araddr=00000028
UVM_INFO axi4_lite_out_monitor.sv(28) @ 2485: uvm_test_top.env.pa.out_mon [OUTPUT MONITOR] BRESP = 0 RRESP = 0 RDATA = 00000000
UVM_INFO axi4_lite_driver.sv(34) @ 2485: uvm_test_top.env.aa.drv [DRV] awaddr = b14dce84 wdata = 841c7b23 wstrb = 8 araddr = 00000028
UVM_INFO axi4_lite_scoreboard.sv(68) @ 2485: uvm_test_top.env.scb [RRESP] Matched : exp_rresp=0 actual_rresp =0 write = 0 read = 1
UVM_INFO axi4_lite_scoreboard.sv(72) @ 2485: uvm_test_top.env.scb [RDATA] Matched : exp_rdata=00000000 actual_rdata =00000000
UVM_INFO axi4_lite_subscriber.sv(41) @ 2505: uvm_test_top.env.sb [sb] INPUT COVERAGE = 44.79 %
UVM_INFO axi4_lite_inp_monitor.sv(38) @ 2505: uvm_test_top.env.aa.inp_mon [INPUT MONITOR] READ araddr=00000008
UVM_INFO axi4_lite_out_monitor.sv(28) @ 2515: uvm_test_top.env.pa.out_mon [OUTPUT MONITOR] BRESP = 0 RRESP = 0 RDATA = 00000000
UVM_INFO axi4_lite_driver.sv(34) @ 2515: uvm_test_top.env.aa.drv [DRV] awaddr = 18603888 wdata = 8473f89a wstrb = d araddr = 00000008
UVM_INFO axi4_lite_scoreboard.sv(68) @ 2515: uvm_test_top.env.scb [RRESP] Matched : exp_rresp=0 actual_rresp =0 write = 0 read = 1
UVM_INFO axi4_lite_scoreboard.sv(72) @ 2515: uvm_test_top.env.scb [RDATA] Matched : exp_rdata=00000000 actual_rdata =00000000
UVM_INFO axi4_lite_subscriber.sv(41) @ 2535: uvm_test_top.env.sb [sb] INPUT COVERAGE = 44.79 %
UVM_INFO axi4_lite_inp_monitor.sv(38) @ 2535: uvm_test_top.env.aa.inp_mon [INPUT MONITOR] READ araddr=00000020
UVM_INFO axi4_lite_out_monitor.sv(28) @ 2545: uvm_test_top.env.pa.out_mon [OUTPUT MONITOR] BRESP = 0 RRESP = 0 RDATA = 00000000
UVM_INFO axi4_lite_driver.sv(34) @ 2545: uvm_test_top.env.aa.drv [DRV] awaddr = 4c63487c wdata = a0bc0cb3 wstrb = f araddr = 00000020
UVM_INFO axi4_lite_scoreboard.sv(68) @ 2545: uvm_test_top.env.scb [RRESP] Matched : exp_rresp=0 actual_rresp =0 write = 0 read = 1
UVM_INFO axi4_lite_scoreboard.sv(72) @ 2545: uvm_test_top.env.scb [RDATA] Matched : exp_rdata=00000000 actual_rdata =00000000
UVM_INFO axi4_lite_subscriber.sv(41) @ 2565: uvm_test_top.env.sb [sb] INPUT COVERAGE = 44.79 %
UVM_INFO axi4_lite_inp_monitor.sv(38) @ 2565: uvm_test_top.env.aa.inp_mon [INPUT MONITOR] READ araddr=00000018
UVM_INFO axi4_lite_out_monitor.sv(28) @ 2575: uvm_test_top.env.pa.out_mon [OUTPUT MONITOR] BRESP = 0 RRESP = 0 RDATA = 00000000
UVM_INFO axi4_lite_driver.sv(34) @ 2575: uvm_test_top.env.aa.drv [DRV] awaddr = 1b72e114 wdata = 6b92b316 wstrb = 2 araddr = 00000018
UVM_INFO axi4_lite_scoreboard.sv(68) @ 2575: uvm_test_top.env.scb [RRESP] Matched : exp_rresp=0 actual_rresp =0 write = 0 read = 1
UVM_INFO axi4_lite_scoreboard.sv(72) @ 2575: uvm_test_top.env.scb [RDATA] Matched : exp_rdata=00000000 actual_rdata =00000000
UVM_INFO axi4_lite_subscriber.sv(41) @ 2595: uvm_test_top.env.sb [sb] INPUT COVERAGE = 44.79 %
UVM_INFO axi4_lite_inp_monitor.sv(38) @ 2595: uvm_test_top.env.aa.inp_mon [INPUT MONITOR] READ araddr=0000002c
UVM_INFO axi4_lite_out_monitor.sv(28) @ 2605: uvm_test_top.env.pa.out_mon [OUTPUT MONITOR] BRESP = 0 RRESP = 0 RDATA = 00000000
UVM_INFO axi4_lite_driver.sv(34) @ 2605: uvm_test_top.env.aa.drv [DRV] awaddr = 009c7714 wdata = 13d7e235 wstrb = 6 araddr = 0000002c
UVM_INFO axi4_lite_scoreboard.sv(68) @ 2605: uvm_test_top.env.scb [RRESP] Matched : exp_rresp=0 actual_rresp =0 write = 0 read = 1
UVM_INFO axi4_lite_scoreboard.sv(72) @ 2605: uvm_test_top.env.scb [RDATA] Matched : exp_rdata=00000000 actual_rdata =00000000
UVM_INFO axi4_lite_subscriber.sv(41) @ 2625: uvm_test_top.env.sb [sb] INPUT COVERAGE = 44.79 %
UVM_INFO axi4_lite_inp_monitor.sv(38) @ 2625: uvm_test_top.env.aa.inp_mon [INPUT MONITOR] READ araddr=00000018
UVM_INFO axi4_lite_out_monitor.sv(28) @ 2635: uvm_test_top.env.pa.out_mon [OUTPUT MONITOR] BRESP = 0 RRESP = 0 RDATA = 00000000
UVM_INFO axi4_lite_driver.sv(34) @ 2635: uvm_test_top.env.aa.drv [DRV] awaddr = a055be70 wdata = 4976a0cb wstrb = b araddr = 00000018
UVM_INFO axi4_lite_scoreboard.sv(68) @ 2635: uvm_test_top.env.scb [RRESP] Matched : exp_rresp=0 actual_rresp =0 write = 0 read = 1
UVM_INFO axi4_lite_scoreboard.sv(72) @ 2635: uvm_test_top.env.scb [RDATA] Matched : exp_rdata=00000000 actual_rdata =00000000
UVM_INFO axi4_lite_subscriber.sv(41) @ 2655: uvm_test_top.env.sb [sb] INPUT COVERAGE = 44.79 %
UVM_INFO axi4_lite_inp_monitor.sv(38) @ 2655: uvm_test_top.env.aa.inp_mon [INPUT MONITOR] READ araddr=00000000
UVM_INFO axi4_lite_out_monitor.sv(28) @ 2665: uvm_test_top.env.pa.out_mon [OUTPUT MONITOR] BRESP = 0 RRESP = 0 RDATA = 00000000
UVM_INFO axi4_lite_driver.sv(34) @ 2665: uvm_test_top.env.aa.drv [DRV] awaddr = 2bceeb58 wdata = 9cbe73a9 wstrb = a araddr = 00000000
UVM_INFO axi4_lite_scoreboard.sv(68) @ 2665: uvm_test_top.env.scb [RRESP] Matched : exp_rresp=0 actual_rresp =0 write = 0 read = 1
UVM_INFO axi4_lite_scoreboard.sv(72) @ 2665: uvm_test_top.env.scb [RDATA] Matched : exp_rdata=00000000 actual_rdata =00000000
UVM_INFO axi4_lite_subscriber.sv(41) @ 2685: uvm_test_top.env.sb [sb] INPUT COVERAGE = 44.79 %
UVM_INFO axi4_lite_inp_monitor.sv(38) @ 2685: uvm_test_top.env.aa.inp_mon [INPUT MONITOR] READ araddr=00000020
UVM_INFO axi4_lite_out_monitor.sv(28) @ 2695: uvm_test_top.env.pa.out_mon [OUTPUT MONITOR] BRESP = 0 RRESP = 0 RDATA = 00000000
UVM_INFO axi4_lite_driver.sv(34) @ 2695: uvm_test_top.env.aa.drv [DRV] awaddr = cdb31828 wdata = 5aaaf682 wstrb = 7 araddr = 00000020
UVM_INFO axi4_lite_scoreboard.sv(68) @ 2695: uvm_test_top.env.scb [RRESP] Matched : exp_rresp=0 actual_rresp =0 write = 0 read = 1
UVM_INFO axi4_lite_scoreboard.sv(72) @ 2695: uvm_test_top.env.scb [RDATA] Matched : exp_rdata=00000000 actual_rdata =00000000
UVM_INFO axi4_lite_subscriber.sv(41) @ 2715: uvm_test_top.env.sb [sb] INPUT COVERAGE = 44.79 %
UVM_INFO axi4_lite_inp_monitor.sv(38) @ 2715: uvm_test_top.env.aa.inp_mon [INPUT MONITOR] READ araddr=00000014
UVM_INFO axi4_lite_out_monitor.sv(28) @ 2725: uvm_test_top.env.pa.out_mon [OUTPUT MONITOR] BRESP = 0 RRESP = 0 RDATA = 00000000
UVM_INFO axi4_lite_driver.sv(34) @ 2725: uvm_test_top.env.aa.drv [DRV] awaddr = 10d5811c wdata = fdedff15 wstrb = a araddr = 00000014
UVM_INFO axi4_lite_scoreboard.sv(68) @ 2725: uvm_test_top.env.scb [RRESP] Matched : exp_rresp=0 actual_rresp =0 write = 0 read = 1
UVM_INFO axi4_lite_scoreboard.sv(72) @ 2725: uvm_test_top.env.scb [RDATA] Matched : exp_rdata=00000000 actual_rdata =00000000
UVM_INFO axi4_lite_subscriber.sv(41) @ 2745: uvm_test_top.env.sb [sb] INPUT COVERAGE = 44.79 %
UVM_INFO axi4_lite_inp_monitor.sv(38) @ 2745: uvm_test_top.env.aa.inp_mon [INPUT MONITOR] READ araddr=00000028
UVM_INFO axi4_lite_out_monitor.sv(28) @ 2755: uvm_test_top.env.pa.out_mon [OUTPUT MONITOR] BRESP = 0 RRESP = 0 RDATA = 00000000
UVM_INFO axi4_lite_driver.sv(34) @ 2755: uvm_test_top.env.aa.drv [DRV] awaddr = 215e1960 wdata = 5abc5bb7 wstrb = 8 araddr = 00000028
UVM_INFO axi4_lite_scoreboard.sv(68) @ 2755: uvm_test_top.env.scb [RRESP] Matched : exp_rresp=0 actual_rresp =0 write = 0 read = 1
UVM_INFO axi4_lite_scoreboard.sv(72) @ 2755: uvm_test_top.env.scb [RDATA] Matched : exp_rdata=00000000 actual_rdata =00000000
UVM_INFO axi4_lite_subscriber.sv(41) @ 2775: uvm_test_top.env.sb [sb] INPUT COVERAGE = 44.79 %
UVM_INFO axi4_lite_inp_monitor.sv(38) @ 2775: uvm_test_top.env.aa.inp_mon [INPUT MONITOR] READ araddr=00000018
UVM_INFO axi4_lite_out_monitor.sv(28) @ 2785: uvm_test_top.env.pa.out_mon [OUTPUT MONITOR] BRESP = 0 RRESP = 0 RDATA = 00000000
UVM_INFO axi4_lite_driver.sv(34) @ 2785: uvm_test_top.env.aa.drv [DRV] awaddr = 1579b470 wdata = 4c86a6d2 wstrb = 6 araddr = 00000018
UVM_INFO axi4_lite_scoreboard.sv(68) @ 2785: uvm_test_top.env.scb [RRESP] Matched : exp_rresp=0 actual_rresp =0 write = 0 read = 1
UVM_INFO axi4_lite_scoreboard.sv(72) @ 2785: uvm_test_top.env.scb [RDATA] Matched : exp_rdata=00000000 actual_rdata =00000000
UVM_INFO axi4_lite_subscriber.sv(41) @ 2805: uvm_test_top.env.sb [sb] INPUT COVERAGE = 44.79 %
UVM_INFO axi4_lite_inp_monitor.sv(38) @ 2805: uvm_test_top.env.aa.inp_mon [INPUT MONITOR] READ araddr=0000000c
UVM_INFO axi4_lite_out_monitor.sv(28) @ 2815: uvm_test_top.env.pa.out_mon [OUTPUT MONITOR] BRESP = 0 RRESP = 0 RDATA = 00000000
UVM_INFO axi4_lite_driver.sv(34) @ 2815: uvm_test_top.env.aa.drv [DRV] awaddr = 7ef0ac80 wdata = 9acf6503 wstrb = 2 araddr = 0000000c
UVM_INFO axi4_lite_scoreboard.sv(68) @ 2815: uvm_test_top.env.scb [RRESP] Matched : exp_rresp=0 actual_rresp =0 write = 0 read = 1
UVM_INFO axi4_lite_scoreboard.sv(72) @ 2815: uvm_test_top.env.scb [RDATA] Matched : exp_rdata=00000000 actual_rdata =00000000
UVM_INFO axi4_lite_subscriber.sv(41) @ 2835: uvm_test_top.env.sb [sb] INPUT COVERAGE = 44.79 %
UVM_INFO axi4_lite_inp_monitor.sv(38) @ 2835: uvm_test_top.env.aa.inp_mon [INPUT MONITOR] READ araddr=00000010
UVM_INFO axi4_lite_out_monitor.sv(28) @ 2845: uvm_test_top.env.pa.out_mon [OUTPUT MONITOR] BRESP = 0 RRESP = 0 RDATA = 00000000
UVM_INFO axi4_lite_driver.sv(34) @ 2845: uvm_test_top.env.aa.drv [DRV] awaddr = 445a5440 wdata = aa0840fa wstrb = 6 araddr = 00000010
UVM_INFO axi4_lite_scoreboard.sv(68) @ 2845: uvm_test_top.env.scb [RRESP] Matched : exp_rresp=0 actual_rresp =0 write = 0 read = 1
UVM_INFO axi4_lite_scoreboard.sv(72) @ 2845: uvm_test_top.env.scb [RDATA] Matched : exp_rdata=00000000 actual_rdata =00000000
UVM_INFO axi4_lite_subscriber.sv(41) @ 2865: uvm_test_top.env.sb [sb] INPUT COVERAGE = 44.79 %
UVM_INFO axi4_lite_inp_monitor.sv(38) @ 2865: uvm_test_top.env.aa.inp_mon [INPUT MONITOR] READ araddr=00000010
UVM_INFO axi4_lite_out_monitor.sv(28) @ 2875: uvm_test_top.env.pa.out_mon [OUTPUT MONITOR] BRESP = 0 RRESP = 0 RDATA = 00000000
UVM_INFO axi4_lite_driver.sv(34) @ 2875: uvm_test_top.env.aa.drv [DRV] awaddr = b6026c5c wdata = a9e882df wstrb = 3 araddr = 00000010
UVM_INFO axi4_lite_scoreboard.sv(68) @ 2875: uvm_test_top.env.scb [RRESP] Matched : exp_rresp=0 actual_rresp =0 write = 0 read = 1
UVM_INFO axi4_lite_scoreboard.sv(72) @ 2875: uvm_test_top.env.scb [RDATA] Matched : exp_rdata=00000000 actual_rdata =00000000
UVM_INFO axi4_lite_subscriber.sv(41) @ 2895: uvm_test_top.env.sb [sb] INPUT COVERAGE = 44.79 %
UVM_INFO axi4_lite_inp_monitor.sv(38) @ 2895: uvm_test_top.env.aa.inp_mon [INPUT MONITOR] READ araddr=00000004
UVM_INFO axi4_lite_out_monitor.sv(28) @ 2905: uvm_test_top.env.pa.out_mon [OUTPUT MONITOR] BRESP = 0 RRESP = 0 RDATA = 00000000
UVM_INFO axi4_lite_driver.sv(34) @ 2905: uvm_test_top.env.aa.drv [DRV] awaddr = 228442e4 wdata = a312e47f wstrb = 2 araddr = 00000004
UVM_INFO axi4_lite_scoreboard.sv(68) @ 2905: uvm_test_top.env.scb [RRESP] Matched : exp_rresp=0 actual_rresp =0 write = 0 read = 1
UVM_INFO axi4_lite_scoreboard.sv(72) @ 2905: uvm_test_top.env.scb [RDATA] Matched : exp_rdata=00000000 actual_rdata =00000000
UVM_INFO axi4_lite_subscriber.sv(41) @ 2925: uvm_test_top.env.sb [sb] INPUT COVERAGE = 44.79 %
UVM_INFO axi4_lite_inp_monitor.sv(38) @ 2925: uvm_test_top.env.aa.inp_mon [INPUT MONITOR] READ araddr=0000001c
UVM_INFO axi4_lite_out_monitor.sv(28) @ 2935: uvm_test_top.env.pa.out_mon [OUTPUT MONITOR] BRESP = 0 RRESP = 0 RDATA = 00000000
UVM_INFO axi4_lite_driver.sv(34) @ 2935: uvm_test_top.env.aa.drv [DRV] awaddr = 7fec6cf4 wdata = d9143508 wstrb = e araddr = 0000001c
UVM_INFO axi4_lite_scoreboard.sv(68) @ 2935: uvm_test_top.env.scb [RRESP] Matched : exp_rresp=0 actual_rresp =0 write = 0 read = 1
UVM_INFO axi4_lite_scoreboard.sv(72) @ 2935: uvm_test_top.env.scb [RDATA] Matched : exp_rdata=00000000 actual_rdata =00000000
UVM_INFO axi4_lite_subscriber.sv(41) @ 2955: uvm_test_top.env.sb [sb] INPUT COVERAGE = 44.79 %
UVM_INFO axi4_lite_inp_monitor.sv(38) @ 2955: uvm_test_top.env.aa.inp_mon [INPUT MONITOR] READ araddr=00000020
UVM_INFO axi4_lite_out_monitor.sv(28) @ 2965: uvm_test_top.env.pa.out_mon [OUTPUT MONITOR] BRESP = 0 RRESP = 0 RDATA = 00000000
UVM_INFO axi4_lite_driver.sv(34) @ 2965: uvm_test_top.env.aa.drv [DRV] awaddr = 94eb2b78 wdata = 3bd55e9f wstrb = 4 araddr = 00000020
UVM_INFO axi4_lite_scoreboard.sv(68) @ 2965: uvm_test_top.env.scb [RRESP] Matched : exp_rresp=0 actual_rresp =0 write = 0 read = 1
UVM_INFO axi4_lite_scoreboard.sv(72) @ 2965: uvm_test_top.env.scb [RDATA] Matched : exp_rdata=00000000 actual_rdata =00000000
UVM_INFO axi4_lite_subscriber.sv(41) @ 2985: uvm_test_top.env.sb [sb] INPUT COVERAGE = 44.79 %
UVM_INFO axi4_lite_inp_monitor.sv(38) @ 2985: uvm_test_top.env.aa.inp_mon [INPUT MONITOR] READ araddr=00000028
UVM_INFO axi4_lite_out_monitor.sv(28) @ 2995: uvm_test_top.env.pa.out_mon [OUTPUT MONITOR] BRESP = 0 RRESP = 0 RDATA = 00000000
UVM_INFO axi4_lite_driver.sv(34) @ 2995: uvm_test_top.env.aa.drv [DRV] awaddr = 4affdf10 wdata = adbec4f4 wstrb = 7 araddr = 00000028
UVM_INFO axi4_lite_scoreboard.sv(68) @ 2995: uvm_test_top.env.scb [RRESP] Matched : exp_rresp=0 actual_rresp =0 write = 0 read = 1
UVM_INFO axi4_lite_scoreboard.sv(72) @ 2995: uvm_test_top.env.scb [RDATA] Matched : exp_rdata=00000000 actual_rdata =00000000
UVM_INFO axi4_lite_test.sv(42) @ 2995: uvm_test_top [TEST] Read completed
UVM_INFO /fetools/synopsys/installed_tools/vcs/vcs/Q-2020.03-SP2-8/etc/uvm/base/uvm_objection.svh(1274) @ 2995: reporter [TEST_DONE] 'run' phase is ready to proceed to the 'extract' phase

--- UVM Report Summary ---

** Report counts by severity
UVM_INFO :  604
UVM_WARNING :    0
UVM_ERROR :    0
UVM_FATAL :    0
** Report counts by id
[DRV]   100
[INPUT MONITOR]   100
[OUTPUT MONITOR]   100
[RDATA]   100
[RNTST]     1
[RRESP]   100
[TEST]     1
[TEST_DONE]     1
[UVMTOP]     1
[sb]   100
$finish called from file "/fetools/synopsys/installed_tools/vcs/vcs/Q-2020.03-SP2-8/etc/uvm/base/uvm_root.svh", line 437.
$finish at simulation time                 2995

---------------------------------------------------------------------------
VCS Coverage Metrics: during simulation line, cond, FSM, branch, tgl was monitored
---------------------------------------------------------------------------
           V C S   S i m u l a t i o n   R e p o r t 
Time: 2995 ns
CPU Time:      0.570 seconds;       Data structure size:   0.4Mb
Thu Sep 17 21:45:40 2026
