Command: /fetools/work_area/frontend/Batch_11/ananyaganesh/system_verilog/AXI4_LITE_SLAVE/src/work/simv +UVM_TESTNAME=axi4_lite_test_write_ro +UVM_VERBOSITY=UVM_HIGH +ntb_random_seed=29874 -cm line+cond+fsm+tgl+branch+assert -cm_dir work/regression.vdb -cm_name axi4_lite_test_write_ro_29874 -l work/logs/axi4_lite_test_write_ro_29874.log +UVM_NO_RELNOTES
Chronologic VCS simulator copyright 1991-2020
Contains Synopsys proprietary information.
Compiler version Q-2020.03-SP2-8_Full64; Runtime version Q-2020.03-SP2-8_Full64;  Sep 17 21:45 2026
----------------------------------------------------------------
UVM-1.1d.Synopsys
(C) 2007-2013 Mentor Graphics Corporation
(C) 2007-2013 Cadence Design Systems, Inc.
(C) 2006-2013 Synopsys, Inc.
(C) 2011-2013 Cypress Semiconductor Corp.
----------------------------------------------------------------
UVM_INFO @ 0: reporter [RNTST] Running test axi4_lite_test_write_ro...
UVM_INFO @ 0: reporter [UVMTOP] UVM testbench topology:
---------------------------------------------------------------
Name                       Type                     Size  Value
---------------------------------------------------------------
uvm_test_top               axi4_lite_test_write_ro  -     @469 
  env                      axi4_lite_environment    -     @477 
    aa                     axi4_lite_active_agent   -     @489 
      drv                  axi4_lite_driver         -     @569 
        rsp_port           uvm_analysis_port        -     @586 
        seq_item_port      uvm_seq_item_pull_port   -     @577 
      inp_mon              axi4_lite_inp_monitor    -     @552 
        inp_mon_port       uvm_analysis_port        -     @560 
      seqr                 axi4_lite_seqr           -     @595 
        rsp_export         uvm_analysis_export      -     @603 
        seq_item_export    uvm_seq_item_pull_imp    -     @709 
        arbitration_queue  array                    0     -    
        lock_queue         array                    0     -    
        num_last_reqs      integral                 32    'd1  
        num_last_rsps      integral                 32    'd1  
    pa                     axi4_lite_passive_agent  -     @497 
      out_mon              axi4_lite_out_monitor    -     @726 
        out_mon_port       uvm_analysis_port        -     @734 
    sb                     axi4_lite_subscriber     -     @531 
      analysis_imp         uvm_analysis_imp         -     @539 
    scb                    axi4_lite_scoreboard     -     @505 
      inp_port             uvm_analysis_imp_in      -     @513 
      out_port             uvm_analysis_imp_out     -     @522 
---------------------------------------------------------------

UVM_INFO axi4_lite_subscriber.sv(41) @ 25: uvm_test_top.env.sb [sb] INPUT COVERAGE = 28.12 %
UVM_INFO axi4_lite_inp_monitor.sv(44) @ 25: uvm_test_top.env.aa.inp_mon [INPUT MONITOR]  WRITE awaddr=0000002c wdata=8df4d724 wstrb=0100 
UVM_INFO axi4_lite_out_monitor.sv(28) @ 45: uvm_test_top.env.pa.out_mon [OUTPUT MONITOR] BRESP = 2 RRESP = 0 RDATA = 00000000
UVM_INFO axi4_lite_driver.sv(34) @ 45: uvm_test_top.env.aa.drv [DRV] awaddr = 0000002c wdata = 8df4d724 wstrb = 4 araddr = 2ad9d694
UVM_INFO axi4_lite_scoreboard.sv(52) @ 45: uvm_test_top.env.scb [BRESP] Matched : exp_bresp= 2 actual_bresp=2 write = 1 read = 0
UVM_INFO axi4_lite_subscriber.sv(41) @ 85: uvm_test_top.env.sb [sb] INPUT COVERAGE = 28.12 %
UVM_INFO axi4_lite_inp_monitor.sv(44) @ 85: uvm_test_top.env.aa.inp_mon [INPUT MONITOR]  WRITE awaddr=00000028 wdata=89e89e2a wstrb=0100 
UVM_INFO axi4_lite_out_monitor.sv(28) @ 105: uvm_test_top.env.pa.out_mon [OUTPUT MONITOR] BRESP = 2 RRESP = 0 RDATA = 00000000
UVM_INFO axi4_lite_driver.sv(34) @ 105: uvm_test_top.env.aa.drv [DRV] awaddr = 00000028 wdata = 89e89e2a wstrb = 4 araddr = d25fb924
UVM_INFO axi4_lite_scoreboard.sv(52) @ 105: uvm_test_top.env.scb [BRESP] Matched : exp_bresp= 2 actual_bresp=2 write = 1 read = 0
UVM_INFO axi4_lite_subscriber.sv(41) @ 145: uvm_test_top.env.sb [sb] INPUT COVERAGE = 36.46 %
UVM_INFO axi4_lite_inp_monitor.sv(44) @ 145: uvm_test_top.env.aa.inp_mon [INPUT MONITOR]  WRITE awaddr=0000002c wdata=2634646d wstrb=0101 
UVM_INFO axi4_lite_out_monitor.sv(28) @ 165: uvm_test_top.env.pa.out_mon [OUTPUT MONITOR] BRESP = 2 RRESP = 0 RDATA = 00000000
UVM_INFO axi4_lite_driver.sv(34) @ 165: uvm_test_top.env.aa.drv [DRV] awaddr = 0000002c wdata = 2634646d wstrb = 5 araddr = a2b37dd4
UVM_INFO axi4_lite_scoreboard.sv(52) @ 165: uvm_test_top.env.scb [BRESP] Matched : exp_bresp= 2 actual_bresp=2 write = 1 read = 0
UVM_INFO axi4_lite_subscriber.sv(41) @ 195: uvm_test_top.env.sb [sb] INPUT COVERAGE = 39.58 %
UVM_INFO axi4_lite_inp_monitor.sv(44) @ 195: uvm_test_top.env.aa.inp_mon [INPUT MONITOR]  WRITE awaddr=00000030 wdata=3148b713 wstrb=1000 
UVM_INFO axi4_lite_out_monitor.sv(28) @ 215: uvm_test_top.env.pa.out_mon [OUTPUT MONITOR] BRESP = 2 RRESP = 0 RDATA = 00000000
UVM_INFO axi4_lite_driver.sv(34) @ 215: uvm_test_top.env.aa.drv [DRV] awaddr = 00000030 wdata = 3148b713 wstrb = 8 araddr = 42420df8
UVM_INFO axi4_lite_scoreboard.sv(52) @ 215: uvm_test_top.env.scb [BRESP] Matched : exp_bresp= 2 actual_bresp=2 write = 1 read = 0
UVM_INFO axi4_lite_subscriber.sv(41) @ 255: uvm_test_top.env.sb [sb] INPUT COVERAGE = 42.71 %
UVM_INFO axi4_lite_inp_monitor.sv(44) @ 255: uvm_test_top.env.aa.inp_mon [INPUT MONITOR]  WRITE awaddr=00000030 wdata=1bc809ad wstrb=0010 
UVM_INFO axi4_lite_out_monitor.sv(28) @ 275: uvm_test_top.env.pa.out_mon [OUTPUT MONITOR] BRESP = 2 RRESP = 0 RDATA = 00000000
UVM_INFO axi4_lite_driver.sv(34) @ 275: uvm_test_top.env.aa.drv [DRV] awaddr = 00000030 wdata = 1bc809ad wstrb = 2 araddr = 6866bd14
UVM_INFO axi4_lite_scoreboard.sv(52) @ 275: uvm_test_top.env.scb [BRESP] Matched : exp_bresp= 2 actual_bresp=2 write = 1 read = 0
UVM_INFO axi4_lite_subscriber.sv(41) @ 325: uvm_test_top.env.sb [sb] INPUT COVERAGE = 45.83 %
UVM_INFO axi4_lite_inp_monitor.sv(44) @ 325: uvm_test_top.env.aa.inp_mon [INPUT MONITOR]  WRITE awaddr=00000028 wdata=94d18038 wstrb=0000 
UVM_INFO axi4_lite_out_monitor.sv(28) @ 345: uvm_test_top.env.pa.out_mon [OUTPUT MONITOR] BRESP = 2 RRESP = 0 RDATA = 00000000
UVM_INFO axi4_lite_driver.sv(34) @ 345: uvm_test_top.env.aa.drv [DRV] awaddr = 00000028 wdata = 94d18038 wstrb = 0 araddr = 85ef4cec
UVM_INFO axi4_lite_scoreboard.sv(52) @ 345: uvm_test_top.env.scb [BRESP] Matched : exp_bresp= 2 actual_bresp=2 write = 1 read = 0
UVM_INFO axi4_lite_subscriber.sv(41) @ 365: uvm_test_top.env.sb [sb] INPUT COVERAGE = 45.83 %
UVM_INFO axi4_lite_inp_monitor.sv(44) @ 365: uvm_test_top.env.aa.inp_mon [INPUT MONITOR]  WRITE awaddr=00000030 wdata=6bfce222 wstrb=0100 
UVM_INFO axi4_lite_out_monitor.sv(28) @ 385: uvm_test_top.env.pa.out_mon [OUTPUT MONITOR] BRESP = 2 RRESP = 0 RDATA = 00000000
UVM_INFO axi4_lite_driver.sv(34) @ 385: uvm_test_top.env.aa.drv [DRV] awaddr = 00000030 wdata = 6bfce222 wstrb = 4 araddr = 9ad74fec
UVM_INFO axi4_lite_scoreboard.sv(52) @ 385: uvm_test_top.env.scb [BRESP] Matched : exp_bresp= 2 actual_bresp=2 write = 1 read = 0
UVM_INFO axi4_lite_subscriber.sv(41) @ 435: uvm_test_top.env.sb [sb] INPUT COVERAGE = 57.29 %
UVM_INFO axi4_lite_inp_monitor.sv(44) @ 435: uvm_test_top.env.aa.inp_mon [INPUT MONITOR]  WRITE awaddr=0000002c wdata=ede73dd2 wstrb=0001 
UVM_INFO axi4_lite_out_monitor.sv(28) @ 455: uvm_test_top.env.pa.out_mon [OUTPUT MONITOR] BRESP = 2 RRESP = 0 RDATA = 00000000
UVM_INFO axi4_lite_driver.sv(34) @ 455: uvm_test_top.env.aa.drv [DRV] awaddr = 0000002c wdata = ede73dd2 wstrb = 1 araddr = a54f62b8
UVM_INFO axi4_lite_scoreboard.sv(52) @ 455: uvm_test_top.env.scb [BRESP] Matched : exp_bresp= 2 actual_bresp=2 write = 1 read = 0
UVM_INFO axi4_lite_subscriber.sv(41) @ 505: uvm_test_top.env.sb [sb] INPUT COVERAGE = 57.29 %
UVM_INFO axi4_lite_inp_monitor.sv(44) @ 505: uvm_test_top.env.aa.inp_mon [INPUT MONITOR]  WRITE awaddr=00000028 wdata=f9f962ec wstrb=1000 
UVM_INFO axi4_lite_out_monitor.sv(28) @ 525: uvm_test_top.env.pa.out_mon [OUTPUT MONITOR] BRESP = 2 RRESP = 0 RDATA = 00000000
UVM_INFO axi4_lite_driver.sv(34) @ 525: uvm_test_top.env.aa.drv [DRV] awaddr = 00000028 wdata = f9f962ec wstrb = 8 araddr = 93b4e7b4
UVM_INFO axi4_lite_scoreboard.sv(52) @ 525: uvm_test_top.env.scb [BRESP] Matched : exp_bresp= 2 actual_bresp=2 write = 1 read = 0
UVM_INFO axi4_lite_subscriber.sv(41) @ 555: uvm_test_top.env.sb [sb] INPUT COVERAGE = 57.29 %
UVM_INFO axi4_lite_inp_monitor.sv(44) @ 555: uvm_test_top.env.aa.inp_mon [INPUT MONITOR]  WRITE awaddr=00000028 wdata=dd4392f7 wstrb=0101 
UVM_INFO axi4_lite_out_monitor.sv(28) @ 575: uvm_test_top.env.pa.out_mon [OUTPUT MONITOR] BRESP = 2 RRESP = 0 RDATA = 00000000
UVM_INFO axi4_lite_driver.sv(34) @ 575: uvm_test_top.env.aa.drv [DRV] awaddr = 00000028 wdata = dd4392f7 wstrb = 5 araddr = 334b0e68
UVM_INFO axi4_lite_scoreboard.sv(52) @ 575: uvm_test_top.env.scb [BRESP] Matched : exp_bresp= 2 actual_bresp=2 write = 1 read = 0
UVM_INFO axi4_lite_subscriber.sv(41) @ 615: uvm_test_top.env.sb [sb] INPUT COVERAGE = 57.29 %
UVM_INFO axi4_lite_inp_monitor.sv(44) @ 615: uvm_test_top.env.aa.inp_mon [INPUT MONITOR]  WRITE awaddr=00000030 wdata=b7f940ba wstrb=1001 
UVM_INFO axi4_lite_out_monitor.sv(28) @ 635: uvm_test_top.env.pa.out_mon [OUTPUT MONITOR] BRESP = 2 RRESP = 0 RDATA = 00000000
UVM_INFO axi4_lite_driver.sv(34) @ 635: uvm_test_top.env.aa.drv [DRV] awaddr = 00000030 wdata = b7f940ba wstrb = 9 araddr = dada3010
UVM_INFO axi4_lite_scoreboard.sv(52) @ 635: uvm_test_top.env.scb [BRESP] Matched : exp_bresp= 2 actual_bresp=2 write = 1 read = 0
UVM_INFO axi4_lite_subscriber.sv(41) @ 675: uvm_test_top.env.sb [sb] INPUT COVERAGE = 57.29 %
UVM_INFO axi4_lite_inp_monitor.sv(44) @ 675: uvm_test_top.env.aa.inp_mon [INPUT MONITOR]  WRITE awaddr=00000030 wdata=eed12afe wstrb=0010 
UVM_INFO axi4_lite_out_monitor.sv(28) @ 695: uvm_test_top.env.pa.out_mon [OUTPUT MONITOR] BRESP = 2 RRESP = 0 RDATA = 00000000
UVM_INFO axi4_lite_driver.sv(34) @ 695: uvm_test_top.env.aa.drv [DRV] awaddr = 00000030 wdata = eed12afe wstrb = 2 araddr = 7523d6dc
UVM_INFO axi4_lite_scoreboard.sv(52) @ 695: uvm_test_top.env.scb [BRESP] Matched : exp_bresp= 2 actual_bresp=2 write = 1 read = 0
UVM_INFO axi4_lite_subscriber.sv(41) @ 725: uvm_test_top.env.sb [sb] INPUT COVERAGE = 60.42 %
UVM_INFO axi4_lite_inp_monitor.sv(44) @ 725: uvm_test_top.env.aa.inp_mon [INPUT MONITOR]  WRITE awaddr=00000028 wdata=9957e769 wstrb=1100 
UVM_INFO axi4_lite_out_monitor.sv(28) @ 745: uvm_test_top.env.pa.out_mon [OUTPUT MONITOR] BRESP = 2 RRESP = 0 RDATA = 00000000
UVM_INFO axi4_lite_driver.sv(34) @ 745: uvm_test_top.env.aa.drv [DRV] awaddr = 00000028 wdata = 9957e769 wstrb = c araddr = caef24f4
UVM_INFO axi4_lite_scoreboard.sv(52) @ 745: uvm_test_top.env.scb [BRESP] Matched : exp_bresp= 2 actual_bresp=2 write = 1 read = 0
UVM_INFO axi4_lite_subscriber.sv(41) @ 785: uvm_test_top.env.sb [sb] INPUT COVERAGE = 60.42 %
UVM_INFO axi4_lite_inp_monitor.sv(44) @ 785: uvm_test_top.env.aa.inp_mon [INPUT MONITOR]  WRITE awaddr=00000030 wdata=2dc541ec wstrb=0110 
UVM_INFO axi4_lite_out_monitor.sv(28) @ 805: uvm_test_top.env.pa.out_mon [OUTPUT MONITOR] BRESP = 2 RRESP = 0 RDATA = 00000000
UVM_INFO axi4_lite_driver.sv(34) @ 805: uvm_test_top.env.aa.drv [DRV] awaddr = 00000030 wdata = 2dc541ec wstrb = 6 araddr = 523d0474
UVM_INFO axi4_lite_scoreboard.sv(52) @ 805: uvm_test_top.env.scb [BRESP] Matched : exp_bresp= 2 actual_bresp=2 write = 1 read = 0
UVM_INFO axi4_lite_subscriber.sv(41) @ 845: uvm_test_top.env.sb [sb] INPUT COVERAGE = 63.54 %
UVM_INFO axi4_lite_inp_monitor.sv(44) @ 845: uvm_test_top.env.aa.inp_mon [INPUT MONITOR]  WRITE awaddr=00000028 wdata=cefd9437 wstrb=1111 
UVM_INFO axi4_lite_out_monitor.sv(28) @ 865: uvm_test_top.env.pa.out_mon [OUTPUT MONITOR] BRESP = 2 RRESP = 0 RDATA = 00000000
UVM_INFO axi4_lite_driver.sv(34) @ 865: uvm_test_top.env.aa.drv [DRV] awaddr = 00000028 wdata = cefd9437 wstrb = f araddr = 6d14ee6c
UVM_INFO axi4_lite_scoreboard.sv(52) @ 865: uvm_test_top.env.scb [BRESP] Matched : exp_bresp= 2 actual_bresp=2 write = 1 read = 0
UVM_INFO axi4_lite_subscriber.sv(41) @ 905: uvm_test_top.env.sb [sb] INPUT COVERAGE = 63.54 %
UVM_INFO axi4_lite_inp_monitor.sv(44) @ 905: uvm_test_top.env.aa.inp_mon [INPUT MONITOR]  WRITE awaddr=00000030 wdata=8d93db88 wstrb=1100 
UVM_INFO axi4_lite_out_monitor.sv(28) @ 925: uvm_test_top.env.pa.out_mon [OUTPUT MONITOR] BRESP = 2 RRESP = 0 RDATA = 00000000
UVM_INFO axi4_lite_driver.sv(34) @ 925: uvm_test_top.env.aa.drv [DRV] awaddr = 00000030 wdata = 8d93db88 wstrb = c araddr = 29794be8
UVM_INFO axi4_lite_scoreboard.sv(52) @ 925: uvm_test_top.env.scb [BRESP] Matched : exp_bresp= 2 actual_bresp=2 write = 1 read = 0
UVM_INFO axi4_lite_subscriber.sv(41) @ 945: uvm_test_top.env.sb [sb] INPUT COVERAGE = 63.54 %
UVM_INFO axi4_lite_inp_monitor.sv(44) @ 945: uvm_test_top.env.aa.inp_mon [INPUT MONITOR]  WRITE awaddr=00000028 wdata=d09bf53f wstrb=1100 
UVM_INFO axi4_lite_out_monitor.sv(28) @ 965: uvm_test_top.env.pa.out_mon [OUTPUT MONITOR] BRESP = 2 RRESP = 0 RDATA = 00000000
UVM_INFO axi4_lite_driver.sv(34) @ 965: uvm_test_top.env.aa.drv [DRV] awaddr = 00000028 wdata = d09bf53f wstrb = c araddr = 30316414
UVM_INFO axi4_lite_scoreboard.sv(52) @ 965: uvm_test_top.env.scb [BRESP] Matched : exp_bresp= 2 actual_bresp=2 write = 1 read = 0
UVM_INFO axi4_lite_subscriber.sv(41) @ 985: uvm_test_top.env.sb [sb] INPUT COVERAGE = 63.54 %
UVM_INFO axi4_lite_inp_monitor.sv(44) @ 985: uvm_test_top.env.aa.inp_mon [INPUT MONITOR]  WRITE awaddr=0000002c wdata=ade1a7dc wstrb=1110 
UVM_INFO axi4_lite_out_monitor.sv(28) @ 1005: uvm_test_top.env.pa.out_mon [OUTPUT MONITOR] BRESP = 2 RRESP = 0 RDATA = 00000000
UVM_INFO axi4_lite_driver.sv(34) @ 1005: uvm_test_top.env.aa.drv [DRV] awaddr = 0000002c wdata = ade1a7dc wstrb = e araddr = 1923f384
UVM_INFO axi4_lite_scoreboard.sv(52) @ 1005: uvm_test_top.env.scb [BRESP] Matched : exp_bresp= 2 actual_bresp=2 write = 1 read = 0
UVM_INFO axi4_lite_subscriber.sv(41) @ 1045: uvm_test_top.env.sb [sb] INPUT COVERAGE = 63.54 %
UVM_INFO axi4_lite_inp_monitor.sv(44) @ 1045: uvm_test_top.env.aa.inp_mon [INPUT MONITOR]  WRITE awaddr=00000028 wdata=8c5b3f29 wstrb=0110 
UVM_INFO axi4_lite_out_monitor.sv(28) @ 1065: uvm_test_top.env.pa.out_mon [OUTPUT MONITOR] BRESP = 2 RRESP = 0 RDATA = 00000000
UVM_INFO axi4_lite_driver.sv(34) @ 1065: uvm_test_top.env.aa.drv [DRV] awaddr = 00000028 wdata = 8c5b3f29 wstrb = 6 araddr = f9bf0a10
UVM_INFO axi4_lite_scoreboard.sv(52) @ 1065: uvm_test_top.env.scb [BRESP] Matched : exp_bresp= 2 actual_bresp=2 write = 1 read = 0
UVM_INFO axi4_lite_subscriber.sv(41) @ 1115: uvm_test_top.env.sb [sb] INPUT COVERAGE = 63.54 %
UVM_INFO axi4_lite_inp_monitor.sv(44) @ 1115: uvm_test_top.env.aa.inp_mon [INPUT MONITOR]  WRITE awaddr=00000030 wdata=86192868 wstrb=0111 
UVM_INFO axi4_lite_out_monitor.sv(28) @ 1135: uvm_test_top.env.pa.out_mon [OUTPUT MONITOR] BRESP = 2 RRESP = 0 RDATA = 00000000
UVM_INFO axi4_lite_driver.sv(34) @ 1135: uvm_test_top.env.aa.drv [DRV] awaddr = 00000030 wdata = 86192868 wstrb = 7 araddr = 968b0b04
UVM_INFO axi4_lite_scoreboard.sv(52) @ 1135: uvm_test_top.env.scb [BRESP] Matched : exp_bresp= 2 actual_bresp=2 write = 1 read = 0
UVM_INFO axi4_lite_subscriber.sv(41) @ 1175: uvm_test_top.env.sb [sb] INPUT COVERAGE = 63.54 %
UVM_INFO axi4_lite_inp_monitor.sv(44) @ 1175: uvm_test_top.env.aa.inp_mon [INPUT MONITOR]  WRITE awaddr=0000002c wdata=a65b5669 wstrb=1010 
UVM_INFO axi4_lite_out_monitor.sv(28) @ 1195: uvm_test_top.env.pa.out_mon [OUTPUT MONITOR] BRESP = 2 RRESP = 0 RDATA = 00000000
UVM_INFO axi4_lite_driver.sv(34) @ 1195: uvm_test_top.env.aa.drv [DRV] awaddr = 0000002c wdata = a65b5669 wstrb = a araddr = 063c9ebc
UVM_INFO axi4_lite_scoreboard.sv(52) @ 1195: uvm_test_top.env.scb [BRESP] Matched : exp_bresp= 2 actual_bresp=2 write = 1 read = 0
UVM_INFO axi4_lite_subscriber.sv(41) @ 1235: uvm_test_top.env.sb [sb] INPUT COVERAGE = 63.54 %
UVM_INFO axi4_lite_inp_monitor.sv(44) @ 1235: uvm_test_top.env.aa.inp_mon [INPUT MONITOR]  WRITE awaddr=00000030 wdata=72bbfb72 wstrb=0000 
UVM_INFO axi4_lite_out_monitor.sv(28) @ 1255: uvm_test_top.env.pa.out_mon [OUTPUT MONITOR] BRESP = 2 RRESP = 0 RDATA = 00000000
UVM_INFO axi4_lite_driver.sv(34) @ 1255: uvm_test_top.env.aa.drv [DRV] awaddr = 00000030 wdata = 72bbfb72 wstrb = 0 araddr = 34143f18
UVM_INFO axi4_lite_scoreboard.sv(52) @ 1255: uvm_test_top.env.scb [BRESP] Matched : exp_bresp= 2 actual_bresp=2 write = 1 read = 0
UVM_INFO axi4_lite_subscriber.sv(41) @ 1285: uvm_test_top.env.sb [sb] INPUT COVERAGE = 63.54 %
UVM_INFO axi4_lite_inp_monitor.sv(44) @ 1285: uvm_test_top.env.aa.inp_mon [INPUT MONITOR]  WRITE awaddr=00000030 wdata=99a643c1 wstrb=0111 
UVM_INFO axi4_lite_out_monitor.sv(28) @ 1305: uvm_test_top.env.pa.out_mon [OUTPUT MONITOR] BRESP = 2 RRESP = 0 RDATA = 00000000
UVM_INFO axi4_lite_driver.sv(34) @ 1305: uvm_test_top.env.aa.drv [DRV] awaddr = 00000030 wdata = 99a643c1 wstrb = 7 araddr = c1278b1c
UVM_INFO axi4_lite_scoreboard.sv(52) @ 1305: uvm_test_top.env.scb [BRESP] Matched : exp_bresp= 2 actual_bresp=2 write = 1 read = 0
UVM_INFO axi4_lite_subscriber.sv(41) @ 1345: uvm_test_top.env.sb [sb] INPUT COVERAGE = 63.54 %
UVM_INFO axi4_lite_inp_monitor.sv(44) @ 1345: uvm_test_top.env.aa.inp_mon [INPUT MONITOR]  WRITE awaddr=00000028 wdata=db21b430 wstrb=0010 
UVM_INFO axi4_lite_out_monitor.sv(28) @ 1365: uvm_test_top.env.pa.out_mon [OUTPUT MONITOR] BRESP = 2 RRESP = 0 RDATA = 00000000
UVM_INFO axi4_lite_driver.sv(34) @ 1365: uvm_test_top.env.aa.drv [DRV] awaddr = 00000028 wdata = db21b430 wstrb = 2 araddr = 4b2665e0
UVM_INFO axi4_lite_scoreboard.sv(52) @ 1365: uvm_test_top.env.scb [BRESP] Matched : exp_bresp= 2 actual_bresp=2 write = 1 read = 0
UVM_INFO axi4_lite_subscriber.sv(41) @ 1395: uvm_test_top.env.sb [sb] INPUT COVERAGE = 63.54 %
UVM_INFO axi4_lite_inp_monitor.sv(44) @ 1395: uvm_test_top.env.aa.inp_mon [INPUT MONITOR]  WRITE awaddr=00000030 wdata=861c6117 wstrb=1101 
UVM_INFO axi4_lite_out_monitor.sv(28) @ 1415: uvm_test_top.env.pa.out_mon [OUTPUT MONITOR] BRESP = 2 RRESP = 0 RDATA = 00000000
UVM_INFO axi4_lite_driver.sv(34) @ 1415: uvm_test_top.env.aa.drv [DRV] awaddr = 00000030 wdata = 861c6117 wstrb = d araddr = b311dde4
UVM_INFO axi4_lite_scoreboard.sv(52) @ 1415: uvm_test_top.env.scb [BRESP] Matched : exp_bresp= 2 actual_bresp=2 write = 1 read = 0
UVM_INFO axi4_lite_subscriber.sv(41) @ 1465: uvm_test_top.env.sb [sb] INPUT COVERAGE = 63.54 %
UVM_INFO axi4_lite_inp_monitor.sv(44) @ 1465: uvm_test_top.env.aa.inp_mon [INPUT MONITOR]  WRITE awaddr=00000030 wdata=df6d3670 wstrb=0001 
UVM_INFO axi4_lite_out_monitor.sv(28) @ 1485: uvm_test_top.env.pa.out_mon [OUTPUT MONITOR] BRESP = 2 RRESP = 0 RDATA = 00000000
UVM_INFO axi4_lite_driver.sv(34) @ 1485: uvm_test_top.env.aa.drv [DRV] awaddr = 00000030 wdata = df6d3670 wstrb = 1 araddr = b341f3d0
UVM_INFO axi4_lite_scoreboard.sv(52) @ 1485: uvm_test_top.env.scb [BRESP] Matched : exp_bresp= 2 actual_bresp=2 write = 1 read = 0
UVM_INFO axi4_lite_subscriber.sv(41) @ 1505: uvm_test_top.env.sb [sb] INPUT COVERAGE = 63.54 %
UVM_INFO axi4_lite_inp_monitor.sv(44) @ 1505: uvm_test_top.env.aa.inp_mon [INPUT MONITOR]  WRITE awaddr=00000028 wdata=22ddb4a7 wstrb=1001 
UVM_INFO axi4_lite_out_monitor.sv(28) @ 1525: uvm_test_top.env.pa.out_mon [OUTPUT MONITOR] BRESP = 2 RRESP = 0 RDATA = 00000000
UVM_INFO axi4_lite_driver.sv(34) @ 1525: uvm_test_top.env.aa.drv [DRV] awaddr = 00000028 wdata = 22ddb4a7 wstrb = 9 araddr = 6c9bc198
UVM_INFO axi4_lite_scoreboard.sv(52) @ 1525: uvm_test_top.env.scb [BRESP] Matched : exp_bresp= 2 actual_bresp=2 write = 1 read = 0
UVM_INFO axi4_lite_subscriber.sv(41) @ 1565: uvm_test_top.env.sb [sb] INPUT COVERAGE = 63.54 %
UVM_INFO axi4_lite_inp_monitor.sv(44) @ 1565: uvm_test_top.env.aa.inp_mon [INPUT MONITOR]  WRITE awaddr=00000030 wdata=1cb1f74a wstrb=0001 
UVM_INFO axi4_lite_out_monitor.sv(28) @ 1585: uvm_test_top.env.pa.out_mon [OUTPUT MONITOR] BRESP = 2 RRESP = 0 RDATA = 00000000
UVM_INFO axi4_lite_driver.sv(34) @ 1585: uvm_test_top.env.aa.drv [DRV] awaddr = 00000030 wdata = 1cb1f74a wstrb = 1 araddr = 740a4e70
UVM_INFO axi4_lite_scoreboard.sv(52) @ 1585: uvm_test_top.env.scb [BRESP] Matched : exp_bresp= 2 actual_bresp=2 write = 1 read = 0
UVM_INFO axi4_lite_subscriber.sv(41) @ 1615: uvm_test_top.env.sb [sb] INPUT COVERAGE = 63.54 %
UVM_INFO axi4_lite_inp_monitor.sv(44) @ 1615: uvm_test_top.env.aa.inp_mon [INPUT MONITOR]  WRITE awaddr=00000028 wdata=8c03f468 wstrb=1100 
UVM_INFO axi4_lite_out_monitor.sv(28) @ 1635: uvm_test_top.env.pa.out_mon [OUTPUT MONITOR] BRESP = 2 RRESP = 0 RDATA = 00000000
UVM_INFO axi4_lite_driver.sv(34) @ 1635: uvm_test_top.env.aa.drv [DRV] awaddr = 00000028 wdata = 8c03f468 wstrb = c araddr = a7932b04
UVM_INFO axi4_lite_scoreboard.sv(52) @ 1635: uvm_test_top.env.scb [BRESP] Matched : exp_bresp= 2 actual_bresp=2 write = 1 read = 0
UVM_INFO axi4_lite_subscriber.sv(41) @ 1685: uvm_test_top.env.sb [sb] INPUT COVERAGE = 63.54 %
UVM_INFO axi4_lite_inp_monitor.sv(44) @ 1685: uvm_test_top.env.aa.inp_mon [INPUT MONITOR]  WRITE awaddr=00000028 wdata=44da8908 wstrb=1111 
UVM_INFO axi4_lite_out_monitor.sv(28) @ 1705: uvm_test_top.env.pa.out_mon [OUTPUT MONITOR] BRESP = 2 RRESP = 0 RDATA = 00000000
UVM_INFO axi4_lite_driver.sv(34) @ 1705: uvm_test_top.env.aa.drv [DRV] awaddr = 00000028 wdata = 44da8908 wstrb = f araddr = 8347fdcc
UVM_INFO axi4_lite_scoreboard.sv(52) @ 1705: uvm_test_top.env.scb [BRESP] Matched : exp_bresp= 2 actual_bresp=2 write = 1 read = 0
UVM_INFO axi4_lite_subscriber.sv(41) @ 1745: uvm_test_top.env.sb [sb] INPUT COVERAGE = 63.54 %
UVM_INFO axi4_lite_inp_monitor.sv(44) @ 1745: uvm_test_top.env.aa.inp_mon [INPUT MONITOR]  WRITE awaddr=00000030 wdata=fe2fa2c6 wstrb=0010 
UVM_INFO axi4_lite_out_monitor.sv(28) @ 1765: uvm_test_top.env.pa.out_mon [OUTPUT MONITOR] BRESP = 2 RRESP = 0 RDATA = 00000000
UVM_INFO axi4_lite_driver.sv(34) @ 1765: uvm_test_top.env.aa.drv [DRV] awaddr = 00000030 wdata = fe2fa2c6 wstrb = 2 araddr = cecda474
UVM_INFO axi4_lite_scoreboard.sv(52) @ 1765: uvm_test_top.env.scb [BRESP] Matched : exp_bresp= 2 actual_bresp=2 write = 1 read = 0
UVM_INFO axi4_lite_subscriber.sv(41) @ 1805: uvm_test_top.env.sb [sb] INPUT COVERAGE = 63.54 %
UVM_INFO axi4_lite_inp_monitor.sv(44) @ 1805: uvm_test_top.env.aa.inp_mon [INPUT MONITOR]  WRITE awaddr=0000002c wdata=77b326c4 wstrb=1000 
UVM_INFO axi4_lite_out_monitor.sv(28) @ 1825: uvm_test_top.env.pa.out_mon [OUTPUT MONITOR] BRESP = 2 RRESP = 0 RDATA = 00000000
UVM_INFO axi4_lite_driver.sv(34) @ 1825: uvm_test_top.env.aa.drv [DRV] awaddr = 0000002c wdata = 77b326c4 wstrb = 8 araddr = 0ec23db8
UVM_INFO axi4_lite_scoreboard.sv(52) @ 1825: uvm_test_top.env.scb [BRESP] Matched : exp_bresp= 2 actual_bresp=2 write = 1 read = 0
UVM_INFO axi4_lite_subscriber.sv(41) @ 1845: uvm_test_top.env.sb [sb] INPUT COVERAGE = 63.54 %
UVM_INFO axi4_lite_inp_monitor.sv(44) @ 1845: uvm_test_top.env.aa.inp_mon [INPUT MONITOR]  WRITE awaddr=00000030 wdata=e618892b wstrb=0100 
UVM_INFO axi4_lite_out_monitor.sv(28) @ 1865: uvm_test_top.env.pa.out_mon [OUTPUT MONITOR] BRESP = 2 RRESP = 0 RDATA = 00000000
UVM_INFO axi4_lite_driver.sv(34) @ 1865: uvm_test_top.env.aa.drv [DRV] awaddr = 00000030 wdata = e618892b wstrb = 4 araddr = 59e14528
UVM_INFO axi4_lite_scoreboard.sv(52) @ 1865: uvm_test_top.env.scb [BRESP] Matched : exp_bresp= 2 actual_bresp=2 write = 1 read = 0
UVM_INFO axi4_lite_subscriber.sv(41) @ 1895: uvm_test_top.env.sb [sb] INPUT COVERAGE = 66.67 %
UVM_INFO axi4_lite_inp_monitor.sv(44) @ 1895: uvm_test_top.env.aa.inp_mon [INPUT MONITOR]  WRITE awaddr=00000030 wdata=69ad30c3 wstrb=0011 
UVM_INFO axi4_lite_out_monitor.sv(28) @ 1915: uvm_test_top.env.pa.out_mon [OUTPUT MONITOR] BRESP = 2 RRESP = 0 RDATA = 00000000
UVM_INFO axi4_lite_driver.sv(34) @ 1915: uvm_test_top.env.aa.drv [DRV] awaddr = 00000030 wdata = 69ad30c3 wstrb = 3 araddr = a6ec7854
UVM_INFO axi4_lite_scoreboard.sv(52) @ 1915: uvm_test_top.env.scb [BRESP] Matched : exp_bresp= 2 actual_bresp=2 write = 1 read = 0
UVM_INFO axi4_lite_subscriber.sv(41) @ 1955: uvm_test_top.env.sb [sb] INPUT COVERAGE = 66.67 %
UVM_INFO axi4_lite_inp_monitor.sv(44) @ 1955: uvm_test_top.env.aa.inp_mon [INPUT MONITOR]  WRITE awaddr=00000030 wdata=63638017 wstrb=0011 
UVM_INFO axi4_lite_out_monitor.sv(28) @ 1975: uvm_test_top.env.pa.out_mon [OUTPUT MONITOR] BRESP = 2 RRESP = 0 RDATA = 00000000
UVM_INFO axi4_lite_driver.sv(34) @ 1975: uvm_test_top.env.aa.drv [DRV] awaddr = 00000030 wdata = 63638017 wstrb = 3 araddr = 08e32d04
UVM_INFO axi4_lite_scoreboard.sv(52) @ 1975: uvm_test_top.env.scb [BRESP] Matched : exp_bresp= 2 actual_bresp=2 write = 1 read = 0
UVM_INFO axi4_lite_subscriber.sv(41) @ 2025: uvm_test_top.env.sb [sb] INPUT COVERAGE = 66.67 %
UVM_INFO axi4_lite_inp_monitor.sv(44) @ 2025: uvm_test_top.env.aa.inp_mon [INPUT MONITOR]  WRITE awaddr=0000002c wdata=7aa93865 wstrb=1101 
UVM_INFO axi4_lite_out_monitor.sv(28) @ 2045: uvm_test_top.env.pa.out_mon [OUTPUT MONITOR] BRESP = 2 RRESP = 0 RDATA = 00000000
UVM_INFO axi4_lite_driver.sv(34) @ 2045: uvm_test_top.env.aa.drv [DRV] awaddr = 0000002c wdata = 7aa93865 wstrb = d araddr = 0e17e344
UVM_INFO axi4_lite_scoreboard.sv(52) @ 2045: uvm_test_top.env.scb [BRESP] Matched : exp_bresp= 2 actual_bresp=2 write = 1 read = 0
UVM_INFO axi4_lite_subscriber.sv(41) @ 2085: uvm_test_top.env.sb [sb] INPUT COVERAGE = 66.67 %
UVM_INFO axi4_lite_inp_monitor.sv(44) @ 2085: uvm_test_top.env.aa.inp_mon [INPUT MONITOR]  WRITE awaddr=0000002c wdata=23941d36 wstrb=0001 
UVM_INFO axi4_lite_out_monitor.sv(28) @ 2105: uvm_test_top.env.pa.out_mon [OUTPUT MONITOR] BRESP = 2 RRESP = 0 RDATA = 00000000
UVM_INFO axi4_lite_driver.sv(34) @ 2105: uvm_test_top.env.aa.drv [DRV] awaddr = 0000002c wdata = 23941d36 wstrb = 1 araddr = 620751b0
UVM_INFO axi4_lite_scoreboard.sv(52) @ 2105: uvm_test_top.env.scb [BRESP] Matched : exp_bresp= 2 actual_bresp=2 write = 1 read = 0
UVM_INFO axi4_lite_subscriber.sv(41) @ 2145: uvm_test_top.env.sb [sb] INPUT COVERAGE = 66.67 %
UVM_INFO axi4_lite_inp_monitor.sv(44) @ 2145: uvm_test_top.env.aa.inp_mon [INPUT MONITOR]  WRITE awaddr=00000028 wdata=5f610dd1 wstrb=0000 
UVM_INFO axi4_lite_out_monitor.sv(28) @ 2165: uvm_test_top.env.pa.out_mon [OUTPUT MONITOR] BRESP = 2 RRESP = 0 RDATA = 00000000
UVM_INFO axi4_lite_driver.sv(34) @ 2165: uvm_test_top.env.aa.drv [DRV] awaddr = 00000028 wdata = 5f610dd1 wstrb = 0 araddr = b3f1dc54
UVM_INFO axi4_lite_scoreboard.sv(52) @ 2165: uvm_test_top.env.scb [BRESP] Matched : exp_bresp= 2 actual_bresp=2 write = 1 read = 0
UVM_INFO axi4_lite_subscriber.sv(41) @ 2205: uvm_test_top.env.sb [sb] INPUT COVERAGE = 66.67 %
UVM_INFO axi4_lite_inp_monitor.sv(44) @ 2205: uvm_test_top.env.aa.inp_mon [INPUT MONITOR]  WRITE awaddr=00000028 wdata=d3f11064 wstrb=0101 
UVM_INFO axi4_lite_out_monitor.sv(28) @ 2225: uvm_test_top.env.pa.out_mon [OUTPUT MONITOR] BRESP = 2 RRESP = 0 RDATA = 00000000
UVM_INFO axi4_lite_driver.sv(34) @ 2225: uvm_test_top.env.aa.drv [DRV] awaddr = 00000028 wdata = d3f11064 wstrb = 5 araddr = f3794468
UVM_INFO axi4_lite_scoreboard.sv(52) @ 2225: uvm_test_top.env.scb [BRESP] Matched : exp_bresp= 2 actual_bresp=2 write = 1 read = 0
UVM_INFO axi4_lite_subscriber.sv(41) @ 2265: uvm_test_top.env.sb [sb] INPUT COVERAGE = 66.67 %
UVM_INFO axi4_lite_inp_monitor.sv(44) @ 2265: uvm_test_top.env.aa.inp_mon [INPUT MONITOR]  WRITE awaddr=00000030 wdata=c89c654a wstrb=0011 
UVM_INFO axi4_lite_out_monitor.sv(28) @ 2285: uvm_test_top.env.pa.out_mon [OUTPUT MONITOR] BRESP = 2 RRESP = 0 RDATA = 00000000
UVM_INFO axi4_lite_driver.sv(34) @ 2285: uvm_test_top.env.aa.drv [DRV] awaddr = 00000030 wdata = c89c654a wstrb = 3 araddr = 2a9ee408
UVM_INFO axi4_lite_scoreboard.sv(52) @ 2285: uvm_test_top.env.scb [BRESP] Matched : exp_bresp= 2 actual_bresp=2 write = 1 read = 0
UVM_INFO axi4_lite_subscriber.sv(41) @ 2325: uvm_test_top.env.sb [sb] INPUT COVERAGE = 66.67 %
UVM_INFO axi4_lite_inp_monitor.sv(44) @ 2325: uvm_test_top.env.aa.inp_mon [INPUT MONITOR]  WRITE awaddr=00000028 wdata=430c61e8 wstrb=1100 
UVM_INFO axi4_lite_out_monitor.sv(28) @ 2345: uvm_test_top.env.pa.out_mon [OUTPUT MONITOR] BRESP = 2 RRESP = 0 RDATA = 00000000
UVM_INFO axi4_lite_driver.sv(34) @ 2345: uvm_test_top.env.aa.drv [DRV] awaddr = 00000028 wdata = 430c61e8 wstrb = c araddr = 6db946cc
UVM_INFO axi4_lite_scoreboard.sv(52) @ 2345: uvm_test_top.env.scb [BRESP] Matched : exp_bresp= 2 actual_bresp=2 write = 1 read = 0
UVM_INFO axi4_lite_subscriber.sv(41) @ 2395: uvm_test_top.env.sb [sb] INPUT COVERAGE = 66.67 %
UVM_INFO axi4_lite_inp_monitor.sv(44) @ 2395: uvm_test_top.env.aa.inp_mon [INPUT MONITOR]  WRITE awaddr=00000028 wdata=064bc2ad wstrb=1101 
UVM_INFO axi4_lite_out_monitor.sv(28) @ 2415: uvm_test_top.env.pa.out_mon [OUTPUT MONITOR] BRESP = 2 RRESP = 0 RDATA = 00000000
UVM_INFO axi4_lite_driver.sv(34) @ 2415: uvm_test_top.env.aa.drv [DRV] awaddr = 00000028 wdata = 064bc2ad wstrb = d araddr = e2279e30
UVM_INFO axi4_lite_scoreboard.sv(52) @ 2415: uvm_test_top.env.scb [BRESP] Matched : exp_bresp= 2 actual_bresp=2 write = 1 read = 0
UVM_INFO axi4_lite_subscriber.sv(41) @ 2455: uvm_test_top.env.sb [sb] INPUT COVERAGE = 66.67 %
UVM_INFO axi4_lite_inp_monitor.sv(44) @ 2455: uvm_test_top.env.aa.inp_mon [INPUT MONITOR]  WRITE awaddr=0000002c wdata=268b4f1b wstrb=0100 
UVM_INFO axi4_lite_out_monitor.sv(28) @ 2475: uvm_test_top.env.pa.out_mon [OUTPUT MONITOR] BRESP = 2 RRESP = 0 RDATA = 00000000
UVM_INFO axi4_lite_driver.sv(34) @ 2475: uvm_test_top.env.aa.drv [DRV] awaddr = 0000002c wdata = 268b4f1b wstrb = 4 araddr = 2a085e80
UVM_INFO axi4_lite_scoreboard.sv(52) @ 2475: uvm_test_top.env.scb [BRESP] Matched : exp_bresp= 2 actual_bresp=2 write = 1 read = 0
UVM_INFO axi4_lite_subscriber.sv(41) @ 2525: uvm_test_top.env.sb [sb] INPUT COVERAGE = 66.67 %
UVM_INFO axi4_lite_inp_monitor.sv(44) @ 2525: uvm_test_top.env.aa.inp_mon [INPUT MONITOR]  WRITE awaddr=00000030 wdata=ad88e398 wstrb=0011 
UVM_INFO axi4_lite_out_monitor.sv(28) @ 2545: uvm_test_top.env.pa.out_mon [OUTPUT MONITOR] BRESP = 2 RRESP = 0 RDATA = 00000000
UVM_INFO axi4_lite_driver.sv(34) @ 2545: uvm_test_top.env.aa.drv [DRV] awaddr = 00000030 wdata = ad88e398 wstrb = 3 araddr = caa423f8
UVM_INFO axi4_lite_scoreboard.sv(52) @ 2545: uvm_test_top.env.scb [BRESP] Matched : exp_bresp= 2 actual_bresp=2 write = 1 read = 0
UVM_INFO axi4_lite_subscriber.sv(41) @ 2595: uvm_test_top.env.sb [sb] INPUT COVERAGE = 66.67 %
UVM_INFO axi4_lite_inp_monitor.sv(44) @ 2595: uvm_test_top.env.aa.inp_mon [INPUT MONITOR]  WRITE awaddr=00000030 wdata=ac88e7e5 wstrb=1011 
UVM_INFO axi4_lite_out_monitor.sv(28) @ 2615: uvm_test_top.env.pa.out_mon [OUTPUT MONITOR] BRESP = 2 RRESP = 0 RDATA = 00000000
UVM_INFO axi4_lite_driver.sv(34) @ 2615: uvm_test_top.env.aa.drv [DRV] awaddr = 00000030 wdata = ac88e7e5 wstrb = b araddr = 822806b4
UVM_INFO axi4_lite_scoreboard.sv(52) @ 2615: uvm_test_top.env.scb [BRESP] Matched : exp_bresp= 2 actual_bresp=2 write = 1 read = 0
UVM_INFO axi4_lite_subscriber.sv(41) @ 2665: uvm_test_top.env.sb [sb] INPUT COVERAGE = 66.67 %
UVM_INFO axi4_lite_inp_monitor.sv(44) @ 2665: uvm_test_top.env.aa.inp_mon [INPUT MONITOR]  WRITE awaddr=00000030 wdata=1072adeb wstrb=0100 
UVM_INFO axi4_lite_out_monitor.sv(28) @ 2685: uvm_test_top.env.pa.out_mon [OUTPUT MONITOR] BRESP = 2 RRESP = 0 RDATA = 00000000
UVM_INFO axi4_lite_driver.sv(34) @ 2685: uvm_test_top.env.aa.drv [DRV] awaddr = 00000030 wdata = 1072adeb wstrb = 4 araddr = 48aa5548
UVM_INFO axi4_lite_scoreboard.sv(52) @ 2685: uvm_test_top.env.scb [BRESP] Matched : exp_bresp= 2 actual_bresp=2 write = 1 read = 0
UVM_INFO axi4_lite_subscriber.sv(41) @ 2735: uvm_test_top.env.sb [sb] INPUT COVERAGE = 66.67 %
UVM_INFO axi4_lite_inp_monitor.sv(44) @ 2735: uvm_test_top.env.aa.inp_mon [INPUT MONITOR]  WRITE awaddr=00000030 wdata=2ba23bf3 wstrb=0110 
UVM_INFO axi4_lite_out_monitor.sv(28) @ 2755: uvm_test_top.env.pa.out_mon [OUTPUT MONITOR] BRESP = 2 RRESP = 0 RDATA = 00000000
UVM_INFO axi4_lite_driver.sv(34) @ 2755: uvm_test_top.env.aa.drv [DRV] awaddr = 00000030 wdata = 2ba23bf3 wstrb = 6 araddr = 779e5f14
UVM_INFO axi4_lite_scoreboard.sv(52) @ 2755: uvm_test_top.env.scb [BRESP] Matched : exp_bresp= 2 actual_bresp=2 write = 1 read = 0
UVM_INFO axi4_lite_subscriber.sv(41) @ 2775: uvm_test_top.env.sb [sb] INPUT COVERAGE = 66.67 %
UVM_INFO axi4_lite_inp_monitor.sv(44) @ 2775: uvm_test_top.env.aa.inp_mon [INPUT MONITOR]  WRITE awaddr=00000028 wdata=48980535 wstrb=1001 
UVM_INFO axi4_lite_out_monitor.sv(28) @ 2795: uvm_test_top.env.pa.out_mon [OUTPUT MONITOR] BRESP = 2 RRESP = 0 RDATA = 00000000
UVM_INFO axi4_lite_driver.sv(34) @ 2795: uvm_test_top.env.aa.drv [DRV] awaddr = 00000028 wdata = 48980535 wstrb = 9 araddr = c9391560
UVM_INFO axi4_lite_scoreboard.sv(52) @ 2795: uvm_test_top.env.scb [BRESP] Matched : exp_bresp= 2 actual_bresp=2 write = 1 read = 0
UVM_INFO axi4_lite_subscriber.sv(41) @ 2845: uvm_test_top.env.sb [sb] INPUT COVERAGE = 66.67 %
UVM_INFO axi4_lite_inp_monitor.sv(44) @ 2845: uvm_test_top.env.aa.inp_mon [INPUT MONITOR]  WRITE awaddr=00000030 wdata=7ffc93fc wstrb=1010 
UVM_INFO axi4_lite_out_monitor.sv(28) @ 2865: uvm_test_top.env.pa.out_mon [OUTPUT MONITOR] BRESP = 2 RRESP = 0 RDATA = 00000000
UVM_INFO axi4_lite_driver.sv(34) @ 2865: uvm_test_top.env.aa.drv [DRV] awaddr = 00000030 wdata = 7ffc93fc wstrb = a araddr = 19effa08
UVM_INFO axi4_lite_scoreboard.sv(52) @ 2865: uvm_test_top.env.scb [BRESP] Matched : exp_bresp= 2 actual_bresp=2 write = 1 read = 0
UVM_INFO axi4_lite_subscriber.sv(41) @ 2885: uvm_test_top.env.sb [sb] INPUT COVERAGE = 66.67 %
UVM_INFO axi4_lite_inp_monitor.sv(44) @ 2885: uvm_test_top.env.aa.inp_mon [INPUT MONITOR]  WRITE awaddr=00000030 wdata=c698faaa wstrb=0011 
UVM_INFO axi4_lite_out_monitor.sv(28) @ 2905: uvm_test_top.env.pa.out_mon [OUTPUT MONITOR] BRESP = 2 RRESP = 0 RDATA = 00000000
UVM_INFO axi4_lite_driver.sv(34) @ 2905: uvm_test_top.env.aa.drv [DRV] awaddr = 00000030 wdata = c698faaa wstrb = 3 araddr = b21c885c
UVM_INFO axi4_lite_scoreboard.sv(52) @ 2905: uvm_test_top.env.scb [BRESP] Matched : exp_bresp= 2 actual_bresp=2 write = 1 read = 0
UVM_INFO axi4_lite_subscriber.sv(41) @ 2945: uvm_test_top.env.sb [sb] INPUT COVERAGE = 66.67 %
UVM_INFO axi4_lite_inp_monitor.sv(44) @ 2945: uvm_test_top.env.aa.inp_mon [INPUT MONITOR]  WRITE awaddr=00000028 wdata=fc5ae373 wstrb=1001 
UVM_INFO axi4_lite_out_monitor.sv(28) @ 2965: uvm_test_top.env.pa.out_mon [OUTPUT MONITOR] BRESP = 2 RRESP = 0 RDATA = 00000000
UVM_INFO axi4_lite_driver.sv(34) @ 2965: uvm_test_top.env.aa.drv [DRV] awaddr = 00000028 wdata = fc5ae373 wstrb = 9 araddr = 9cc61e1c
UVM_INFO axi4_lite_scoreboard.sv(52) @ 2965: uvm_test_top.env.scb [BRESP] Matched : exp_bresp= 2 actual_bresp=2 write = 1 read = 0
UVM_INFO axi4_lite_subscriber.sv(41) @ 3015: uvm_test_top.env.sb [sb] INPUT COVERAGE = 66.67 %
UVM_INFO axi4_lite_inp_monitor.sv(44) @ 3015: uvm_test_top.env.aa.inp_mon [INPUT MONITOR]  WRITE awaddr=00000030 wdata=4eb0c955 wstrb=1110 
UVM_INFO axi4_lite_out_monitor.sv(28) @ 3035: uvm_test_top.env.pa.out_mon [OUTPUT MONITOR] BRESP = 2 RRESP = 0 RDATA = 00000000
UVM_INFO axi4_lite_driver.sv(34) @ 3035: uvm_test_top.env.aa.drv [DRV] awaddr = 00000030 wdata = 4eb0c955 wstrb = e araddr = 5b6dd328
UVM_INFO axi4_lite_scoreboard.sv(52) @ 3035: uvm_test_top.env.scb [BRESP] Matched : exp_bresp= 2 actual_bresp=2 write = 1 read = 0
UVM_INFO axi4_lite_subscriber.sv(41) @ 3055: uvm_test_top.env.sb [sb] INPUT COVERAGE = 66.67 %
UVM_INFO axi4_lite_inp_monitor.sv(44) @ 3055: uvm_test_top.env.aa.inp_mon [INPUT MONITOR]  WRITE awaddr=00000030 wdata=95756647 wstrb=0010 
UVM_INFO axi4_lite_out_monitor.sv(28) @ 3075: uvm_test_top.env.pa.out_mon [OUTPUT MONITOR] BRESP = 2 RRESP = 0 RDATA = 00000000
UVM_INFO axi4_lite_driver.sv(34) @ 3075: uvm_test_top.env.aa.drv [DRV] awaddr = 00000030 wdata = 95756647 wstrb = 2 araddr = db8f7304
UVM_INFO axi4_lite_scoreboard.sv(52) @ 3075: uvm_test_top.env.scb [BRESP] Matched : exp_bresp= 2 actual_bresp=2 write = 1 read = 0
UVM_INFO axi4_lite_subscriber.sv(41) @ 3125: uvm_test_top.env.sb [sb] INPUT COVERAGE = 66.67 %
UVM_INFO axi4_lite_inp_monitor.sv(44) @ 3125: uvm_test_top.env.aa.inp_mon [INPUT MONITOR]  WRITE awaddr=0000002c wdata=08cf87a9 wstrb=0011 
UVM_INFO axi4_lite_out_monitor.sv(28) @ 3145: uvm_test_top.env.pa.out_mon [OUTPUT MONITOR] BRESP = 2 RRESP = 0 RDATA = 00000000
UVM_INFO axi4_lite_driver.sv(34) @ 3145: uvm_test_top.env.aa.drv [DRV] awaddr = 0000002c wdata = 08cf87a9 wstrb = 3 araddr = f4bc8450
UVM_INFO axi4_lite_scoreboard.sv(52) @ 3145: uvm_test_top.env.scb [BRESP] Matched : exp_bresp= 2 actual_bresp=2 write = 1 read = 0
UVM_INFO axi4_lite_subscriber.sv(41) @ 3185: uvm_test_top.env.sb [sb] INPUT COVERAGE = 66.67 %
UVM_INFO axi4_lite_inp_monitor.sv(44) @ 3185: uvm_test_top.env.aa.inp_mon [INPUT MONITOR]  WRITE awaddr=00000028 wdata=92f2404f wstrb=1100 
UVM_INFO axi4_lite_out_monitor.sv(28) @ 3205: uvm_test_top.env.pa.out_mon [OUTPUT MONITOR] BRESP = 2 RRESP = 0 RDATA = 00000000
UVM_INFO axi4_lite_driver.sv(34) @ 3205: uvm_test_top.env.aa.drv [DRV] awaddr = 00000028 wdata = 92f2404f wstrb = c araddr = 6f56fce8
UVM_INFO axi4_lite_scoreboard.sv(52) @ 3205: uvm_test_top.env.scb [BRESP] Matched : exp_bresp= 2 actual_bresp=2 write = 1 read = 0
UVM_INFO axi4_lite_subscriber.sv(41) @ 3235: uvm_test_top.env.sb [sb] INPUT COVERAGE = 66.67 %
UVM_INFO axi4_lite_inp_monitor.sv(44) @ 3235: uvm_test_top.env.aa.inp_mon [INPUT MONITOR]  WRITE awaddr=0000002c wdata=0e7471f3 wstrb=1000 
UVM_INFO axi4_lite_out_monitor.sv(28) @ 3255: uvm_test_top.env.pa.out_mon [OUTPUT MONITOR] BRESP = 2 RRESP = 0 RDATA = 00000000
UVM_INFO axi4_lite_driver.sv(34) @ 3255: uvm_test_top.env.aa.drv [DRV] awaddr = 0000002c wdata = 0e7471f3 wstrb = 8 araddr = 227f8a10
UVM_INFO axi4_lite_scoreboard.sv(52) @ 3255: uvm_test_top.env.scb [BRESP] Matched : exp_bresp= 2 actual_bresp=2 write = 1 read = 0
UVM_INFO axi4_lite_subscriber.sv(41) @ 3285: uvm_test_top.env.sb [sb] INPUT COVERAGE = 66.67 %
UVM_INFO axi4_lite_inp_monitor.sv(44) @ 3285: uvm_test_top.env.aa.inp_mon [INPUT MONITOR]  WRITE awaddr=00000030 wdata=1861336b wstrb=1111 
UVM_INFO axi4_lite_out_monitor.sv(28) @ 3305: uvm_test_top.env.pa.out_mon [OUTPUT MONITOR] BRESP = 2 RRESP = 0 RDATA = 00000000
UVM_INFO axi4_lite_driver.sv(34) @ 3305: uvm_test_top.env.aa.drv [DRV] awaddr = 00000030 wdata = 1861336b wstrb = f araddr = 31c52de4
UVM_INFO axi4_lite_scoreboard.sv(52) @ 3305: uvm_test_top.env.scb [BRESP] Matched : exp_bresp= 2 actual_bresp=2 write = 1 read = 0
UVM_INFO axi4_lite_subscriber.sv(41) @ 3335: uvm_test_top.env.sb [sb] INPUT COVERAGE = 66.67 %
UVM_INFO axi4_lite_inp_monitor.sv(44) @ 3335: uvm_test_top.env.aa.inp_mon [INPUT MONITOR]  WRITE awaddr=00000030 wdata=d93b87e3 wstrb=1111 
UVM_INFO axi4_lite_out_monitor.sv(28) @ 3355: uvm_test_top.env.pa.out_mon [OUTPUT MONITOR] BRESP = 2 RRESP = 0 RDATA = 00000000
UVM_INFO axi4_lite_driver.sv(34) @ 3355: uvm_test_top.env.aa.drv [DRV] awaddr = 00000030 wdata = d93b87e3 wstrb = f araddr = d3302e7c
UVM_INFO axi4_lite_scoreboard.sv(52) @ 3355: uvm_test_top.env.scb [BRESP] Matched : exp_bresp= 2 actual_bresp=2 write = 1 read = 0
UVM_INFO axi4_lite_subscriber.sv(41) @ 3385: uvm_test_top.env.sb [sb] INPUT COVERAGE = 66.67 %
UVM_INFO axi4_lite_inp_monitor.sv(44) @ 3385: uvm_test_top.env.aa.inp_mon [INPUT MONITOR]  WRITE awaddr=0000002c wdata=8767ecee wstrb=1111 
UVM_INFO axi4_lite_out_monitor.sv(28) @ 3405: uvm_test_top.env.pa.out_mon [OUTPUT MONITOR] BRESP = 2 RRESP = 0 RDATA = 00000000
UVM_INFO axi4_lite_driver.sv(34) @ 3405: uvm_test_top.env.aa.drv [DRV] awaddr = 0000002c wdata = 8767ecee wstrb = f araddr = fff0cc40
UVM_INFO axi4_lite_scoreboard.sv(52) @ 3405: uvm_test_top.env.scb [BRESP] Matched : exp_bresp= 2 actual_bresp=2 write = 1 read = 0
UVM_INFO axi4_lite_subscriber.sv(41) @ 3425: uvm_test_top.env.sb [sb] INPUT COVERAGE = 66.67 %
UVM_INFO axi4_lite_inp_monitor.sv(44) @ 3425: uvm_test_top.env.aa.inp_mon [INPUT MONITOR]  WRITE awaddr=00000030 wdata=e8e614b2 wstrb=0110 
UVM_INFO axi4_lite_out_monitor.sv(28) @ 3445: uvm_test_top.env.pa.out_mon [OUTPUT MONITOR] BRESP = 2 RRESP = 0 RDATA = 00000000
UVM_INFO axi4_lite_driver.sv(34) @ 3445: uvm_test_top.env.aa.drv [DRV] awaddr = 00000030 wdata = e8e614b2 wstrb = 6 araddr = 28f28908
UVM_INFO axi4_lite_scoreboard.sv(52) @ 3445: uvm_test_top.env.scb [BRESP] Matched : exp_bresp= 2 actual_bresp=2 write = 1 read = 0
UVM_INFO axi4_lite_subscriber.sv(41) @ 3485: uvm_test_top.env.sb [sb] INPUT COVERAGE = 66.67 %
UVM_INFO axi4_lite_inp_monitor.sv(44) @ 3485: uvm_test_top.env.aa.inp_mon [INPUT MONITOR]  WRITE awaddr=00000030 wdata=fcdb12fd wstrb=1101 
UVM_INFO axi4_lite_out_monitor.sv(28) @ 3505: uvm_test_top.env.pa.out_mon [OUTPUT MONITOR] BRESP = 2 RRESP = 0 RDATA = 00000000
UVM_INFO axi4_lite_driver.sv(34) @ 3505: uvm_test_top.env.aa.drv [DRV] awaddr = 00000030 wdata = fcdb12fd wstrb = d araddr = 3c76bd78
UVM_INFO axi4_lite_scoreboard.sv(52) @ 3505: uvm_test_top.env.scb [BRESP] Matched : exp_bresp= 2 actual_bresp=2 write = 1 read = 0
UVM_INFO axi4_lite_subscriber.sv(41) @ 3555: uvm_test_top.env.sb [sb] INPUT COVERAGE = 66.67 %
UVM_INFO axi4_lite_inp_monitor.sv(44) @ 3555: uvm_test_top.env.aa.inp_mon [INPUT MONITOR]  WRITE awaddr=00000030 wdata=c29daf76 wstrb=1011 
UVM_INFO axi4_lite_out_monitor.sv(28) @ 3575: uvm_test_top.env.pa.out_mon [OUTPUT MONITOR] BRESP = 2 RRESP = 0 RDATA = 00000000
UVM_INFO axi4_lite_driver.sv(34) @ 3575: uvm_test_top.env.aa.drv [DRV] awaddr = 00000030 wdata = c29daf76 wstrb = b araddr = 05e2a4f8
UVM_INFO axi4_lite_scoreboard.sv(52) @ 3575: uvm_test_top.env.scb [BRESP] Matched : exp_bresp= 2 actual_bresp=2 write = 1 read = 0
UVM_INFO axi4_lite_subscriber.sv(41) @ 3625: uvm_test_top.env.sb [sb] INPUT COVERAGE = 66.67 %
UVM_INFO axi4_lite_inp_monitor.sv(44) @ 3625: uvm_test_top.env.aa.inp_mon [INPUT MONITOR]  WRITE awaddr=00000028 wdata=1f1e27d4 wstrb=1011 
UVM_INFO axi4_lite_out_monitor.sv(28) @ 3645: uvm_test_top.env.pa.out_mon [OUTPUT MONITOR] BRESP = 2 RRESP = 0 RDATA = 00000000
UVM_INFO axi4_lite_driver.sv(34) @ 3645: uvm_test_top.env.aa.drv [DRV] awaddr = 00000028 wdata = 1f1e27d4 wstrb = b araddr = 37412218
UVM_INFO axi4_lite_scoreboard.sv(52) @ 3645: uvm_test_top.env.scb [BRESP] Matched : exp_bresp= 2 actual_bresp=2 write = 1 read = 0
UVM_INFO axi4_lite_subscriber.sv(41) @ 3695: uvm_test_top.env.sb [sb] INPUT COVERAGE = 66.67 %
UVM_INFO axi4_lite_inp_monitor.sv(44) @ 3695: uvm_test_top.env.aa.inp_mon [INPUT MONITOR]  WRITE awaddr=0000002c wdata=587e793f wstrb=0110 
UVM_INFO axi4_lite_out_monitor.sv(28) @ 3715: uvm_test_top.env.pa.out_mon [OUTPUT MONITOR] BRESP = 2 RRESP = 0 RDATA = 00000000
UVM_INFO axi4_lite_driver.sv(34) @ 3715: uvm_test_top.env.aa.drv [DRV] awaddr = 0000002c wdata = 587e793f wstrb = 6 araddr = 0cdeac14
UVM_INFO axi4_lite_scoreboard.sv(52) @ 3715: uvm_test_top.env.scb [BRESP] Matched : exp_bresp= 2 actual_bresp=2 write = 1 read = 0
UVM_INFO axi4_lite_subscriber.sv(41) @ 3735: uvm_test_top.env.sb [sb] INPUT COVERAGE = 66.67 %
UVM_INFO axi4_lite_inp_monitor.sv(44) @ 3735: uvm_test_top.env.aa.inp_mon [INPUT MONITOR]  WRITE awaddr=00000030 wdata=f149a455 wstrb=1110 
UVM_INFO axi4_lite_out_monitor.sv(28) @ 3755: uvm_test_top.env.pa.out_mon [OUTPUT MONITOR] BRESP = 2 RRESP = 0 RDATA = 00000000
UVM_INFO axi4_lite_driver.sv(34) @ 3755: uvm_test_top.env.aa.drv [DRV] awaddr = 00000030 wdata = f149a455 wstrb = e araddr = 9762ca10
UVM_INFO axi4_lite_scoreboard.sv(52) @ 3755: uvm_test_top.env.scb [BRESP] Matched : exp_bresp= 2 actual_bresp=2 write = 1 read = 0
UVM_INFO axi4_lite_subscriber.sv(41) @ 3785: uvm_test_top.env.sb [sb] INPUT COVERAGE = 66.67 %
UVM_INFO axi4_lite_inp_monitor.sv(44) @ 3785: uvm_test_top.env.aa.inp_mon [INPUT MONITOR]  WRITE awaddr=00000028 wdata=4c3a5d4a wstrb=0111 
UVM_INFO axi4_lite_out_monitor.sv(28) @ 3805: uvm_test_top.env.pa.out_mon [OUTPUT MONITOR] BRESP = 2 RRESP = 0 RDATA = 00000000
UVM_INFO axi4_lite_driver.sv(34) @ 3805: uvm_test_top.env.aa.drv [DRV] awaddr = 00000028 wdata = 4c3a5d4a wstrb = 7 araddr = efa4c48c
UVM_INFO axi4_lite_scoreboard.sv(52) @ 3805: uvm_test_top.env.scb [BRESP] Matched : exp_bresp= 2 actual_bresp=2 write = 1 read = 0
UVM_INFO axi4_lite_subscriber.sv(41) @ 3835: uvm_test_top.env.sb [sb] INPUT COVERAGE = 66.67 %
UVM_INFO axi4_lite_inp_monitor.sv(44) @ 3835: uvm_test_top.env.aa.inp_mon [INPUT MONITOR]  WRITE awaddr=0000002c wdata=7b1ec838 wstrb=1000 
UVM_INFO axi4_lite_out_monitor.sv(28) @ 3855: uvm_test_top.env.pa.out_mon [OUTPUT MONITOR] BRESP = 2 RRESP = 0 RDATA = 00000000
UVM_INFO axi4_lite_driver.sv(34) @ 3855: uvm_test_top.env.aa.drv [DRV] awaddr = 0000002c wdata = 7b1ec838 wstrb = 8 araddr = de40afc4
UVM_INFO axi4_lite_scoreboard.sv(52) @ 3855: uvm_test_top.env.scb [BRESP] Matched : exp_bresp= 2 actual_bresp=2 write = 1 read = 0
UVM_INFO axi4_lite_subscriber.sv(41) @ 3885: uvm_test_top.env.sb [sb] INPUT COVERAGE = 66.67 %
UVM_INFO axi4_lite_inp_monitor.sv(44) @ 3885: uvm_test_top.env.aa.inp_mon [INPUT MONITOR]  WRITE awaddr=0000002c wdata=66e22e8c wstrb=1111 
UVM_INFO axi4_lite_out_monitor.sv(28) @ 3905: uvm_test_top.env.pa.out_mon [OUTPUT MONITOR] BRESP = 2 RRESP = 0 RDATA = 00000000
UVM_INFO axi4_lite_driver.sv(34) @ 3905: uvm_test_top.env.aa.drv [DRV] awaddr = 0000002c wdata = 66e22e8c wstrb = f araddr = 52cc87f0
UVM_INFO axi4_lite_scoreboard.sv(52) @ 3905: uvm_test_top.env.scb [BRESP] Matched : exp_bresp= 2 actual_bresp=2 write = 1 read = 0
UVM_INFO axi4_lite_subscriber.sv(41) @ 3925: uvm_test_top.env.sb [sb] INPUT COVERAGE = 66.67 %
UVM_INFO axi4_lite_inp_monitor.sv(44) @ 3925: uvm_test_top.env.aa.inp_mon [INPUT MONITOR]  WRITE awaddr=00000028 wdata=f459bf08 wstrb=1011 
UVM_INFO axi4_lite_out_monitor.sv(28) @ 3945: uvm_test_top.env.pa.out_mon [OUTPUT MONITOR] BRESP = 2 RRESP = 0 RDATA = 00000000
UVM_INFO axi4_lite_driver.sv(34) @ 3945: uvm_test_top.env.aa.drv [DRV] awaddr = 00000028 wdata = f459bf08 wstrb = b araddr = f5cf0d08
UVM_INFO axi4_lite_scoreboard.sv(52) @ 3945: uvm_test_top.env.scb [BRESP] Matched : exp_bresp= 2 actual_bresp=2 write = 1 read = 0
UVM_INFO axi4_lite_subscriber.sv(41) @ 3985: uvm_test_top.env.sb [sb] INPUT COVERAGE = 66.67 %
UVM_INFO axi4_lite_inp_monitor.sv(44) @ 3985: uvm_test_top.env.aa.inp_mon [INPUT MONITOR]  WRITE awaddr=00000028 wdata=98d0461c wstrb=0000 
UVM_INFO axi4_lite_out_monitor.sv(28) @ 4005: uvm_test_top.env.pa.out_mon [OUTPUT MONITOR] BRESP = 2 RRESP = 0 RDATA = 00000000
UVM_INFO axi4_lite_driver.sv(34) @ 4005: uvm_test_top.env.aa.drv [DRV] awaddr = 00000028 wdata = 98d0461c wstrb = 0 araddr = ae0ceba8
UVM_INFO axi4_lite_scoreboard.sv(52) @ 4005: uvm_test_top.env.scb [BRESP] Matched : exp_bresp= 2 actual_bresp=2 write = 1 read = 0
UVM_INFO axi4_lite_subscriber.sv(41) @ 4055: uvm_test_top.env.sb [sb] INPUT COVERAGE = 66.67 %
UVM_INFO axi4_lite_inp_monitor.sv(44) @ 4055: uvm_test_top.env.aa.inp_mon [INPUT MONITOR]  WRITE awaddr=0000002c wdata=f28f3c6c wstrb=1100 
UVM_INFO axi4_lite_out_monitor.sv(28) @ 4075: uvm_test_top.env.pa.out_mon [OUTPUT MONITOR] BRESP = 2 RRESP = 0 RDATA = 00000000
UVM_INFO axi4_lite_driver.sv(34) @ 4075: uvm_test_top.env.aa.drv [DRV] awaddr = 0000002c wdata = f28f3c6c wstrb = c araddr = 8a105570
UVM_INFO axi4_lite_scoreboard.sv(52) @ 4075: uvm_test_top.env.scb [BRESP] Matched : exp_bresp= 2 actual_bresp=2 write = 1 read = 0
UVM_INFO axi4_lite_subscriber.sv(41) @ 4115: uvm_test_top.env.sb [sb] INPUT COVERAGE = 66.67 %
UVM_INFO axi4_lite_inp_monitor.sv(44) @ 4115: uvm_test_top.env.aa.inp_mon [INPUT MONITOR]  WRITE awaddr=00000030 wdata=c5eeb2a4 wstrb=0111 
UVM_INFO axi4_lite_out_monitor.sv(28) @ 4135: uvm_test_top.env.pa.out_mon [OUTPUT MONITOR] BRESP = 2 RRESP = 0 RDATA = 00000000
UVM_INFO axi4_lite_driver.sv(34) @ 4135: uvm_test_top.env.aa.drv [DRV] awaddr = 00000030 wdata = c5eeb2a4 wstrb = 7 araddr = fcec18fc
UVM_INFO axi4_lite_scoreboard.sv(52) @ 4135: uvm_test_top.env.scb [BRESP] Matched : exp_bresp= 2 actual_bresp=2 write = 1 read = 0
UVM_INFO axi4_lite_subscriber.sv(41) @ 4155: uvm_test_top.env.sb [sb] INPUT COVERAGE = 66.67 %
UVM_INFO axi4_lite_inp_monitor.sv(44) @ 4155: uvm_test_top.env.aa.inp_mon [INPUT MONITOR]  WRITE awaddr=0000002c wdata=f37bfeaf wstrb=1011 
UVM_INFO axi4_lite_out_monitor.sv(28) @ 4175: uvm_test_top.env.pa.out_mon [OUTPUT MONITOR] BRESP = 2 RRESP = 0 RDATA = 00000000
UVM_INFO axi4_lite_driver.sv(34) @ 4175: uvm_test_top.env.aa.drv [DRV] awaddr = 0000002c wdata = f37bfeaf wstrb = b araddr = 5929774c
UVM_INFO axi4_lite_scoreboard.sv(52) @ 4175: uvm_test_top.env.scb [BRESP] Matched : exp_bresp= 2 actual_bresp=2 write = 1 read = 0
UVM_INFO axi4_lite_subscriber.sv(41) @ 4225: uvm_test_top.env.sb [sb] INPUT COVERAGE = 66.67 %
UVM_INFO axi4_lite_inp_monitor.sv(44) @ 4225: uvm_test_top.env.aa.inp_mon [INPUT MONITOR]  WRITE awaddr=00000030 wdata=21f21261 wstrb=1101 
UVM_INFO axi4_lite_out_monitor.sv(28) @ 4245: uvm_test_top.env.pa.out_mon [OUTPUT MONITOR] BRESP = 2 RRESP = 0 RDATA = 00000000
UVM_INFO axi4_lite_driver.sv(34) @ 4245: uvm_test_top.env.aa.drv [DRV] awaddr = 00000030 wdata = 21f21261 wstrb = d araddr = 2752dee0
UVM_INFO axi4_lite_scoreboard.sv(52) @ 4245: uvm_test_top.env.scb [BRESP] Matched : exp_bresp= 2 actual_bresp=2 write = 1 read = 0
UVM_INFO axi4_lite_subscriber.sv(41) @ 4265: uvm_test_top.env.sb [sb] INPUT COVERAGE = 66.67 %
UVM_INFO axi4_lite_inp_monitor.sv(44) @ 4265: uvm_test_top.env.aa.inp_mon [INPUT MONITOR]  WRITE awaddr=00000030 wdata=d7f6088d wstrb=1011 
UVM_INFO axi4_lite_out_monitor.sv(28) @ 4285: uvm_test_top.env.pa.out_mon [OUTPUT MONITOR] BRESP = 2 RRESP = 0 RDATA = 00000000
UVM_INFO axi4_lite_driver.sv(34) @ 4285: uvm_test_top.env.aa.drv [DRV] awaddr = 00000030 wdata = d7f6088d wstrb = b araddr = 340dd9bc
UVM_INFO axi4_lite_scoreboard.sv(52) @ 4285: uvm_test_top.env.scb [BRESP] Matched : exp_bresp= 2 actual_bresp=2 write = 1 read = 0
UVM_INFO axi4_lite_subscriber.sv(41) @ 4335: uvm_test_top.env.sb [sb] INPUT COVERAGE = 66.67 %
UVM_INFO axi4_lite_inp_monitor.sv(44) @ 4335: uvm_test_top.env.aa.inp_mon [INPUT MONITOR]  WRITE awaddr=0000002c wdata=8dd5efe8 wstrb=1101 
UVM_INFO axi4_lite_out_monitor.sv(28) @ 4355: uvm_test_top.env.pa.out_mon [OUTPUT MONITOR] BRESP = 2 RRESP = 0 RDATA = 00000000
UVM_INFO axi4_lite_driver.sv(34) @ 4355: uvm_test_top.env.aa.drv [DRV] awaddr = 0000002c wdata = 8dd5efe8 wstrb = d araddr = 20a28600
UVM_INFO axi4_lite_scoreboard.sv(52) @ 4355: uvm_test_top.env.scb [BRESP] Matched : exp_bresp= 2 actual_bresp=2 write = 1 read = 0
UVM_INFO axi4_lite_subscriber.sv(41) @ 4405: uvm_test_top.env.sb [sb] INPUT COVERAGE = 66.67 %
UVM_INFO axi4_lite_inp_monitor.sv(44) @ 4405: uvm_test_top.env.aa.inp_mon [INPUT MONITOR]  WRITE awaddr=00000030 wdata=e3d40c1f wstrb=1100 
UVM_INFO axi4_lite_out_monitor.sv(28) @ 4425: uvm_test_top.env.pa.out_mon [OUTPUT MONITOR] BRESP = 2 RRESP = 0 RDATA = 00000000
UVM_INFO axi4_lite_driver.sv(34) @ 4425: uvm_test_top.env.aa.drv [DRV] awaddr = 00000030 wdata = e3d40c1f wstrb = c araddr = 239369ec
UVM_INFO axi4_lite_scoreboard.sv(52) @ 4425: uvm_test_top.env.scb [BRESP] Matched : exp_bresp= 2 actual_bresp=2 write = 1 read = 0
UVM_INFO axi4_lite_subscriber.sv(41) @ 4465: uvm_test_top.env.sb [sb] INPUT COVERAGE = 66.67 %
UVM_INFO axi4_lite_inp_monitor.sv(44) @ 4465: uvm_test_top.env.aa.inp_mon [INPUT MONITOR]  WRITE awaddr=0000002c wdata=a2f9fee5 wstrb=0111 
UVM_INFO axi4_lite_out_monitor.sv(28) @ 4485: uvm_test_top.env.pa.out_mon [OUTPUT MONITOR] BRESP = 2 RRESP = 0 RDATA = 00000000
UVM_INFO axi4_lite_driver.sv(34) @ 4485: uvm_test_top.env.aa.drv [DRV] awaddr = 0000002c wdata = a2f9fee5 wstrb = 7 araddr = f04ed5f0
UVM_INFO axi4_lite_scoreboard.sv(52) @ 4485: uvm_test_top.env.scb [BRESP] Matched : exp_bresp= 2 actual_bresp=2 write = 1 read = 0
UVM_INFO axi4_lite_subscriber.sv(41) @ 4505: uvm_test_top.env.sb [sb] INPUT COVERAGE = 66.67 %
UVM_INFO axi4_lite_inp_monitor.sv(44) @ 4505: uvm_test_top.env.aa.inp_mon [INPUT MONITOR]  WRITE awaddr=00000028 wdata=26cabf68 wstrb=0000 
UVM_INFO axi4_lite_out_monitor.sv(28) @ 4525: uvm_test_top.env.pa.out_mon [OUTPUT MONITOR] BRESP = 2 RRESP = 0 RDATA = 00000000
UVM_INFO axi4_lite_driver.sv(34) @ 4525: uvm_test_top.env.aa.drv [DRV] awaddr = 00000028 wdata = 26cabf68 wstrb = 0 araddr = 84e7d8a8
UVM_INFO axi4_lite_scoreboard.sv(52) @ 4525: uvm_test_top.env.scb [BRESP] Matched : exp_bresp= 2 actual_bresp=2 write = 1 read = 0
UVM_INFO axi4_lite_subscriber.sv(41) @ 4555: uvm_test_top.env.sb [sb] INPUT COVERAGE = 66.67 %
UVM_INFO axi4_lite_inp_monitor.sv(44) @ 4555: uvm_test_top.env.aa.inp_mon [INPUT MONITOR]  WRITE awaddr=00000028 wdata=46cd67be wstrb=0000 
UVM_INFO axi4_lite_out_monitor.sv(28) @ 4575: uvm_test_top.env.pa.out_mon [OUTPUT MONITOR] BRESP = 2 RRESP = 0 RDATA = 00000000
UVM_INFO axi4_lite_driver.sv(34) @ 4575: uvm_test_top.env.aa.drv [DRV] awaddr = 00000028 wdata = 46cd67be wstrb = 0 araddr = 01f4eea4
UVM_INFO axi4_lite_scoreboard.sv(52) @ 4575: uvm_test_top.env.scb [BRESP] Matched : exp_bresp= 2 actual_bresp=2 write = 1 read = 0
UVM_INFO axi4_lite_subscriber.sv(41) @ 4615: uvm_test_top.env.sb [sb] INPUT COVERAGE = 66.67 %
UVM_INFO axi4_lite_inp_monitor.sv(44) @ 4615: uvm_test_top.env.aa.inp_mon [INPUT MONITOR]  WRITE awaddr=00000030 wdata=2a8909dc wstrb=0000 
UVM_INFO axi4_lite_out_monitor.sv(28) @ 4635: uvm_test_top.env.pa.out_mon [OUTPUT MONITOR] BRESP = 2 RRESP = 0 RDATA = 00000000
UVM_INFO axi4_lite_driver.sv(34) @ 4635: uvm_test_top.env.aa.drv [DRV] awaddr = 00000030 wdata = 2a8909dc wstrb = 0 araddr = abe44850
UVM_INFO axi4_lite_scoreboard.sv(52) @ 4635: uvm_test_top.env.scb [BRESP] Matched : exp_bresp= 2 actual_bresp=2 write = 1 read = 0
UVM_INFO axi4_lite_subscriber.sv(41) @ 4685: uvm_test_top.env.sb [sb] INPUT COVERAGE = 66.67 %
UVM_INFO axi4_lite_inp_monitor.sv(44) @ 4685: uvm_test_top.env.aa.inp_mon [INPUT MONITOR]  WRITE awaddr=00000028 wdata=1fe1b762 wstrb=0110 
UVM_INFO axi4_lite_out_monitor.sv(28) @ 4705: uvm_test_top.env.pa.out_mon [OUTPUT MONITOR] BRESP = 2 RRESP = 0 RDATA = 00000000
UVM_INFO axi4_lite_driver.sv(34) @ 4705: uvm_test_top.env.aa.drv [DRV] awaddr = 00000028 wdata = 1fe1b762 wstrb = 6 araddr = adcf42e8
UVM_INFO axi4_lite_scoreboard.sv(52) @ 4705: uvm_test_top.env.scb [BRESP] Matched : exp_bresp= 2 actual_bresp=2 write = 1 read = 0
UVM_INFO axi4_lite_subscriber.sv(41) @ 4735: uvm_test_top.env.sb [sb] INPUT COVERAGE = 66.67 %
UVM_INFO axi4_lite_inp_monitor.sv(44) @ 4735: uvm_test_top.env.aa.inp_mon [INPUT MONITOR]  WRITE awaddr=0000002c wdata=abe86bcd wstrb=0001 
UVM_INFO axi4_lite_out_monitor.sv(28) @ 4755: uvm_test_top.env.pa.out_mon [OUTPUT MONITOR] BRESP = 2 RRESP = 0 RDATA = 00000000
UVM_INFO axi4_lite_driver.sv(34) @ 4755: uvm_test_top.env.aa.drv [DRV] awaddr = 0000002c wdata = abe86bcd wstrb = 1 araddr = 2e0fd1e8
UVM_INFO axi4_lite_scoreboard.sv(52) @ 4755: uvm_test_top.env.scb [BRESP] Matched : exp_bresp= 2 actual_bresp=2 write = 1 read = 0
UVM_INFO axi4_lite_subscriber.sv(41) @ 4805: uvm_test_top.env.sb [sb] INPUT COVERAGE = 66.67 %
UVM_INFO axi4_lite_inp_monitor.sv(44) @ 4805: uvm_test_top.env.aa.inp_mon [INPUT MONITOR]  WRITE awaddr=0000002c wdata=d710d902 wstrb=0011 
UVM_INFO axi4_lite_out_monitor.sv(28) @ 4825: uvm_test_top.env.pa.out_mon [OUTPUT MONITOR] BRESP = 2 RRESP = 0 RDATA = 00000000
UVM_INFO axi4_lite_driver.sv(34) @ 4825: uvm_test_top.env.aa.drv [DRV] awaddr = 0000002c wdata = d710d902 wstrb = 3 araddr = 04e953f8
UVM_INFO axi4_lite_scoreboard.sv(52) @ 4825: uvm_test_top.env.scb [BRESP] Matched : exp_bresp= 2 actual_bresp=2 write = 1 read = 0
UVM_INFO axi4_lite_subscriber.sv(41) @ 4875: uvm_test_top.env.sb [sb] INPUT COVERAGE = 66.67 %
UVM_INFO axi4_lite_inp_monitor.sv(44) @ 4875: uvm_test_top.env.aa.inp_mon [INPUT MONITOR]  WRITE awaddr=00000030 wdata=25678970 wstrb=0010 
UVM_INFO axi4_lite_out_monitor.sv(28) @ 4895: uvm_test_top.env.pa.out_mon [OUTPUT MONITOR] BRESP = 2 RRESP = 0 RDATA = 00000000
UVM_INFO axi4_lite_driver.sv(34) @ 4895: uvm_test_top.env.aa.drv [DRV] awaddr = 00000030 wdata = 25678970 wstrb = 2 araddr = b0f78b2c
UVM_INFO axi4_lite_scoreboard.sv(52) @ 4895: uvm_test_top.env.scb [BRESP] Matched : exp_bresp= 2 actual_bresp=2 write = 1 read = 0
UVM_INFO axi4_lite_subscriber.sv(41) @ 4925: uvm_test_top.env.sb [sb] INPUT COVERAGE = 66.67 %
UVM_INFO axi4_lite_inp_monitor.sv(44) @ 4925: uvm_test_top.env.aa.inp_mon [INPUT MONITOR]  WRITE awaddr=0000002c wdata=8594e291 wstrb=1100 
UVM_INFO axi4_lite_out_monitor.sv(28) @ 4945: uvm_test_top.env.pa.out_mon [OUTPUT MONITOR] BRESP = 2 RRESP = 0 RDATA = 00000000
UVM_INFO axi4_lite_driver.sv(34) @ 4945: uvm_test_top.env.aa.drv [DRV] awaddr = 0000002c wdata = 8594e291 wstrb = c araddr = 4651de24
UVM_INFO axi4_lite_scoreboard.sv(52) @ 4945: uvm_test_top.env.scb [BRESP] Matched : exp_bresp= 2 actual_bresp=2 write = 1 read = 0
UVM_INFO axi4_lite_subscriber.sv(41) @ 4995: uvm_test_top.env.sb [sb] INPUT COVERAGE = 66.67 %
UVM_INFO axi4_lite_inp_monitor.sv(44) @ 4995: uvm_test_top.env.aa.inp_mon [INPUT MONITOR]  WRITE awaddr=00000028 wdata=ba72b336 wstrb=0000 
UVM_INFO axi4_lite_out_monitor.sv(28) @ 5015: uvm_test_top.env.pa.out_mon [OUTPUT MONITOR] BRESP = 2 RRESP = 0 RDATA = 00000000
UVM_INFO axi4_lite_driver.sv(34) @ 5015: uvm_test_top.env.aa.drv [DRV] awaddr = 00000028 wdata = ba72b336 wstrb = 0 araddr = 8cbbd924
UVM_INFO axi4_lite_scoreboard.sv(52) @ 5015: uvm_test_top.env.scb [BRESP] Matched : exp_bresp= 2 actual_bresp=2 write = 1 read = 0
UVM_INFO axi4_lite_subscriber.sv(41) @ 5055: uvm_test_top.env.sb [sb] INPUT COVERAGE = 66.67 %
UVM_INFO axi4_lite_inp_monitor.sv(44) @ 5055: uvm_test_top.env.aa.inp_mon [INPUT MONITOR]  WRITE awaddr=00000028 wdata=903c02f1 wstrb=1101 
UVM_INFO axi4_lite_out_monitor.sv(28) @ 5075: uvm_test_top.env.pa.out_mon [OUTPUT MONITOR] BRESP = 2 RRESP = 0 RDATA = 00000000
UVM_INFO axi4_lite_driver.sv(34) @ 5075: uvm_test_top.env.aa.drv [DRV] awaddr = 00000028 wdata = 903c02f1 wstrb = d araddr = f6a6b21c
UVM_INFO axi4_lite_scoreboard.sv(52) @ 5075: uvm_test_top.env.scb [BRESP] Matched : exp_bresp= 2 actual_bresp=2 write = 1 read = 0
UVM_INFO axi4_lite_subscriber.sv(41) @ 5095: uvm_test_top.env.sb [sb] INPUT COVERAGE = 66.67 %
UVM_INFO axi4_lite_inp_monitor.sv(44) @ 5095: uvm_test_top.env.aa.inp_mon [INPUT MONITOR]  WRITE awaddr=00000028 wdata=a3661e79 wstrb=1101 
UVM_INFO axi4_lite_out_monitor.sv(28) @ 5115: uvm_test_top.env.pa.out_mon [OUTPUT MONITOR] BRESP = 2 RRESP = 0 RDATA = 00000000
UVM_INFO axi4_lite_driver.sv(34) @ 5115: uvm_test_top.env.aa.drv [DRV] awaddr = 00000028 wdata = a3661e79 wstrb = d araddr = 4ccc0154
UVM_INFO axi4_lite_scoreboard.sv(52) @ 5115: uvm_test_top.env.scb [BRESP] Matched : exp_bresp= 2 actual_bresp=2 write = 1 read = 0
UVM_INFO axi4_lite_subscriber.sv(41) @ 5145: uvm_test_top.env.sb [sb] INPUT COVERAGE = 66.67 %
UVM_INFO axi4_lite_inp_monitor.sv(44) @ 5145: uvm_test_top.env.aa.inp_mon [INPUT MONITOR]  WRITE awaddr=00000028 wdata=f484b0d9 wstrb=0010 
UVM_INFO axi4_lite_out_monitor.sv(28) @ 5165: uvm_test_top.env.pa.out_mon [OUTPUT MONITOR] BRESP = 2 RRESP = 0 RDATA = 00000000
UVM_INFO axi4_lite_driver.sv(34) @ 5165: uvm_test_top.env.aa.drv [DRV] awaddr = 00000028 wdata = f484b0d9 wstrb = 2 araddr = 4b104f70
UVM_INFO axi4_lite_scoreboard.sv(52) @ 5165: uvm_test_top.env.scb [BRESP] Matched : exp_bresp= 2 actual_bresp=2 write = 1 read = 0
UVM_INFO axi4_lite_subscriber.sv(41) @ 5215: uvm_test_top.env.sb [sb] INPUT COVERAGE = 66.67 %
UVM_INFO axi4_lite_inp_monitor.sv(44) @ 5215: uvm_test_top.env.aa.inp_mon [INPUT MONITOR]  WRITE awaddr=00000028 wdata=ba8a1915 wstrb=0101 
UVM_INFO axi4_lite_out_monitor.sv(28) @ 5235: uvm_test_top.env.pa.out_mon [OUTPUT MONITOR] BRESP = 2 RRESP = 0 RDATA = 00000000
UVM_INFO axi4_lite_driver.sv(34) @ 5235: uvm_test_top.env.aa.drv [DRV] awaddr = 00000028 wdata = ba8a1915 wstrb = 5 araddr = 78a0c0f8
UVM_INFO axi4_lite_scoreboard.sv(52) @ 5235: uvm_test_top.env.scb [BRESP] Matched : exp_bresp= 2 actual_bresp=2 write = 1 read = 0
UVM_INFO axi4_lite_subscriber.sv(41) @ 5285: uvm_test_top.env.sb [sb] INPUT COVERAGE = 66.67 %
UVM_INFO axi4_lite_inp_monitor.sv(44) @ 5285: uvm_test_top.env.aa.inp_mon [INPUT MONITOR]  WRITE awaddr=00000028 wdata=3b2b6c59 wstrb=1100 
UVM_INFO axi4_lite_out_monitor.sv(28) @ 5305: uvm_test_top.env.pa.out_mon [OUTPUT MONITOR] BRESP = 2 RRESP = 0 RDATA = 00000000
UVM_INFO axi4_lite_driver.sv(34) @ 5305: uvm_test_top.env.aa.drv [DRV] awaddr = 00000028 wdata = 3b2b6c59 wstrb = c araddr = dc8fc498
UVM_INFO axi4_lite_scoreboard.sv(52) @ 5305: uvm_test_top.env.scb [BRESP] Matched : exp_bresp= 2 actual_bresp=2 write = 1 read = 0
UVM_INFO axi4_lite_subscriber.sv(41) @ 5345: uvm_test_top.env.sb [sb] INPUT COVERAGE = 66.67 %
UVM_INFO axi4_lite_inp_monitor.sv(44) @ 5345: uvm_test_top.env.aa.inp_mon [INPUT MONITOR]  WRITE awaddr=00000030 wdata=59fb26e4 wstrb=1100 
UVM_INFO axi4_lite_out_monitor.sv(28) @ 5365: uvm_test_top.env.pa.out_mon [OUTPUT MONITOR] BRESP = 2 RRESP = 0 RDATA = 00000000
UVM_INFO axi4_lite_driver.sv(34) @ 5365: uvm_test_top.env.aa.drv [DRV] awaddr = 00000030 wdata = 59fb26e4 wstrb = c araddr = 75f4ded8
UVM_INFO axi4_lite_scoreboard.sv(52) @ 5365: uvm_test_top.env.scb [BRESP] Matched : exp_bresp= 2 actual_bresp=2 write = 1 read = 0
UVM_INFO axi4_lite_subscriber.sv(41) @ 5395: uvm_test_top.env.sb [sb] INPUT COVERAGE = 66.67 %
UVM_INFO axi4_lite_inp_monitor.sv(44) @ 5395: uvm_test_top.env.aa.inp_mon [INPUT MONITOR]  WRITE awaddr=0000002c wdata=4af0d7d7 wstrb=0110 
UVM_INFO axi4_lite_out_monitor.sv(28) @ 5415: uvm_test_top.env.pa.out_mon [OUTPUT MONITOR] BRESP = 2 RRESP = 0 RDATA = 00000000
UVM_INFO axi4_lite_driver.sv(34) @ 5415: uvm_test_top.env.aa.drv [DRV] awaddr = 0000002c wdata = 4af0d7d7 wstrb = 6 araddr = 1090c924
UVM_INFO axi4_lite_scoreboard.sv(52) @ 5415: uvm_test_top.env.scb [BRESP] Matched : exp_bresp= 2 actual_bresp=2 write = 1 read = 0
UVM_INFO axi4_lite_subscriber.sv(41) @ 5455: uvm_test_top.env.sb [sb] INPUT COVERAGE = 66.67 %
UVM_INFO axi4_lite_inp_monitor.sv(44) @ 5455: uvm_test_top.env.aa.inp_mon [INPUT MONITOR]  WRITE awaddr=00000030 wdata=c8f020d6 wstrb=1101 
UVM_INFO axi4_lite_out_monitor.sv(28) @ 5475: uvm_test_top.env.pa.out_mon [OUTPUT MONITOR] BRESP = 2 RRESP = 0 RDATA = 00000000
UVM_INFO axi4_lite_driver.sv(34) @ 5475: uvm_test_top.env.aa.drv [DRV] awaddr = 00000030 wdata = c8f020d6 wstrb = d araddr = 2067bd14
UVM_INFO axi4_lite_scoreboard.sv(52) @ 5475: uvm_test_top.env.scb [BRESP] Matched : exp_bresp= 2 actual_bresp=2 write = 1 read = 0
UVM_INFO axi4_lite_subscriber.sv(41) @ 5515: uvm_test_top.env.sb [sb] INPUT COVERAGE = 66.67 %
UVM_INFO axi4_lite_inp_monitor.sv(44) @ 5515: uvm_test_top.env.aa.inp_mon [INPUT MONITOR]  WRITE awaddr=00000030 wdata=fe452a18 wstrb=0001 
UVM_INFO axi4_lite_out_monitor.sv(28) @ 5535: uvm_test_top.env.pa.out_mon [OUTPUT MONITOR] BRESP = 2 RRESP = 0 RDATA = 00000000
UVM_INFO axi4_lite_driver.sv(34) @ 5535: uvm_test_top.env.aa.drv [DRV] awaddr = 00000030 wdata = fe452a18 wstrb = 1 araddr = 796aaf58
UVM_INFO axi4_lite_scoreboard.sv(52) @ 5535: uvm_test_top.env.scb [BRESP] Matched : exp_bresp= 2 actual_bresp=2 write = 1 read = 0
UVM_INFO axi4_lite_subscriber.sv(41) @ 5575: uvm_test_top.env.sb [sb] INPUT COVERAGE = 66.67 %
UVM_INFO axi4_lite_inp_monitor.sv(44) @ 5575: uvm_test_top.env.aa.inp_mon [INPUT MONITOR]  WRITE awaddr=00000030 wdata=e9dc84a3 wstrb=1001 
UVM_INFO axi4_lite_out_monitor.sv(28) @ 5595: uvm_test_top.env.pa.out_mon [OUTPUT MONITOR] BRESP = 2 RRESP = 0 RDATA = 00000000
UVM_INFO axi4_lite_driver.sv(34) @ 5595: uvm_test_top.env.aa.drv [DRV] awaddr = 00000030 wdata = e9dc84a3 wstrb = 9 araddr = 615651f8
UVM_INFO axi4_lite_scoreboard.sv(52) @ 5595: uvm_test_top.env.scb [BRESP] Matched : exp_bresp= 2 actual_bresp=2 write = 1 read = 0
UVM_INFO axi4_lite_subscriber.sv(41) @ 5615: uvm_test_top.env.sb [sb] INPUT COVERAGE = 66.67 %
UVM_INFO axi4_lite_inp_monitor.sv(44) @ 5615: uvm_test_top.env.aa.inp_mon [INPUT MONITOR]  WRITE awaddr=00000030 wdata=78804ef4 wstrb=1001 
UVM_INFO axi4_lite_out_monitor.sv(28) @ 5635: uvm_test_top.env.pa.out_mon [OUTPUT MONITOR] BRESP = 2 RRESP = 0 RDATA = 00000000
UVM_INFO axi4_lite_driver.sv(34) @ 5635: uvm_test_top.env.aa.drv [DRV] awaddr = 00000030 wdata = 78804ef4 wstrb = 9 araddr = 1d6dd148
UVM_INFO axi4_lite_scoreboard.sv(52) @ 5635: uvm_test_top.env.scb [BRESP] Matched : exp_bresp= 2 actual_bresp=2 write = 1 read = 0
UVM_INFO axi4_lite_subscriber.sv(41) @ 5675: uvm_test_top.env.sb [sb] INPUT COVERAGE = 66.67 %
UVM_INFO axi4_lite_inp_monitor.sv(44) @ 5675: uvm_test_top.env.aa.inp_mon [INPUT MONITOR]  WRITE awaddr=00000030 wdata=96cc6053 wstrb=1100 
UVM_INFO axi4_lite_out_monitor.sv(28) @ 5695: uvm_test_top.env.pa.out_mon [OUTPUT MONITOR] BRESP = 2 RRESP = 0 RDATA = 00000000
UVM_INFO axi4_lite_driver.sv(34) @ 5695: uvm_test_top.env.aa.drv [DRV] awaddr = 00000030 wdata = 96cc6053 wstrb = c araddr = 2f1f6f4c
UVM_INFO axi4_lite_scoreboard.sv(52) @ 5695: uvm_test_top.env.scb [BRESP] Matched : exp_bresp= 2 actual_bresp=2 write = 1 read = 0
UVM_INFO axi4_lite_subscriber.sv(41) @ 5725: uvm_test_top.env.sb [sb] INPUT COVERAGE = 66.67 %
UVM_INFO axi4_lite_inp_monitor.sv(44) @ 5725: uvm_test_top.env.aa.inp_mon [INPUT MONITOR]  WRITE awaddr=0000002c wdata=d74a7e22 wstrb=0110 
UVM_INFO axi4_lite_out_monitor.sv(28) @ 5745: uvm_test_top.env.pa.out_mon [OUTPUT MONITOR] BRESP = 2 RRESP = 0 RDATA = 00000000
UVM_INFO axi4_lite_driver.sv(34) @ 5745: uvm_test_top.env.aa.drv [DRV] awaddr = 0000002c wdata = d74a7e22 wstrb = 6 araddr = 7118bff8
UVM_INFO axi4_lite_scoreboard.sv(52) @ 5745: uvm_test_top.env.scb [BRESP] Matched : exp_bresp= 2 actual_bresp=2 write = 1 read = 0
UVM_INFO axi4_lite_test.sv(57) @ 5745: uvm_test_top [TEST] Write to ro completed
UVM_INFO /fetools/synopsys/installed_tools/vcs/vcs/Q-2020.03-SP2-8/etc/uvm/base/uvm_objection.svh(1274) @ 5745: reporter [TEST_DONE] 'run' phase is ready to proceed to the 'extract' phase

--- UVM Report Summary ---

** Report counts by severity
UVM_INFO :  504
UVM_WARNING :    0
UVM_ERROR :    0
UVM_FATAL :    0
** Report counts by id
[BRESP]   100
[DRV]   100
[INPUT MONITOR]   100
[OUTPUT MONITOR]   100
[RNTST]     1
[TEST]     1
[TEST_DONE]     1
[UVMTOP]     1
[sb]   100
$finish called from file "/fetools/synopsys/installed_tools/vcs/vcs/Q-2020.03-SP2-8/etc/uvm/base/uvm_root.svh", line 437.
$finish at simulation time                 5745

---------------------------------------------------------------------------
VCS Coverage Metrics: during simulation line, cond, FSM, branch, tgl was monitored
---------------------------------------------------------------------------
           V C S   S i m u l a t i o n   R e p o r t 
Time: 5745 ns
CPU Time:      0.550 seconds;       Data structure size:   0.4Mb
Thu Sep 17 21:45:42 2026
