Command: /fetools/work_area/frontend/Batch_11/ananyaganesh/system_verilog/AXI4_LITE_SLAVE/src/work/simv +UVM_TESTNAME=axi4_lite_test_write +UVM_VERBOSITY=UVM_HIGH +ntb_random_seed=19273 -cm line+cond+fsm+tgl+branch+assert -cm_dir work/regression.vdb -cm_name axi4_lite_test_write_19273 -l work/logs/axi4_lite_test_write_19273.log +UVM_NO_RELNOTES
Chronologic VCS simulator copyright 1991-2020
Contains Synopsys proprietary information.
Compiler version Q-2020.03-SP2-8_Full64; Runtime version Q-2020.03-SP2-8_Full64;  Sep 18 16:06 2026
----------------------------------------------------------------
UVM-1.1d.Synopsys
(C) 2007-2013 Mentor Graphics Corporation
(C) 2007-2013 Cadence Design Systems, Inc.
(C) 2006-2013 Synopsys, Inc.
(C) 2011-2013 Cypress Semiconductor Corp.
----------------------------------------------------------------
UVM_INFO @ 0: reporter [RNTST] Running test axi4_lite_test_write...
UVM_INFO @ 0: reporter [UVMTOP] UVM testbench topology:
---------------------------------------------------------------
Name                       Type                     Size  Value
---------------------------------------------------------------
uvm_test_top               axi4_lite_test_write     -     @469 
  env                      axi4_lite_environment    -     @477 
    aa                     axi4_lite_active_agent   -     @489 
      drv                  axi4_lite_driver         -     @569 
        rsp_port           uvm_analysis_port        -     @586 
        seq_item_port      uvm_seq_item_pull_port   -     @577 
      inp_mon              axi4_lite_inp_monitor    -     @552 
        inp_mon_port       uvm_analysis_port        -     @560 
      seqr                 axi4_lite_seqr           -     @595 
        rsp_export         uvm_analysis_export      -     @603 
        seq_item_export    uvm_seq_item_pull_imp    -     @709 
        arbitration_queue  array                    0     -    
        lock_queue         array                    0     -    
        num_last_reqs      integral                 32    'd1  
        num_last_rsps      integral                 32    'd1  
    pa                     axi4_lite_passive_agent  -     @497 
      out_mon              axi4_lite_out_monitor    -     @726 
        out_mon_port       uvm_analysis_port        -     @734 
    sb                     axi4_lite_subscriber     -     @531 
      analysis_imp         uvm_analysis_imp         -     @539 
    scb                    axi4_lite_scoreboard     -     @505 
      inp_port             uvm_analysis_imp_in      -     @513 
      out_port             uvm_analysis_imp_out     -     @522 
---------------------------------------------------------------

UVM_INFO axi4_lite_subscriber.sv(41) @ 45: uvm_test_top.env.sb [sb] INPUT COVERAGE = 28.12 %
UVM_INFO axi4_lite_inp_monitor.sv(44) @ 45: uvm_test_top.env.aa.inp_mon [INPUT MONITOR]  WRITE awaddr=00000028 wdata=d784df27 wstrb=1000 
UVM_INFO axi4_lite_out_monitor.sv(28) @ 65: uvm_test_top.env.pa.out_mon [OUTPUT MONITOR] BRESP = 2 RRESP = 0 RDATA = 00000000
UVM_INFO axi4_lite_driver.sv(34) @ 65: uvm_test_top.env.aa.drv [DRV] awaddr = 00000028 wdata = d784df27 wstrb = 8 araddr = 1645019c
UVM_INFO axi4_lite_scoreboard.sv(52) @ 65: uvm_test_top.env.scb [BRESP] Matched : exp_bresp= 2 actual_bresp=2 write = 1 read = 0
UVM_INFO axi4_lite_subscriber.sv(41) @ 85: uvm_test_top.env.sb [sb] INPUT COVERAGE = 44.79 %
UVM_INFO axi4_lite_inp_monitor.sv(44) @ 85: uvm_test_top.env.aa.inp_mon [INPUT MONITOR]  WRITE awaddr=00000004 wdata=a4e00b25 wstrb=1101 
UVM_INFO axi4_lite_out_monitor.sv(28) @ 105: uvm_test_top.env.pa.out_mon [OUTPUT MONITOR] BRESP = 0 RRESP = 0 RDATA = 00000000
UVM_INFO axi4_lite_driver.sv(34) @ 105: uvm_test_top.env.aa.drv [DRV] awaddr = 00000004 wdata = a4e00b25 wstrb = d araddr = ec227e70
UVM_INFO axi4_lite_scoreboard.sv(52) @ 105: uvm_test_top.env.scb [BRESP] Matched : exp_bresp= 0 actual_bresp=0 write = 1 read = 0
UVM_INFO axi4_lite_subscriber.sv(41) @ 135: uvm_test_top.env.sb [sb] INPUT COVERAGE = 53.12 %
UVM_INFO axi4_lite_inp_monitor.sv(44) @ 135: uvm_test_top.env.aa.inp_mon [INPUT MONITOR]  WRITE awaddr=00000020 wdata=0b85c29f wstrb=0110 
UVM_INFO axi4_lite_out_monitor.sv(28) @ 155: uvm_test_top.env.pa.out_mon [OUTPUT MONITOR] BRESP = 0 RRESP = 0 RDATA = 00000000
UVM_INFO axi4_lite_driver.sv(34) @ 155: uvm_test_top.env.aa.drv [DRV] awaddr = 00000020 wdata = 0b85c29f wstrb = 6 araddr = cb2e9ff0
UVM_INFO axi4_lite_scoreboard.sv(52) @ 155: uvm_test_top.env.scb [BRESP] Matched : exp_bresp= 0 actual_bresp=0 write = 1 read = 0
UVM_INFO axi4_lite_subscriber.sv(41) @ 175: uvm_test_top.env.sb [sb] INPUT COVERAGE = 53.12 %
UVM_INFO axi4_lite_inp_monitor.sv(44) @ 175: uvm_test_top.env.aa.inp_mon [INPUT MONITOR]  WRITE awaddr=00000004 wdata=8bdc9728 wstrb=1000 
UVM_INFO axi4_lite_out_monitor.sv(28) @ 195: uvm_test_top.env.pa.out_mon [OUTPUT MONITOR] BRESP = 0 RRESP = 0 RDATA = 00000000
UVM_INFO axi4_lite_driver.sv(34) @ 195: uvm_test_top.env.aa.drv [DRV] awaddr = 00000004 wdata = 8bdc9728 wstrb = 8 araddr = adbc3894
UVM_INFO axi4_lite_scoreboard.sv(52) @ 195: uvm_test_top.env.scb [BRESP] Matched : exp_bresp= 0 actual_bresp=0 write = 1 read = 0
UVM_INFO axi4_lite_subscriber.sv(41) @ 245: uvm_test_top.env.sb [sb] INPUT COVERAGE = 56.25 %
UVM_INFO axi4_lite_inp_monitor.sv(44) @ 245: uvm_test_top.env.aa.inp_mon [INPUT MONITOR]  WRITE awaddr=00000008 wdata=69d65c6d wstrb=0010 
UVM_INFO axi4_lite_out_monitor.sv(28) @ 265: uvm_test_top.env.pa.out_mon [OUTPUT MONITOR] BRESP = 0 RRESP = 0 RDATA = 00000000
UVM_INFO axi4_lite_driver.sv(34) @ 265: uvm_test_top.env.aa.drv [DRV] awaddr = 00000008 wdata = 69d65c6d wstrb = 2 araddr = 3f966f1c
UVM_INFO axi4_lite_scoreboard.sv(52) @ 265: uvm_test_top.env.scb [BRESP] Matched : exp_bresp= 0 actual_bresp=0 write = 1 read = 0
UVM_INFO axi4_lite_subscriber.sv(41) @ 285: uvm_test_top.env.sb [sb] INPUT COVERAGE = 56.25 %
UVM_INFO axi4_lite_inp_monitor.sv(44) @ 285: uvm_test_top.env.aa.inp_mon [INPUT MONITOR]  WRITE awaddr=00000018 wdata=59f12549 wstrb=1000 
UVM_INFO axi4_lite_out_monitor.sv(28) @ 305: uvm_test_top.env.pa.out_mon [OUTPUT MONITOR] BRESP = 0 RRESP = 0 RDATA = 00000000
UVM_INFO axi4_lite_driver.sv(34) @ 305: uvm_test_top.env.aa.drv [DRV] awaddr = 00000018 wdata = 59f12549 wstrb = 8 araddr = 0da2ad00
UVM_INFO axi4_lite_scoreboard.sv(52) @ 305: uvm_test_top.env.scb [BRESP] Matched : exp_bresp= 0 actual_bresp=0 write = 1 read = 0
UVM_INFO axi4_lite_subscriber.sv(41) @ 345: uvm_test_top.env.sb [sb] INPUT COVERAGE = 56.25 %
UVM_INFO axi4_lite_inp_monitor.sv(44) @ 345: uvm_test_top.env.aa.inp_mon [INPUT MONITOR]  WRITE awaddr=00000014 wdata=bdda8bb3 wstrb=0110 
UVM_INFO axi4_lite_out_monitor.sv(28) @ 365: uvm_test_top.env.pa.out_mon [OUTPUT MONITOR] BRESP = 0 RRESP = 0 RDATA = 00000000
UVM_INFO axi4_lite_driver.sv(34) @ 365: uvm_test_top.env.aa.drv [DRV] awaddr = 00000014 wdata = bdda8bb3 wstrb = 6 araddr = a2310190
UVM_INFO axi4_lite_scoreboard.sv(52) @ 365: uvm_test_top.env.scb [BRESP] Matched : exp_bresp= 0 actual_bresp=0 write = 1 read = 0
UVM_INFO axi4_lite_subscriber.sv(41) @ 405: uvm_test_top.env.sb [sb] INPUT COVERAGE = 56.25 %
UVM_INFO axi4_lite_inp_monitor.sv(44) @ 405: uvm_test_top.env.aa.inp_mon [INPUT MONITOR]  WRITE awaddr=00000014 wdata=08ad6d31 wstrb=0010 
UVM_INFO axi4_lite_out_monitor.sv(28) @ 425: uvm_test_top.env.pa.out_mon [OUTPUT MONITOR] BRESP = 0 RRESP = 0 RDATA = 00000000
UVM_INFO axi4_lite_driver.sv(34) @ 425: uvm_test_top.env.aa.drv [DRV] awaddr = 00000014 wdata = 08ad6d31 wstrb = 2 araddr = d893b934
UVM_INFO axi4_lite_scoreboard.sv(52) @ 425: uvm_test_top.env.scb [BRESP] Matched : exp_bresp= 0 actual_bresp=0 write = 1 read = 0
UVM_INFO axi4_lite_subscriber.sv(41) @ 465: uvm_test_top.env.sb [sb] INPUT COVERAGE = 59.38 %
UVM_INFO axi4_lite_inp_monitor.sv(44) @ 465: uvm_test_top.env.aa.inp_mon [INPUT MONITOR]  WRITE awaddr=00000028 wdata=61085862 wstrb=0000 
UVM_INFO axi4_lite_out_monitor.sv(28) @ 485: uvm_test_top.env.pa.out_mon [OUTPUT MONITOR] BRESP = 2 RRESP = 0 RDATA = 00000000
UVM_INFO axi4_lite_driver.sv(34) @ 485: uvm_test_top.env.aa.drv [DRV] awaddr = 00000028 wdata = 61085862 wstrb = 0 araddr = 3054d320
UVM_INFO axi4_lite_scoreboard.sv(52) @ 485: uvm_test_top.env.scb [BRESP] Matched : exp_bresp= 2 actual_bresp=2 write = 1 read = 0
UVM_INFO axi4_lite_subscriber.sv(41) @ 505: uvm_test_top.env.sb [sb] INPUT COVERAGE = 62.50 %
UVM_INFO axi4_lite_inp_monitor.sv(44) @ 505: uvm_test_top.env.aa.inp_mon [INPUT MONITOR]  WRITE awaddr=0000000c wdata=de7d749b wstrb=0001 
UVM_INFO axi4_lite_out_monitor.sv(28) @ 525: uvm_test_top.env.pa.out_mon [OUTPUT MONITOR] BRESP = 0 RRESP = 0 RDATA = 00000000
UVM_INFO axi4_lite_driver.sv(34) @ 525: uvm_test_top.env.aa.drv [DRV] awaddr = 0000000c wdata = de7d749b wstrb = 1 araddr = 99c14f38
UVM_INFO axi4_lite_scoreboard.sv(52) @ 525: uvm_test_top.env.scb [BRESP] Matched : exp_bresp= 0 actual_bresp=0 write = 1 read = 0
UVM_INFO axi4_lite_subscriber.sv(41) @ 545: uvm_test_top.env.sb [sb] INPUT COVERAGE = 65.62 %
UVM_INFO axi4_lite_inp_monitor.sv(44) @ 545: uvm_test_top.env.aa.inp_mon [INPUT MONITOR]  WRITE awaddr=00000024 wdata=26fb4630 wstrb=1100 
UVM_INFO axi4_lite_out_monitor.sv(28) @ 565: uvm_test_top.env.pa.out_mon [OUTPUT MONITOR] BRESP = 0 RRESP = 0 RDATA = 00000000
UVM_INFO axi4_lite_driver.sv(34) @ 565: uvm_test_top.env.aa.drv [DRV] awaddr = 00000024 wdata = 26fb4630 wstrb = c araddr = 9b3575b8
UVM_INFO axi4_lite_scoreboard.sv(52) @ 565: uvm_test_top.env.scb [BRESP] Matched : exp_bresp= 0 actual_bresp=0 write = 1 read = 0
UVM_INFO axi4_lite_subscriber.sv(41) @ 585: uvm_test_top.env.sb [sb] INPUT COVERAGE = 65.62 %
UVM_INFO axi4_lite_inp_monitor.sv(44) @ 585: uvm_test_top.env.aa.inp_mon [INPUT MONITOR]  WRITE awaddr=00000028 wdata=f8bf6a94 wstrb=1100 
UVM_INFO axi4_lite_out_monitor.sv(28) @ 605: uvm_test_top.env.pa.out_mon [OUTPUT MONITOR] BRESP = 2 RRESP = 0 RDATA = 00000000
UVM_INFO axi4_lite_driver.sv(34) @ 605: uvm_test_top.env.aa.drv [DRV] awaddr = 00000028 wdata = f8bf6a94 wstrb = c araddr = ac7274c8
UVM_INFO axi4_lite_scoreboard.sv(52) @ 605: uvm_test_top.env.scb [BRESP] Matched : exp_bresp= 2 actual_bresp=2 write = 1 read = 0
UVM_INFO axi4_lite_subscriber.sv(41) @ 655: uvm_test_top.env.sb [sb] INPUT COVERAGE = 65.62 %
UVM_INFO axi4_lite_inp_monitor.sv(44) @ 655: uvm_test_top.env.aa.inp_mon [INPUT MONITOR]  WRITE awaddr=00000000 wdata=8c265661 wstrb=1000 
UVM_INFO axi4_lite_out_monitor.sv(28) @ 675: uvm_test_top.env.pa.out_mon [OUTPUT MONITOR] BRESP = 0 RRESP = 0 RDATA = 00000000
UVM_INFO axi4_lite_driver.sv(34) @ 675: uvm_test_top.env.aa.drv [DRV] awaddr = 00000000 wdata = 8c265661 wstrb = 8 araddr = df7eac50
UVM_INFO axi4_lite_scoreboard.sv(52) @ 675: uvm_test_top.env.scb [BRESP] Matched : exp_bresp= 0 actual_bresp=0 write = 1 read = 0
UVM_INFO axi4_lite_subscriber.sv(41) @ 715: uvm_test_top.env.sb [sb] INPUT COVERAGE = 65.62 %
UVM_INFO axi4_lite_inp_monitor.sv(44) @ 715: uvm_test_top.env.aa.inp_mon [INPUT MONITOR]  WRITE awaddr=00000014 wdata=85b60276 wstrb=0101 
UVM_INFO axi4_lite_out_monitor.sv(28) @ 735: uvm_test_top.env.pa.out_mon [OUTPUT MONITOR] BRESP = 0 RRESP = 0 RDATA = 00000000
UVM_INFO axi4_lite_driver.sv(34) @ 735: uvm_test_top.env.aa.drv [DRV] awaddr = 00000014 wdata = 85b60276 wstrb = 5 araddr = 947b8ac4
UVM_INFO axi4_lite_scoreboard.sv(52) @ 735: uvm_test_top.env.scb [BRESP] Matched : exp_bresp= 0 actual_bresp=0 write = 1 read = 0
UVM_INFO axi4_lite_subscriber.sv(41) @ 775: uvm_test_top.env.sb [sb] INPUT COVERAGE = 65.62 %
UVM_INFO axi4_lite_inp_monitor.sv(44) @ 775: uvm_test_top.env.aa.inp_mon [INPUT MONITOR]  WRITE awaddr=00000024 wdata=21421d85 wstrb=1001 
UVM_INFO axi4_lite_out_monitor.sv(28) @ 795: uvm_test_top.env.pa.out_mon [OUTPUT MONITOR] BRESP = 0 RRESP = 0 RDATA = 00000000
UVM_INFO axi4_lite_driver.sv(34) @ 795: uvm_test_top.env.aa.drv [DRV] awaddr = 00000024 wdata = 21421d85 wstrb = 9 araddr = ae61e714
UVM_INFO axi4_lite_scoreboard.sv(52) @ 795: uvm_test_top.env.scb [BRESP] Matched : exp_bresp= 0 actual_bresp=0 write = 1 read = 0
UVM_INFO axi4_lite_subscriber.sv(41) @ 815: uvm_test_top.env.sb [sb] INPUT COVERAGE = 68.75 %
UVM_INFO axi4_lite_inp_monitor.sv(44) @ 815: uvm_test_top.env.aa.inp_mon [INPUT MONITOR]  WRITE awaddr=0000000c wdata=034a6acb wstrb=1111 
UVM_INFO axi4_lite_out_monitor.sv(28) @ 835: uvm_test_top.env.pa.out_mon [OUTPUT MONITOR] BRESP = 0 RRESP = 0 RDATA = 00000000
UVM_INFO axi4_lite_driver.sv(34) @ 835: uvm_test_top.env.aa.drv [DRV] awaddr = 0000000c wdata = 034a6acb wstrb = f araddr = de250104
UVM_INFO axi4_lite_scoreboard.sv(52) @ 835: uvm_test_top.env.scb [BRESP] Matched : exp_bresp= 0 actual_bresp=0 write = 1 read = 0
UVM_INFO axi4_lite_subscriber.sv(41) @ 875: uvm_test_top.env.sb [sb] INPUT COVERAGE = 68.75 %
UVM_INFO axi4_lite_inp_monitor.sv(44) @ 875: uvm_test_top.env.aa.inp_mon [INPUT MONITOR]  WRITE awaddr=00000010 wdata=c5615ef3 wstrb=0111 
UVM_INFO axi4_lite_out_monitor.sv(28) @ 895: uvm_test_top.env.pa.out_mon [OUTPUT MONITOR] BRESP = 0 RRESP = 0 RDATA = 00000000
UVM_INFO axi4_lite_driver.sv(34) @ 895: uvm_test_top.env.aa.drv [DRV] awaddr = 00000010 wdata = c5615ef3 wstrb = 7 araddr = 25ca8e08
UVM_INFO axi4_lite_scoreboard.sv(52) @ 895: uvm_test_top.env.scb [BRESP] Matched : exp_bresp= 0 actual_bresp=0 write = 1 read = 0
UVM_INFO axi4_lite_subscriber.sv(41) @ 945: uvm_test_top.env.sb [sb] INPUT COVERAGE = 68.75 %
UVM_INFO axi4_lite_inp_monitor.sv(44) @ 945: uvm_test_top.env.aa.inp_mon [INPUT MONITOR]  WRITE awaddr=00000020 wdata=e71e6d92 wstrb=0101 
UVM_INFO axi4_lite_out_monitor.sv(28) @ 965: uvm_test_top.env.pa.out_mon [OUTPUT MONITOR] BRESP = 0 RRESP = 0 RDATA = 00000000
UVM_INFO axi4_lite_driver.sv(34) @ 965: uvm_test_top.env.aa.drv [DRV] awaddr = 00000020 wdata = e71e6d92 wstrb = 5 araddr = 45499f80
UVM_INFO axi4_lite_scoreboard.sv(52) @ 965: uvm_test_top.env.scb [BRESP] Matched : exp_bresp= 0 actual_bresp=0 write = 1 read = 0
UVM_INFO axi4_lite_subscriber.sv(41) @ 1015: uvm_test_top.env.sb [sb] INPUT COVERAGE = 77.08 %
UVM_INFO axi4_lite_inp_monitor.sv(44) @ 1015: uvm_test_top.env.aa.inp_mon [INPUT MONITOR]  WRITE awaddr=00000034 wdata=77a13988 wstrb=1100 
UVM_INFO axi4_lite_out_monitor.sv(28) @ 1035: uvm_test_top.env.pa.out_mon [OUTPUT MONITOR] BRESP = 0 RRESP = 0 RDATA = 00000000
UVM_INFO axi4_lite_driver.sv(34) @ 1035: uvm_test_top.env.aa.drv [DRV] awaddr = 00000034 wdata = 77a13988 wstrb = c araddr = 180a4cf8
UVM_INFO axi4_lite_scoreboard.sv(52) @ 1035: uvm_test_top.env.scb [BRESP] Matched : exp_bresp= 0 actual_bresp=0 write = 1 read = 0
UVM_INFO axi4_lite_subscriber.sv(41) @ 1085: uvm_test_top.env.sb [sb] INPUT COVERAGE = 77.08 %
UVM_INFO axi4_lite_inp_monitor.sv(44) @ 1085: uvm_test_top.env.aa.inp_mon [INPUT MONITOR]  WRITE awaddr=00000020 wdata=008ac10a wstrb=1001 
UVM_INFO axi4_lite_out_monitor.sv(28) @ 1105: uvm_test_top.env.pa.out_mon [OUTPUT MONITOR] BRESP = 0 RRESP = 0 RDATA = 00000000
UVM_INFO axi4_lite_driver.sv(34) @ 1105: uvm_test_top.env.aa.drv [DRV] awaddr = 00000020 wdata = 008ac10a wstrb = 9 araddr = 656e66f4
UVM_INFO axi4_lite_scoreboard.sv(52) @ 1105: uvm_test_top.env.scb [BRESP] Matched : exp_bresp= 0 actual_bresp=0 write = 1 read = 0
UVM_INFO axi4_lite_subscriber.sv(41) @ 1145: uvm_test_top.env.sb [sb] INPUT COVERAGE = 77.08 %
UVM_INFO axi4_lite_inp_monitor.sv(44) @ 1145: uvm_test_top.env.aa.inp_mon [INPUT MONITOR]  WRITE awaddr=00000024 wdata=0a570900 wstrb=1111 
UVM_INFO axi4_lite_out_monitor.sv(28) @ 1165: uvm_test_top.env.pa.out_mon [OUTPUT MONITOR] BRESP = 0 RRESP = 0 RDATA = 00000000
UVM_INFO axi4_lite_driver.sv(34) @ 1165: uvm_test_top.env.aa.drv [DRV] awaddr = 00000024 wdata = 0a570900 wstrb = f araddr = 1a6d504c
UVM_INFO axi4_lite_scoreboard.sv(52) @ 1165: uvm_test_top.env.scb [BRESP] Matched : exp_bresp= 0 actual_bresp=0 write = 1 read = 0
UVM_INFO axi4_lite_subscriber.sv(41) @ 1215: uvm_test_top.env.sb [sb] INPUT COVERAGE = 77.08 %
UVM_INFO axi4_lite_inp_monitor.sv(44) @ 1215: uvm_test_top.env.aa.inp_mon [INPUT MONITOR]  WRITE awaddr=00000038 wdata=425970d2 wstrb=1111 
UVM_INFO axi4_lite_out_monitor.sv(28) @ 1235: uvm_test_top.env.pa.out_mon [OUTPUT MONITOR] BRESP = 0 RRESP = 0 RDATA = 00000000
UVM_INFO axi4_lite_driver.sv(34) @ 1235: uvm_test_top.env.aa.drv [DRV] awaddr = 00000038 wdata = 425970d2 wstrb = f araddr = e2c650b8
UVM_INFO axi4_lite_scoreboard.sv(52) @ 1235: uvm_test_top.env.scb [BRESP] Matched : exp_bresp= 0 actual_bresp=0 write = 1 read = 0
UVM_INFO axi4_lite_subscriber.sv(41) @ 1255: uvm_test_top.env.sb [sb] INPUT COVERAGE = 77.08 %
UVM_INFO axi4_lite_inp_monitor.sv(44) @ 1255: uvm_test_top.env.aa.inp_mon [INPUT MONITOR]  WRITE awaddr=00000018 wdata=cccdc9ed wstrb=1011 
UVM_INFO axi4_lite_out_monitor.sv(28) @ 1275: uvm_test_top.env.pa.out_mon [OUTPUT MONITOR] BRESP = 0 RRESP = 0 RDATA = 00000000
UVM_INFO axi4_lite_driver.sv(34) @ 1275: uvm_test_top.env.aa.drv [DRV] awaddr = 00000018 wdata = cccdc9ed wstrb = b araddr = 0e8e810c
UVM_INFO axi4_lite_scoreboard.sv(52) @ 1275: uvm_test_top.env.scb [BRESP] Matched : exp_bresp= 0 actual_bresp=0 write = 1 read = 0
UVM_INFO axi4_lite_subscriber.sv(41) @ 1295: uvm_test_top.env.sb [sb] INPUT COVERAGE = 77.08 %
UVM_INFO axi4_lite_inp_monitor.sv(44) @ 1295: uvm_test_top.env.aa.inp_mon [INPUT MONITOR]  WRITE awaddr=00000034 wdata=e4c63c09 wstrb=1111 
UVM_INFO axi4_lite_out_monitor.sv(28) @ 1315: uvm_test_top.env.pa.out_mon [OUTPUT MONITOR] BRESP = 0 RRESP = 0 RDATA = 00000000
UVM_INFO axi4_lite_driver.sv(34) @ 1315: uvm_test_top.env.aa.drv [DRV] awaddr = 00000034 wdata = e4c63c09 wstrb = f araddr = 678f3190
UVM_INFO axi4_lite_scoreboard.sv(52) @ 1315: uvm_test_top.env.scb [BRESP] Matched : exp_bresp= 0 actual_bresp=0 write = 1 read = 0
UVM_INFO axi4_lite_subscriber.sv(41) @ 1365: uvm_test_top.env.sb [sb] INPUT COVERAGE = 77.08 %
UVM_INFO axi4_lite_inp_monitor.sv(44) @ 1365: uvm_test_top.env.aa.inp_mon [INPUT MONITOR]  WRITE awaddr=0000000c wdata=7a71d9c2 wstrb=1111 
UVM_INFO axi4_lite_out_monitor.sv(28) @ 1385: uvm_test_top.env.pa.out_mon [OUTPUT MONITOR] BRESP = 0 RRESP = 0 RDATA = 00000000
UVM_INFO axi4_lite_driver.sv(34) @ 1385: uvm_test_top.env.aa.drv [DRV] awaddr = 0000000c wdata = 7a71d9c2 wstrb = f araddr = 83fac594
UVM_INFO axi4_lite_scoreboard.sv(52) @ 1385: uvm_test_top.env.scb [BRESP] Matched : exp_bresp= 0 actual_bresp=0 write = 1 read = 0
UVM_INFO axi4_lite_subscriber.sv(41) @ 1435: uvm_test_top.env.sb [sb] INPUT COVERAGE = 77.08 %
UVM_INFO axi4_lite_inp_monitor.sv(44) @ 1435: uvm_test_top.env.aa.inp_mon [INPUT MONITOR]  WRITE awaddr=00000030 wdata=eea14326 wstrb=0111 
UVM_INFO axi4_lite_out_monitor.sv(28) @ 1455: uvm_test_top.env.pa.out_mon [OUTPUT MONITOR] BRESP = 2 RRESP = 0 RDATA = 00000000
UVM_INFO axi4_lite_driver.sv(34) @ 1455: uvm_test_top.env.aa.drv [DRV] awaddr = 00000030 wdata = eea14326 wstrb = 7 araddr = e4b9e6e0
UVM_INFO axi4_lite_scoreboard.sv(52) @ 1455: uvm_test_top.env.scb [BRESP] Matched : exp_bresp= 2 actual_bresp=2 write = 1 read = 0
UVM_INFO axi4_lite_subscriber.sv(41) @ 1485: uvm_test_top.env.sb [sb] INPUT COVERAGE = 77.08 %
UVM_INFO axi4_lite_inp_monitor.sv(44) @ 1485: uvm_test_top.env.aa.inp_mon [INPUT MONITOR]  WRITE awaddr=00000030 wdata=741adba9 wstrb=0110 
UVM_INFO axi4_lite_out_monitor.sv(28) @ 1505: uvm_test_top.env.pa.out_mon [OUTPUT MONITOR] BRESP = 2 RRESP = 0 RDATA = 00000000
UVM_INFO axi4_lite_driver.sv(34) @ 1505: uvm_test_top.env.aa.drv [DRV] awaddr = 00000030 wdata = 741adba9 wstrb = 6 araddr = a37c14d0
UVM_INFO axi4_lite_scoreboard.sv(52) @ 1505: uvm_test_top.env.scb [BRESP] Matched : exp_bresp= 2 actual_bresp=2 write = 1 read = 0
UVM_INFO axi4_lite_subscriber.sv(41) @ 1535: uvm_test_top.env.sb [sb] INPUT COVERAGE = 80.21 %
UVM_INFO axi4_lite_inp_monitor.sv(44) @ 1535: uvm_test_top.env.aa.inp_mon [INPUT MONITOR]  WRITE awaddr=00000028 wdata=1a89aec3 wstrb=0011 
UVM_INFO axi4_lite_out_monitor.sv(28) @ 1555: uvm_test_top.env.pa.out_mon [OUTPUT MONITOR] BRESP = 2 RRESP = 0 RDATA = 00000000
UVM_INFO axi4_lite_driver.sv(34) @ 1555: uvm_test_top.env.aa.drv [DRV] awaddr = 00000028 wdata = 1a89aec3 wstrb = 3 araddr = 3e735b38
UVM_INFO axi4_lite_scoreboard.sv(52) @ 1555: uvm_test_top.env.scb [BRESP] Matched : exp_bresp= 2 actual_bresp=2 write = 1 read = 0
UVM_INFO axi4_lite_subscriber.sv(41) @ 1585: uvm_test_top.env.sb [sb] INPUT COVERAGE = 80.21 %
UVM_INFO axi4_lite_inp_monitor.sv(44) @ 1585: uvm_test_top.env.aa.inp_mon [INPUT MONITOR]  WRITE awaddr=0000000c wdata=df605249 wstrb=0101 
UVM_INFO axi4_lite_out_monitor.sv(28) @ 1605: uvm_test_top.env.pa.out_mon [OUTPUT MONITOR] BRESP = 0 RRESP = 0 RDATA = 00000000
UVM_INFO axi4_lite_driver.sv(34) @ 1605: uvm_test_top.env.aa.drv [DRV] awaddr = 0000000c wdata = df605249 wstrb = 5 araddr = 396434dc
UVM_INFO axi4_lite_scoreboard.sv(52) @ 1605: uvm_test_top.env.scb [BRESP] Matched : exp_bresp= 0 actual_bresp=0 write = 1 read = 0
UVM_INFO axi4_lite_subscriber.sv(41) @ 1635: uvm_test_top.env.sb [sb] INPUT COVERAGE = 80.21 %
UVM_INFO axi4_lite_inp_monitor.sv(44) @ 1635: uvm_test_top.env.aa.inp_mon [INPUT MONITOR]  WRITE awaddr=00000020 wdata=1933f710 wstrb=1001 
UVM_INFO axi4_lite_out_monitor.sv(28) @ 1655: uvm_test_top.env.pa.out_mon [OUTPUT MONITOR] BRESP = 0 RRESP = 0 RDATA = 00000000
UVM_INFO axi4_lite_driver.sv(34) @ 1655: uvm_test_top.env.aa.drv [DRV] awaddr = 00000020 wdata = 1933f710 wstrb = 9 araddr = 658d5ac8
UVM_INFO axi4_lite_scoreboard.sv(52) @ 1655: uvm_test_top.env.scb [BRESP] Matched : exp_bresp= 0 actual_bresp=0 write = 1 read = 0
UVM_INFO axi4_lite_subscriber.sv(41) @ 1695: uvm_test_top.env.sb [sb] INPUT COVERAGE = 80.21 %
UVM_INFO axi4_lite_inp_monitor.sv(44) @ 1695: uvm_test_top.env.aa.inp_mon [INPUT MONITOR]  WRITE awaddr=00000000 wdata=4ea9ee70 wstrb=0110 
UVM_INFO axi4_lite_out_monitor.sv(28) @ 1715: uvm_test_top.env.pa.out_mon [OUTPUT MONITOR] BRESP = 0 RRESP = 0 RDATA = 00000000
UVM_INFO axi4_lite_driver.sv(34) @ 1715: uvm_test_top.env.aa.drv [DRV] awaddr = 00000000 wdata = 4ea9ee70 wstrb = 6 araddr = f2838cc4
UVM_INFO axi4_lite_scoreboard.sv(52) @ 1715: uvm_test_top.env.scb [BRESP] Matched : exp_bresp= 0 actual_bresp=0 write = 1 read = 0
UVM_INFO axi4_lite_subscriber.sv(41) @ 1755: uvm_test_top.env.sb [sb] INPUT COVERAGE = 80.21 %
UVM_INFO axi4_lite_inp_monitor.sv(44) @ 1755: uvm_test_top.env.aa.inp_mon [INPUT MONITOR]  WRITE awaddr=00000004 wdata=4db9f683 wstrb=1010 
UVM_INFO axi4_lite_out_monitor.sv(28) @ 1775: uvm_test_top.env.pa.out_mon [OUTPUT MONITOR] BRESP = 0 RRESP = 0 RDATA = 00000000
UVM_INFO axi4_lite_driver.sv(34) @ 1775: uvm_test_top.env.aa.drv [DRV] awaddr = 00000004 wdata = 4db9f683 wstrb = a araddr = 1359757c
UVM_INFO axi4_lite_scoreboard.sv(52) @ 1775: uvm_test_top.env.scb [BRESP] Matched : exp_bresp= 0 actual_bresp=0 write = 1 read = 0
UVM_INFO axi4_lite_subscriber.sv(41) @ 1805: uvm_test_top.env.sb [sb] INPUT COVERAGE = 80.21 %
UVM_INFO axi4_lite_inp_monitor.sv(44) @ 1805: uvm_test_top.env.aa.inp_mon [INPUT MONITOR]  WRITE awaddr=00000010 wdata=a5704c64 wstrb=1100 
UVM_INFO axi4_lite_out_monitor.sv(28) @ 1825: uvm_test_top.env.pa.out_mon [OUTPUT MONITOR] BRESP = 0 RRESP = 0 RDATA = 00000000
UVM_INFO axi4_lite_driver.sv(34) @ 1825: uvm_test_top.env.aa.drv [DRV] awaddr = 00000010 wdata = a5704c64 wstrb = c araddr = 485069e0
UVM_INFO axi4_lite_scoreboard.sv(52) @ 1825: uvm_test_top.env.scb [BRESP] Matched : exp_bresp= 0 actual_bresp=0 write = 1 read = 0
UVM_INFO axi4_lite_subscriber.sv(41) @ 1875: uvm_test_top.env.sb [sb] INPUT COVERAGE = 80.21 %
UVM_INFO axi4_lite_inp_monitor.sv(44) @ 1875: uvm_test_top.env.aa.inp_mon [INPUT MONITOR]  WRITE awaddr=00000010 wdata=8e545ef8 wstrb=0011 
UVM_INFO axi4_lite_out_monitor.sv(28) @ 1895: uvm_test_top.env.pa.out_mon [OUTPUT MONITOR] BRESP = 0 RRESP = 0 RDATA = 00000000
UVM_INFO axi4_lite_driver.sv(34) @ 1895: uvm_test_top.env.aa.drv [DRV] awaddr = 00000010 wdata = 8e545ef8 wstrb = 3 araddr = a40661a4
UVM_INFO axi4_lite_scoreboard.sv(52) @ 1895: uvm_test_top.env.scb [BRESP] Matched : exp_bresp= 0 actual_bresp=0 write = 1 read = 0
UVM_INFO axi4_lite_subscriber.sv(41) @ 1935: uvm_test_top.env.sb [sb] INPUT COVERAGE = 80.21 %
UVM_INFO axi4_lite_inp_monitor.sv(44) @ 1935: uvm_test_top.env.aa.inp_mon [INPUT MONITOR]  WRITE awaddr=0000002c wdata=cef4fac3 wstrb=0011 
UVM_INFO axi4_lite_out_monitor.sv(28) @ 1955: uvm_test_top.env.pa.out_mon [OUTPUT MONITOR] BRESP = 2 RRESP = 0 RDATA = 00000000
UVM_INFO axi4_lite_driver.sv(34) @ 1955: uvm_test_top.env.aa.drv [DRV] awaddr = 0000002c wdata = cef4fac3 wstrb = 3 araddr = ab170564
UVM_INFO axi4_lite_scoreboard.sv(52) @ 1955: uvm_test_top.env.scb [BRESP] Matched : exp_bresp= 2 actual_bresp=2 write = 1 read = 0
UVM_INFO axi4_lite_subscriber.sv(41) @ 2005: uvm_test_top.env.sb [sb] INPUT COVERAGE = 80.21 %
UVM_INFO axi4_lite_inp_monitor.sv(44) @ 2005: uvm_test_top.env.aa.inp_mon [INPUT MONITOR]  WRITE awaddr=00000000 wdata=80786e7a wstrb=1100 
UVM_INFO axi4_lite_out_monitor.sv(28) @ 2025: uvm_test_top.env.pa.out_mon [OUTPUT MONITOR] BRESP = 0 RRESP = 0 RDATA = 00000000
UVM_INFO axi4_lite_driver.sv(34) @ 2025: uvm_test_top.env.aa.drv [DRV] awaddr = 00000000 wdata = 80786e7a wstrb = c araddr = 6d266f8c
UVM_INFO axi4_lite_scoreboard.sv(52) @ 2025: uvm_test_top.env.scb [BRESP] Matched : exp_bresp= 0 actual_bresp=0 write = 1 read = 0
UVM_INFO axi4_lite_subscriber.sv(41) @ 2055: uvm_test_top.env.sb [sb] INPUT COVERAGE = 80.21 %
UVM_INFO axi4_lite_inp_monitor.sv(44) @ 2055: uvm_test_top.env.aa.inp_mon [INPUT MONITOR]  WRITE awaddr=00000018 wdata=0221db4a wstrb=1100 
UVM_INFO axi4_lite_out_monitor.sv(28) @ 2075: uvm_test_top.env.pa.out_mon [OUTPUT MONITOR] BRESP = 0 RRESP = 0 RDATA = 00000000
UVM_INFO axi4_lite_driver.sv(34) @ 2075: uvm_test_top.env.aa.drv [DRV] awaddr = 00000018 wdata = 0221db4a wstrb = c araddr = 8fae5ac8
UVM_INFO axi4_lite_scoreboard.sv(52) @ 2075: uvm_test_top.env.scb [BRESP] Matched : exp_bresp= 0 actual_bresp=0 write = 1 read = 0
UVM_INFO axi4_lite_subscriber.sv(41) @ 2105: uvm_test_top.env.sb [sb] INPUT COVERAGE = 80.21 %
UVM_INFO axi4_lite_inp_monitor.sv(44) @ 2105: uvm_test_top.env.aa.inp_mon [INPUT MONITOR]  WRITE awaddr=00000038 wdata=1f1d6379 wstrb=0111 
UVM_INFO axi4_lite_out_monitor.sv(28) @ 2125: uvm_test_top.env.pa.out_mon [OUTPUT MONITOR] BRESP = 0 RRESP = 0 RDATA = 00000000
UVM_INFO axi4_lite_driver.sv(34) @ 2125: uvm_test_top.env.aa.drv [DRV] awaddr = 00000038 wdata = 1f1d6379 wstrb = 7 araddr = 68d1a1e4
UVM_INFO axi4_lite_scoreboard.sv(52) @ 2125: uvm_test_top.env.scb [BRESP] Matched : exp_bresp= 0 actual_bresp=0 write = 1 read = 0
UVM_INFO axi4_lite_subscriber.sv(41) @ 2175: uvm_test_top.env.sb [sb] INPUT COVERAGE = 80.21 %
UVM_INFO axi4_lite_inp_monitor.sv(44) @ 2175: uvm_test_top.env.aa.inp_mon [INPUT MONITOR]  WRITE awaddr=00000030 wdata=f49c4a4b wstrb=1111 
UVM_INFO axi4_lite_out_monitor.sv(28) @ 2195: uvm_test_top.env.pa.out_mon [OUTPUT MONITOR] BRESP = 2 RRESP = 0 RDATA = 00000000
UVM_INFO axi4_lite_driver.sv(34) @ 2195: uvm_test_top.env.aa.drv [DRV] awaddr = 00000030 wdata = f49c4a4b wstrb = f araddr = cff9ccc0
UVM_INFO axi4_lite_scoreboard.sv(52) @ 2195: uvm_test_top.env.scb [BRESP] Matched : exp_bresp= 2 actual_bresp=2 write = 1 read = 0
UVM_INFO axi4_lite_subscriber.sv(41) @ 2245: uvm_test_top.env.sb [sb] INPUT COVERAGE = 80.21 %
UVM_INFO axi4_lite_inp_monitor.sv(44) @ 2245: uvm_test_top.env.aa.inp_mon [INPUT MONITOR]  WRITE awaddr=00000020 wdata=737cf807 wstrb=1101 
UVM_INFO axi4_lite_out_monitor.sv(28) @ 2265: uvm_test_top.env.pa.out_mon [OUTPUT MONITOR] BRESP = 0 RRESP = 0 RDATA = 00000000
UVM_INFO axi4_lite_driver.sv(34) @ 2265: uvm_test_top.env.aa.drv [DRV] awaddr = 00000020 wdata = 737cf807 wstrb = d araddr = 22b13424
UVM_INFO axi4_lite_scoreboard.sv(52) @ 2265: uvm_test_top.env.scb [BRESP] Matched : exp_bresp= 0 actual_bresp=0 write = 1 read = 0
UVM_INFO axi4_lite_subscriber.sv(41) @ 2315: uvm_test_top.env.sb [sb] INPUT COVERAGE = 80.21 %
UVM_INFO axi4_lite_inp_monitor.sv(44) @ 2315: uvm_test_top.env.aa.inp_mon [INPUT MONITOR]  WRITE awaddr=00000000 wdata=c0ff891a wstrb=1111 
UVM_INFO axi4_lite_out_monitor.sv(28) @ 2335: uvm_test_top.env.pa.out_mon [OUTPUT MONITOR] BRESP = 0 RRESP = 0 RDATA = 00000000
UVM_INFO axi4_lite_driver.sv(34) @ 2335: uvm_test_top.env.aa.drv [DRV] awaddr = 00000000 wdata = c0ff891a wstrb = f araddr = 40d121c8
UVM_INFO axi4_lite_scoreboard.sv(52) @ 2335: uvm_test_top.env.scb [BRESP] Matched : exp_bresp= 0 actual_bresp=0 write = 1 read = 0
UVM_INFO axi4_lite_subscriber.sv(41) @ 2365: uvm_test_top.env.sb [sb] INPUT COVERAGE = 80.21 %
UVM_INFO axi4_lite_inp_monitor.sv(44) @ 2365: uvm_test_top.env.aa.inp_mon [INPUT MONITOR]  WRITE awaddr=0000000c wdata=7800d9b5 wstrb=1000 
UVM_INFO axi4_lite_out_monitor.sv(28) @ 2385: uvm_test_top.env.pa.out_mon [OUTPUT MONITOR] BRESP = 0 RRESP = 0 RDATA = 00000000
UVM_INFO axi4_lite_driver.sv(34) @ 2385: uvm_test_top.env.aa.drv [DRV] awaddr = 0000000c wdata = 7800d9b5 wstrb = 8 araddr = f366c1e4
UVM_INFO axi4_lite_scoreboard.sv(52) @ 2385: uvm_test_top.env.scb [BRESP] Matched : exp_bresp= 0 actual_bresp=0 write = 1 read = 0
UVM_INFO axi4_lite_subscriber.sv(41) @ 2415: uvm_test_top.env.sb [sb] INPUT COVERAGE = 80.21 %
UVM_INFO axi4_lite_inp_monitor.sv(44) @ 2415: uvm_test_top.env.aa.inp_mon [INPUT MONITOR]  WRITE awaddr=00000030 wdata=73d15cf3 wstrb=1010 
UVM_INFO axi4_lite_out_monitor.sv(28) @ 2435: uvm_test_top.env.pa.out_mon [OUTPUT MONITOR] BRESP = 2 RRESP = 0 RDATA = 00000000
UVM_INFO axi4_lite_driver.sv(34) @ 2435: uvm_test_top.env.aa.drv [DRV] awaddr = 00000030 wdata = 73d15cf3 wstrb = a araddr = 69170d30
UVM_INFO axi4_lite_scoreboard.sv(52) @ 2435: uvm_test_top.env.scb [BRESP] Matched : exp_bresp= 2 actual_bresp=2 write = 1 read = 0
UVM_INFO axi4_lite_subscriber.sv(41) @ 2475: uvm_test_top.env.sb [sb] INPUT COVERAGE = 80.21 %
UVM_INFO axi4_lite_inp_monitor.sv(44) @ 2475: uvm_test_top.env.aa.inp_mon [INPUT MONITOR]  WRITE awaddr=00000028 wdata=d783cbfc wstrb=1011 
UVM_INFO axi4_lite_out_monitor.sv(28) @ 2495: uvm_test_top.env.pa.out_mon [OUTPUT MONITOR] BRESP = 2 RRESP = 0 RDATA = 00000000
UVM_INFO axi4_lite_driver.sv(34) @ 2495: uvm_test_top.env.aa.drv [DRV] awaddr = 00000028 wdata = d783cbfc wstrb = b araddr = 9b7bedc4
UVM_INFO axi4_lite_scoreboard.sv(52) @ 2495: uvm_test_top.env.scb [BRESP] Matched : exp_bresp= 2 actual_bresp=2 write = 1 read = 0
UVM_INFO axi4_lite_subscriber.sv(41) @ 2535: uvm_test_top.env.sb [sb] INPUT COVERAGE = 80.21 %
UVM_INFO axi4_lite_inp_monitor.sv(44) @ 2535: uvm_test_top.env.aa.inp_mon [INPUT MONITOR]  WRITE awaddr=00000038 wdata=125a4b6e wstrb=0000 
UVM_INFO axi4_lite_out_monitor.sv(28) @ 2555: uvm_test_top.env.pa.out_mon [OUTPUT MONITOR] BRESP = 0 RRESP = 0 RDATA = 00000000
UVM_INFO axi4_lite_driver.sv(34) @ 2555: uvm_test_top.env.aa.drv [DRV] awaddr = 00000038 wdata = 125a4b6e wstrb = 0 araddr = cab8ab64
UVM_INFO axi4_lite_scoreboard.sv(52) @ 2555: uvm_test_top.env.scb [BRESP] Matched : exp_bresp= 0 actual_bresp=0 write = 1 read = 0
UVM_INFO axi4_lite_subscriber.sv(41) @ 2585: uvm_test_top.env.sb [sb] INPUT COVERAGE = 80.21 %
UVM_INFO axi4_lite_inp_monitor.sv(44) @ 2585: uvm_test_top.env.aa.inp_mon [INPUT MONITOR]  WRITE awaddr=00000034 wdata=b6fe4b28 wstrb=1000 
UVM_INFO axi4_lite_out_monitor.sv(28) @ 2605: uvm_test_top.env.pa.out_mon [OUTPUT MONITOR] BRESP = 0 RRESP = 0 RDATA = 00000000
UVM_INFO axi4_lite_driver.sv(34) @ 2605: uvm_test_top.env.aa.drv [DRV] awaddr = 00000034 wdata = b6fe4b28 wstrb = 8 araddr = 5fefd8ec
UVM_INFO axi4_lite_scoreboard.sv(52) @ 2605: uvm_test_top.env.scb [BRESP] Matched : exp_bresp= 0 actual_bresp=0 write = 1 read = 0
UVM_INFO axi4_lite_subscriber.sv(41) @ 2655: uvm_test_top.env.sb [sb] INPUT COVERAGE = 80.21 %
UVM_INFO axi4_lite_inp_monitor.sv(44) @ 2655: uvm_test_top.env.aa.inp_mon [INPUT MONITOR]  WRITE awaddr=00000020 wdata=b9b49c16 wstrb=0011 
UVM_INFO axi4_lite_out_monitor.sv(28) @ 2675: uvm_test_top.env.pa.out_mon [OUTPUT MONITOR] BRESP = 0 RRESP = 0 RDATA = 00000000
UVM_INFO axi4_lite_driver.sv(34) @ 2675: uvm_test_top.env.aa.drv [DRV] awaddr = 00000020 wdata = b9b49c16 wstrb = 3 araddr = 3e227d44
UVM_INFO axi4_lite_scoreboard.sv(52) @ 2675: uvm_test_top.env.scb [BRESP] Matched : exp_bresp= 0 actual_bresp=0 write = 1 read = 0
UVM_INFO axi4_lite_subscriber.sv(41) @ 2705: uvm_test_top.env.sb [sb] INPUT COVERAGE = 80.21 %
UVM_INFO axi4_lite_inp_monitor.sv(44) @ 2705: uvm_test_top.env.aa.inp_mon [INPUT MONITOR]  WRITE awaddr=00000000 wdata=d51a67fa wstrb=0000 
UVM_INFO axi4_lite_out_monitor.sv(28) @ 2725: uvm_test_top.env.pa.out_mon [OUTPUT MONITOR] BRESP = 0 RRESP = 0 RDATA = 00000000
UVM_INFO axi4_lite_driver.sv(34) @ 2725: uvm_test_top.env.aa.drv [DRV] awaddr = 00000000 wdata = d51a67fa wstrb = 0 araddr = f7f1f838
UVM_INFO axi4_lite_scoreboard.sv(52) @ 2725: uvm_test_top.env.scb [BRESP] Matched : exp_bresp= 0 actual_bresp=0 write = 1 read = 0
UVM_INFO axi4_lite_subscriber.sv(41) @ 2775: uvm_test_top.env.sb [sb] INPUT COVERAGE = 80.21 %
UVM_INFO axi4_lite_inp_monitor.sv(44) @ 2775: uvm_test_top.env.aa.inp_mon [INPUT MONITOR]  WRITE awaddr=00000030 wdata=3588132e wstrb=1001 
UVM_INFO axi4_lite_out_monitor.sv(28) @ 2795: uvm_test_top.env.pa.out_mon [OUTPUT MONITOR] BRESP = 2 RRESP = 0 RDATA = 00000000
UVM_INFO axi4_lite_driver.sv(34) @ 2795: uvm_test_top.env.aa.drv [DRV] awaddr = 00000030 wdata = 3588132e wstrb = 9 araddr = 69d15620
UVM_INFO axi4_lite_scoreboard.sv(52) @ 2795: uvm_test_top.env.scb [BRESP] Matched : exp_bresp= 2 actual_bresp=2 write = 1 read = 0
UVM_INFO axi4_lite_subscriber.sv(41) @ 2825: uvm_test_top.env.sb [sb] INPUT COVERAGE = 80.21 %
UVM_INFO axi4_lite_inp_monitor.sv(44) @ 2825: uvm_test_top.env.aa.inp_mon [INPUT MONITOR]  WRITE awaddr=00000024 wdata=fac8900d wstrb=1010 
UVM_INFO axi4_lite_out_monitor.sv(28) @ 2845: uvm_test_top.env.pa.out_mon [OUTPUT MONITOR] BRESP = 0 RRESP = 0 RDATA = 00000000
UVM_INFO axi4_lite_driver.sv(34) @ 2845: uvm_test_top.env.aa.drv [DRV] awaddr = 00000024 wdata = fac8900d wstrb = a araddr = eebea424
UVM_INFO axi4_lite_scoreboard.sv(52) @ 2845: uvm_test_top.env.scb [BRESP] Matched : exp_bresp= 0 actual_bresp=0 write = 1 read = 0
UVM_INFO axi4_lite_subscriber.sv(41) @ 2875: uvm_test_top.env.sb [sb] INPUT COVERAGE = 80.21 %
UVM_INFO axi4_lite_inp_monitor.sv(44) @ 2875: uvm_test_top.env.aa.inp_mon [INPUT MONITOR]  WRITE awaddr=00000008 wdata=79762628 wstrb=0011 
UVM_INFO axi4_lite_out_monitor.sv(28) @ 2895: uvm_test_top.env.pa.out_mon [OUTPUT MONITOR] BRESP = 0 RRESP = 0 RDATA = 00000000
UVM_INFO axi4_lite_driver.sv(34) @ 2895: uvm_test_top.env.aa.drv [DRV] awaddr = 00000008 wdata = 79762628 wstrb = 3 araddr = cc148dbc
UVM_INFO axi4_lite_scoreboard.sv(52) @ 2895: uvm_test_top.env.scb [BRESP] Matched : exp_bresp= 0 actual_bresp=0 write = 1 read = 0
UVM_INFO axi4_lite_subscriber.sv(41) @ 2935: uvm_test_top.env.sb [sb] INPUT COVERAGE = 80.21 %
UVM_INFO axi4_lite_inp_monitor.sv(44) @ 2935: uvm_test_top.env.aa.inp_mon [INPUT MONITOR]  WRITE awaddr=00000034 wdata=e4d69338 wstrb=1100 
UVM_INFO axi4_lite_out_monitor.sv(28) @ 2955: uvm_test_top.env.pa.out_mon [OUTPUT MONITOR] BRESP = 0 RRESP = 0 RDATA = 00000000
UVM_INFO axi4_lite_driver.sv(34) @ 2955: uvm_test_top.env.aa.drv [DRV] awaddr = 00000034 wdata = e4d69338 wstrb = c araddr = 465e32b8
UVM_INFO axi4_lite_scoreboard.sv(52) @ 2955: uvm_test_top.env.scb [BRESP] Matched : exp_bresp= 0 actual_bresp=0 write = 1 read = 0
UVM_INFO axi4_lite_subscriber.sv(41) @ 2995: uvm_test_top.env.sb [sb] INPUT COVERAGE = 80.21 %
UVM_INFO axi4_lite_inp_monitor.sv(44) @ 2995: uvm_test_top.env.aa.inp_mon [INPUT MONITOR]  WRITE awaddr=00000030 wdata=088b71d3 wstrb=1110 
UVM_INFO axi4_lite_out_monitor.sv(28) @ 3015: uvm_test_top.env.pa.out_mon [OUTPUT MONITOR] BRESP = 2 RRESP = 0 RDATA = 00000000
UVM_INFO axi4_lite_driver.sv(34) @ 3015: uvm_test_top.env.aa.drv [DRV] awaddr = 00000030 wdata = 088b71d3 wstrb = e araddr = 9b3de4a8
UVM_INFO axi4_lite_scoreboard.sv(52) @ 3015: uvm_test_top.env.scb [BRESP] Matched : exp_bresp= 2 actual_bresp=2 write = 1 read = 0
UVM_INFO axi4_lite_subscriber.sv(41) @ 3055: uvm_test_top.env.sb [sb] INPUT COVERAGE = 80.21 %
UVM_INFO axi4_lite_inp_monitor.sv(44) @ 3055: uvm_test_top.env.aa.inp_mon [INPUT MONITOR]  WRITE awaddr=0000000c wdata=0ffbe4a3 wstrb=1001 
UVM_INFO axi4_lite_out_monitor.sv(28) @ 3075: uvm_test_top.env.pa.out_mon [OUTPUT MONITOR] BRESP = 0 RRESP = 0 RDATA = 00000000
UVM_INFO axi4_lite_driver.sv(34) @ 3075: uvm_test_top.env.aa.drv [DRV] awaddr = 0000000c wdata = 0ffbe4a3 wstrb = 9 araddr = 0aac5328
UVM_INFO axi4_lite_scoreboard.sv(52) @ 3075: uvm_test_top.env.scb [BRESP] Matched : exp_bresp= 0 actual_bresp=0 write = 1 read = 0
UVM_INFO axi4_lite_subscriber.sv(41) @ 3125: uvm_test_top.env.sb [sb] INPUT COVERAGE = 80.21 %
UVM_INFO axi4_lite_inp_monitor.sv(44) @ 3125: uvm_test_top.env.aa.inp_mon [INPUT MONITOR]  WRITE awaddr=00000014 wdata=978d1cd8 wstrb=0101 
UVM_INFO axi4_lite_out_monitor.sv(28) @ 3145: uvm_test_top.env.pa.out_mon [OUTPUT MONITOR] BRESP = 0 RRESP = 0 RDATA = 00000000
UVM_INFO axi4_lite_driver.sv(34) @ 3145: uvm_test_top.env.aa.drv [DRV] awaddr = 00000014 wdata = 978d1cd8 wstrb = 5 araddr = de8ec7ac
UVM_INFO axi4_lite_scoreboard.sv(52) @ 3145: uvm_test_top.env.scb [BRESP] Matched : exp_bresp= 0 actual_bresp=0 write = 1 read = 0
UVM_INFO axi4_lite_subscriber.sv(41) @ 3175: uvm_test_top.env.sb [sb] INPUT COVERAGE = 80.21 %
UVM_INFO axi4_lite_inp_monitor.sv(44) @ 3175: uvm_test_top.env.aa.inp_mon [INPUT MONITOR]  WRITE awaddr=00000018 wdata=c8b44d36 wstrb=1001 
UVM_INFO axi4_lite_out_monitor.sv(28) @ 3195: uvm_test_top.env.pa.out_mon [OUTPUT MONITOR] BRESP = 0 RRESP = 0 RDATA = 00000000
UVM_INFO axi4_lite_driver.sv(34) @ 3195: uvm_test_top.env.aa.drv [DRV] awaddr = 00000018 wdata = c8b44d36 wstrb = 9 araddr = 9df9b5f0
UVM_INFO axi4_lite_scoreboard.sv(52) @ 3195: uvm_test_top.env.scb [BRESP] Matched : exp_bresp= 0 actual_bresp=0 write = 1 read = 0
UVM_INFO axi4_lite_subscriber.sv(41) @ 3225: uvm_test_top.env.sb [sb] INPUT COVERAGE = 80.21 %
UVM_INFO axi4_lite_inp_monitor.sv(44) @ 3225: uvm_test_top.env.aa.inp_mon [INPUT MONITOR]  WRITE awaddr=00000030 wdata=c09cea63 wstrb=1101 
UVM_INFO axi4_lite_out_monitor.sv(28) @ 3245: uvm_test_top.env.pa.out_mon [OUTPUT MONITOR] BRESP = 2 RRESP = 0 RDATA = 00000000
UVM_INFO axi4_lite_driver.sv(34) @ 3245: uvm_test_top.env.aa.drv [DRV] awaddr = 00000030 wdata = c09cea63 wstrb = d araddr = f31f7d64
UVM_INFO axi4_lite_scoreboard.sv(52) @ 3245: uvm_test_top.env.scb [BRESP] Matched : exp_bresp= 2 actual_bresp=2 write = 1 read = 0
UVM_INFO axi4_lite_subscriber.sv(41) @ 3295: uvm_test_top.env.sb [sb] INPUT COVERAGE = 80.21 %
UVM_INFO axi4_lite_inp_monitor.sv(44) @ 3295: uvm_test_top.env.aa.inp_mon [INPUT MONITOR]  WRITE awaddr=00000020 wdata=a0e520fd wstrb=0110 
UVM_INFO axi4_lite_out_monitor.sv(28) @ 3315: uvm_test_top.env.pa.out_mon [OUTPUT MONITOR] BRESP = 0 RRESP = 0 RDATA = 00000000
UVM_INFO axi4_lite_driver.sv(34) @ 3315: uvm_test_top.env.aa.drv [DRV] awaddr = 00000020 wdata = a0e520fd wstrb = 6 araddr = 3cb7ea84
UVM_INFO axi4_lite_scoreboard.sv(52) @ 3315: uvm_test_top.env.scb [BRESP] Matched : exp_bresp= 0 actual_bresp=0 write = 1 read = 0
UVM_INFO axi4_lite_subscriber.sv(41) @ 3365: uvm_test_top.env.sb [sb] INPUT COVERAGE = 80.21 %
UVM_INFO axi4_lite_inp_monitor.sv(44) @ 3365: uvm_test_top.env.aa.inp_mon [INPUT MONITOR]  WRITE awaddr=00000034 wdata=d5cd09a4 wstrb=1011 
UVM_INFO axi4_lite_out_monitor.sv(28) @ 3385: uvm_test_top.env.pa.out_mon [OUTPUT MONITOR] BRESP = 0 RRESP = 0 RDATA = 00000000
UVM_INFO axi4_lite_driver.sv(34) @ 3385: uvm_test_top.env.aa.drv [DRV] awaddr = 00000034 wdata = d5cd09a4 wstrb = b araddr = 255a6e9c
UVM_INFO axi4_lite_scoreboard.sv(52) @ 3385: uvm_test_top.env.scb [BRESP] Matched : exp_bresp= 0 actual_bresp=0 write = 1 read = 0
UVM_INFO axi4_lite_subscriber.sv(41) @ 3415: uvm_test_top.env.sb [sb] INPUT COVERAGE = 80.21 %
UVM_INFO axi4_lite_inp_monitor.sv(44) @ 3415: uvm_test_top.env.aa.inp_mon [INPUT MONITOR]  WRITE awaddr=00000028 wdata=44ed1a72 wstrb=0011 
UVM_INFO axi4_lite_out_monitor.sv(28) @ 3435: uvm_test_top.env.pa.out_mon [OUTPUT MONITOR] BRESP = 2 RRESP = 0 RDATA = 00000000
UVM_INFO axi4_lite_driver.sv(34) @ 3435: uvm_test_top.env.aa.drv [DRV] awaddr = 00000028 wdata = 44ed1a72 wstrb = 3 araddr = 28a10b68
UVM_INFO axi4_lite_scoreboard.sv(52) @ 3435: uvm_test_top.env.scb [BRESP] Matched : exp_bresp= 2 actual_bresp=2 write = 1 read = 0
UVM_INFO axi4_lite_subscriber.sv(41) @ 3465: uvm_test_top.env.sb [sb] INPUT COVERAGE = 80.21 %
UVM_INFO axi4_lite_inp_monitor.sv(44) @ 3465: uvm_test_top.env.aa.inp_mon [INPUT MONITOR]  WRITE awaddr=00000020 wdata=b935469f wstrb=0110 
UVM_INFO axi4_lite_out_monitor.sv(28) @ 3485: uvm_test_top.env.pa.out_mon [OUTPUT MONITOR] BRESP = 0 RRESP = 0 RDATA = 00000000
UVM_INFO axi4_lite_driver.sv(34) @ 3485: uvm_test_top.env.aa.drv [DRV] awaddr = 00000020 wdata = b935469f wstrb = 6 araddr = 444f0408
UVM_INFO axi4_lite_scoreboard.sv(52) @ 3485: uvm_test_top.env.scb [BRESP] Matched : exp_bresp= 0 actual_bresp=0 write = 1 read = 0
UVM_INFO axi4_lite_subscriber.sv(41) @ 3505: uvm_test_top.env.sb [sb] INPUT COVERAGE = 80.21 %
UVM_INFO axi4_lite_inp_monitor.sv(44) @ 3505: uvm_test_top.env.aa.inp_mon [INPUT MONITOR]  WRITE awaddr=00000038 wdata=9de995fa wstrb=1111 
UVM_INFO axi4_lite_out_monitor.sv(28) @ 3525: uvm_test_top.env.pa.out_mon [OUTPUT MONITOR] BRESP = 0 RRESP = 0 RDATA = 00000000
UVM_INFO axi4_lite_driver.sv(34) @ 3525: uvm_test_top.env.aa.drv [DRV] awaddr = 00000038 wdata = 9de995fa wstrb = f araddr = 66befcb4
UVM_INFO axi4_lite_scoreboard.sv(52) @ 3525: uvm_test_top.env.scb [BRESP] Matched : exp_bresp= 0 actual_bresp=0 write = 1 read = 0
UVM_INFO axi4_lite_subscriber.sv(41) @ 3545: uvm_test_top.env.sb [sb] INPUT COVERAGE = 80.21 %
UVM_INFO axi4_lite_inp_monitor.sv(44) @ 3545: uvm_test_top.env.aa.inp_mon [INPUT MONITOR]  WRITE awaddr=00000028 wdata=9260060c wstrb=0110 
UVM_INFO axi4_lite_out_monitor.sv(28) @ 3565: uvm_test_top.env.pa.out_mon [OUTPUT MONITOR] BRESP = 2 RRESP = 0 RDATA = 00000000
UVM_INFO axi4_lite_driver.sv(34) @ 3565: uvm_test_top.env.aa.drv [DRV] awaddr = 00000028 wdata = 9260060c wstrb = 6 araddr = 26dfc184
UVM_INFO axi4_lite_scoreboard.sv(52) @ 3565: uvm_test_top.env.scb [BRESP] Matched : exp_bresp= 2 actual_bresp=2 write = 1 read = 0
UVM_INFO axi4_lite_subscriber.sv(41) @ 3615: uvm_test_top.env.sb [sb] INPUT COVERAGE = 80.21 %
UVM_INFO axi4_lite_inp_monitor.sv(44) @ 3615: uvm_test_top.env.aa.inp_mon [INPUT MONITOR]  WRITE awaddr=00000004 wdata=130474ef wstrb=0101 
UVM_INFO axi4_lite_out_monitor.sv(28) @ 3635: uvm_test_top.env.pa.out_mon [OUTPUT MONITOR] BRESP = 0 RRESP = 0 RDATA = 00000000
UVM_INFO axi4_lite_driver.sv(34) @ 3635: uvm_test_top.env.aa.drv [DRV] awaddr = 00000004 wdata = 130474ef wstrb = 5 araddr = 1154f4fc
UVM_INFO axi4_lite_scoreboard.sv(52) @ 3635: uvm_test_top.env.scb [BRESP] Matched : exp_bresp= 0 actual_bresp=0 write = 1 read = 0
UVM_INFO axi4_lite_subscriber.sv(41) @ 3685: uvm_test_top.env.sb [sb] INPUT COVERAGE = 80.21 %
UVM_INFO axi4_lite_inp_monitor.sv(44) @ 3685: uvm_test_top.env.aa.inp_mon [INPUT MONITOR]  WRITE awaddr=00000018 wdata=86295589 wstrb=0110 
UVM_INFO axi4_lite_out_monitor.sv(28) @ 3705: uvm_test_top.env.pa.out_mon [OUTPUT MONITOR] BRESP = 0 RRESP = 0 RDATA = 00000000
UVM_INFO axi4_lite_driver.sv(34) @ 3705: uvm_test_top.env.aa.drv [DRV] awaddr = 00000018 wdata = 86295589 wstrb = 6 araddr = 8afc4828
UVM_INFO axi4_lite_scoreboard.sv(52) @ 3705: uvm_test_top.env.scb [BRESP] Matched : exp_bresp= 0 actual_bresp=0 write = 1 read = 0
UVM_INFO axi4_lite_subscriber.sv(41) @ 3745: uvm_test_top.env.sb [sb] INPUT COVERAGE = 80.21 %
UVM_INFO axi4_lite_inp_monitor.sv(44) @ 3745: uvm_test_top.env.aa.inp_mon [INPUT MONITOR]  WRITE awaddr=00000020 wdata=2b56737d wstrb=1010 
UVM_INFO axi4_lite_out_monitor.sv(28) @ 3765: uvm_test_top.env.pa.out_mon [OUTPUT MONITOR] BRESP = 0 RRESP = 0 RDATA = 00000000
UVM_INFO axi4_lite_driver.sv(34) @ 3765: uvm_test_top.env.aa.drv [DRV] awaddr = 00000020 wdata = 2b56737d wstrb = a araddr = 1346cb88
UVM_INFO axi4_lite_scoreboard.sv(52) @ 3765: uvm_test_top.env.scb [BRESP] Matched : exp_bresp= 0 actual_bresp=0 write = 1 read = 0
UVM_INFO axi4_lite_subscriber.sv(41) @ 3815: uvm_test_top.env.sb [sb] INPUT COVERAGE = 80.21 %
UVM_INFO axi4_lite_inp_monitor.sv(44) @ 3815: uvm_test_top.env.aa.inp_mon [INPUT MONITOR]  WRITE awaddr=0000002c wdata=313ea6ed wstrb=1101 
UVM_INFO axi4_lite_out_monitor.sv(28) @ 3835: uvm_test_top.env.pa.out_mon [OUTPUT MONITOR] BRESP = 2 RRESP = 0 RDATA = 00000000
UVM_INFO axi4_lite_driver.sv(34) @ 3835: uvm_test_top.env.aa.drv [DRV] awaddr = 0000002c wdata = 313ea6ed wstrb = d araddr = 6d2dc89c
UVM_INFO axi4_lite_scoreboard.sv(52) @ 3835: uvm_test_top.env.scb [BRESP] Matched : exp_bresp= 2 actual_bresp=2 write = 1 read = 0
UVM_INFO axi4_lite_subscriber.sv(41) @ 3875: uvm_test_top.env.sb [sb] INPUT COVERAGE = 80.21 %
UVM_INFO axi4_lite_inp_monitor.sv(44) @ 3875: uvm_test_top.env.aa.inp_mon [INPUT MONITOR]  WRITE awaddr=00000004 wdata=16327313 wstrb=1101 
UVM_INFO axi4_lite_out_monitor.sv(28) @ 3895: uvm_test_top.env.pa.out_mon [OUTPUT MONITOR] BRESP = 0 RRESP = 0 RDATA = 00000000
UVM_INFO axi4_lite_driver.sv(34) @ 3895: uvm_test_top.env.aa.drv [DRV] awaddr = 00000004 wdata = 16327313 wstrb = d araddr = 2a9eb330
UVM_INFO axi4_lite_scoreboard.sv(52) @ 3895: uvm_test_top.env.scb [BRESP] Matched : exp_bresp= 0 actual_bresp=0 write = 1 read = 0
UVM_INFO axi4_lite_subscriber.sv(41) @ 3935: uvm_test_top.env.sb [sb] INPUT COVERAGE = 80.21 %
UVM_INFO axi4_lite_inp_monitor.sv(44) @ 3935: uvm_test_top.env.aa.inp_mon [INPUT MONITOR]  WRITE awaddr=00000010 wdata=91289fac wstrb=1000 
UVM_INFO axi4_lite_out_monitor.sv(28) @ 3955: uvm_test_top.env.pa.out_mon [OUTPUT MONITOR] BRESP = 0 RRESP = 0 RDATA = 00000000
UVM_INFO axi4_lite_driver.sv(34) @ 3955: uvm_test_top.env.aa.drv [DRV] awaddr = 00000010 wdata = 91289fac wstrb = 8 araddr = 8b7d4ea4
UVM_INFO axi4_lite_scoreboard.sv(52) @ 3955: uvm_test_top.env.scb [BRESP] Matched : exp_bresp= 0 actual_bresp=0 write = 1 read = 0
UVM_INFO axi4_lite_subscriber.sv(41) @ 4005: uvm_test_top.env.sb [sb] INPUT COVERAGE = 80.21 %
UVM_INFO axi4_lite_inp_monitor.sv(44) @ 4005: uvm_test_top.env.aa.inp_mon [INPUT MONITOR]  WRITE awaddr=00000038 wdata=601a9f0d wstrb=1101 
UVM_INFO axi4_lite_out_monitor.sv(28) @ 4025: uvm_test_top.env.pa.out_mon [OUTPUT MONITOR] BRESP = 0 RRESP = 0 RDATA = 00000000
UVM_INFO axi4_lite_driver.sv(34) @ 4025: uvm_test_top.env.aa.drv [DRV] awaddr = 00000038 wdata = 601a9f0d wstrb = d araddr = 3281c3e4
UVM_INFO axi4_lite_scoreboard.sv(52) @ 4025: uvm_test_top.env.scb [BRESP] Matched : exp_bresp= 0 actual_bresp=0 write = 1 read = 0
UVM_INFO axi4_lite_subscriber.sv(41) @ 4065: uvm_test_top.env.sb [sb] INPUT COVERAGE = 80.21 %
UVM_INFO axi4_lite_inp_monitor.sv(44) @ 4065: uvm_test_top.env.aa.inp_mon [INPUT MONITOR]  WRITE awaddr=00000030 wdata=e1718b74 wstrb=1000 
UVM_INFO axi4_lite_out_monitor.sv(28) @ 4085: uvm_test_top.env.pa.out_mon [OUTPUT MONITOR] BRESP = 2 RRESP = 0 RDATA = 00000000
UVM_INFO axi4_lite_driver.sv(34) @ 4085: uvm_test_top.env.aa.drv [DRV] awaddr = 00000030 wdata = e1718b74 wstrb = 8 araddr = a152b5c0
UVM_INFO axi4_lite_scoreboard.sv(52) @ 4085: uvm_test_top.env.scb [BRESP] Matched : exp_bresp= 2 actual_bresp=2 write = 1 read = 0
UVM_INFO axi4_lite_subscriber.sv(41) @ 4125: uvm_test_top.env.sb [sb] INPUT COVERAGE = 80.21 %
UVM_INFO axi4_lite_inp_monitor.sv(44) @ 4125: uvm_test_top.env.aa.inp_mon [INPUT MONITOR]  WRITE awaddr=00000000 wdata=31575483 wstrb=0111 
UVM_INFO axi4_lite_out_monitor.sv(28) @ 4145: uvm_test_top.env.pa.out_mon [OUTPUT MONITOR] BRESP = 0 RRESP = 0 RDATA = 00000000
UVM_INFO axi4_lite_driver.sv(34) @ 4145: uvm_test_top.env.aa.drv [DRV] awaddr = 00000000 wdata = 31575483 wstrb = 7 araddr = 2d2add40
UVM_INFO axi4_lite_scoreboard.sv(52) @ 4145: uvm_test_top.env.scb [BRESP] Matched : exp_bresp= 0 actual_bresp=0 write = 1 read = 0
UVM_INFO axi4_lite_subscriber.sv(41) @ 4185: uvm_test_top.env.sb [sb] INPUT COVERAGE = 83.33 %
UVM_INFO axi4_lite_inp_monitor.sv(44) @ 4185: uvm_test_top.env.aa.inp_mon [INPUT MONITOR]  WRITE awaddr=00000008 wdata=6642a72f wstrb=0100 
UVM_INFO axi4_lite_out_monitor.sv(28) @ 4205: uvm_test_top.env.pa.out_mon [OUTPUT MONITOR] BRESP = 0 RRESP = 0 RDATA = 00000000
UVM_INFO axi4_lite_driver.sv(34) @ 4205: uvm_test_top.env.aa.drv [DRV] awaddr = 00000008 wdata = 6642a72f wstrb = 4 araddr = 768d65d8
UVM_INFO axi4_lite_scoreboard.sv(52) @ 4205: uvm_test_top.env.scb [BRESP] Matched : exp_bresp= 0 actual_bresp=0 write = 1 read = 0
UVM_INFO axi4_lite_subscriber.sv(41) @ 4255: uvm_test_top.env.sb [sb] INPUT COVERAGE = 83.33 %
UVM_INFO axi4_lite_inp_monitor.sv(44) @ 4255: uvm_test_top.env.aa.inp_mon [INPUT MONITOR]  WRITE awaddr=00000020 wdata=17187d69 wstrb=1000 
UVM_INFO axi4_lite_out_monitor.sv(28) @ 4275: uvm_test_top.env.pa.out_mon [OUTPUT MONITOR] BRESP = 0 RRESP = 0 RDATA = 00000000
UVM_INFO axi4_lite_driver.sv(34) @ 4275: uvm_test_top.env.aa.drv [DRV] awaddr = 00000020 wdata = 17187d69 wstrb = 8 araddr = efe477b8
UVM_INFO axi4_lite_scoreboard.sv(52) @ 4275: uvm_test_top.env.scb [BRESP] Matched : exp_bresp= 0 actual_bresp=0 write = 1 read = 0
UVM_INFO axi4_lite_subscriber.sv(41) @ 4315: uvm_test_top.env.sb [sb] INPUT COVERAGE = 83.33 %
UVM_INFO axi4_lite_inp_monitor.sv(44) @ 4315: uvm_test_top.env.aa.inp_mon [INPUT MONITOR]  WRITE awaddr=00000028 wdata=06e283ac wstrb=0101 
UVM_INFO axi4_lite_out_monitor.sv(28) @ 4335: uvm_test_top.env.pa.out_mon [OUTPUT MONITOR] BRESP = 2 RRESP = 0 RDATA = 00000000
UVM_INFO axi4_lite_driver.sv(34) @ 4335: uvm_test_top.env.aa.drv [DRV] awaddr = 00000028 wdata = 06e283ac wstrb = 5 araddr = 2a793670
UVM_INFO axi4_lite_scoreboard.sv(52) @ 4335: uvm_test_top.env.scb [BRESP] Matched : exp_bresp= 2 actual_bresp=2 write = 1 read = 0
UVM_INFO axi4_lite_subscriber.sv(41) @ 4375: uvm_test_top.env.sb [sb] INPUT COVERAGE = 83.33 %
UVM_INFO axi4_lite_inp_monitor.sv(44) @ 4375: uvm_test_top.env.aa.inp_mon [INPUT MONITOR]  WRITE awaddr=00000014 wdata=6877521f wstrb=1001 
UVM_INFO axi4_lite_out_monitor.sv(28) @ 4395: uvm_test_top.env.pa.out_mon [OUTPUT MONITOR] BRESP = 0 RRESP = 0 RDATA = 00000000
UVM_INFO axi4_lite_driver.sv(34) @ 4395: uvm_test_top.env.aa.drv [DRV] awaddr = 00000014 wdata = 6877521f wstrb = 9 araddr = 4ce5d35c
UVM_INFO axi4_lite_scoreboard.sv(52) @ 4395: uvm_test_top.env.scb [BRESP] Matched : exp_bresp= 0 actual_bresp=0 write = 1 read = 0
UVM_INFO axi4_lite_subscriber.sv(41) @ 4415: uvm_test_top.env.sb [sb] INPUT COVERAGE = 83.33 %
UVM_INFO axi4_lite_inp_monitor.sv(44) @ 4415: uvm_test_top.env.aa.inp_mon [INPUT MONITOR]  WRITE awaddr=00000034 wdata=36ae32f0 wstrb=0000 
UVM_INFO axi4_lite_out_monitor.sv(28) @ 4435: uvm_test_top.env.pa.out_mon [OUTPUT MONITOR] BRESP = 0 RRESP = 0 RDATA = 00000000
UVM_INFO axi4_lite_driver.sv(34) @ 4435: uvm_test_top.env.aa.drv [DRV] awaddr = 00000034 wdata = 36ae32f0 wstrb = 0 araddr = 697bbc8c
UVM_INFO axi4_lite_scoreboard.sv(52) @ 4435: uvm_test_top.env.scb [BRESP] Matched : exp_bresp= 0 actual_bresp=0 write = 1 read = 0
UVM_INFO axi4_lite_subscriber.sv(41) @ 4465: uvm_test_top.env.sb [sb] INPUT COVERAGE = 83.33 %
UVM_INFO axi4_lite_inp_monitor.sv(44) @ 4465: uvm_test_top.env.aa.inp_mon [INPUT MONITOR]  WRITE awaddr=0000002c wdata=c3562a6d wstrb=0001 
UVM_INFO axi4_lite_out_monitor.sv(28) @ 4485: uvm_test_top.env.pa.out_mon [OUTPUT MONITOR] BRESP = 2 RRESP = 0 RDATA = 00000000
UVM_INFO axi4_lite_driver.sv(34) @ 4485: uvm_test_top.env.aa.drv [DRV] awaddr = 0000002c wdata = c3562a6d wstrb = 1 araddr = 744ef6ac
UVM_INFO axi4_lite_scoreboard.sv(52) @ 4485: uvm_test_top.env.scb [BRESP] Matched : exp_bresp= 2 actual_bresp=2 write = 1 read = 0
UVM_INFO axi4_lite_subscriber.sv(41) @ 4525: uvm_test_top.env.sb [sb] INPUT COVERAGE = 83.33 %
UVM_INFO axi4_lite_inp_monitor.sv(44) @ 4525: uvm_test_top.env.aa.inp_mon [INPUT MONITOR]  WRITE awaddr=0000002c wdata=1a40e372 wstrb=0100 
UVM_INFO axi4_lite_out_monitor.sv(28) @ 4545: uvm_test_top.env.pa.out_mon [OUTPUT MONITOR] BRESP = 2 RRESP = 0 RDATA = 00000000
UVM_INFO axi4_lite_driver.sv(34) @ 4545: uvm_test_top.env.aa.drv [DRV] awaddr = 0000002c wdata = 1a40e372 wstrb = 4 araddr = 137e1774
UVM_INFO axi4_lite_scoreboard.sv(52) @ 4545: uvm_test_top.env.scb [BRESP] Matched : exp_bresp= 2 actual_bresp=2 write = 1 read = 0
UVM_INFO axi4_lite_subscriber.sv(41) @ 4595: uvm_test_top.env.sb [sb] INPUT COVERAGE = 83.33 %
UVM_INFO axi4_lite_inp_monitor.sv(44) @ 4595: uvm_test_top.env.aa.inp_mon [INPUT MONITOR]  WRITE awaddr=00000018 wdata=6c1c93e4 wstrb=0000 
UVM_INFO axi4_lite_out_monitor.sv(28) @ 4615: uvm_test_top.env.pa.out_mon [OUTPUT MONITOR] BRESP = 0 RRESP = 0 RDATA = 00000000
UVM_INFO axi4_lite_driver.sv(34) @ 4615: uvm_test_top.env.aa.drv [DRV] awaddr = 00000018 wdata = 6c1c93e4 wstrb = 0 araddr = 3d750da8
UVM_INFO axi4_lite_scoreboard.sv(52) @ 4615: uvm_test_top.env.scb [BRESP] Matched : exp_bresp= 0 actual_bresp=0 write = 1 read = 0
UVM_INFO axi4_lite_subscriber.sv(41) @ 4665: uvm_test_top.env.sb [sb] INPUT COVERAGE = 83.33 %
UVM_INFO axi4_lite_inp_monitor.sv(44) @ 4665: uvm_test_top.env.aa.inp_mon [INPUT MONITOR]  WRITE awaddr=00000008 wdata=fe6bd3e6 wstrb=0110 
UVM_INFO axi4_lite_out_monitor.sv(28) @ 4685: uvm_test_top.env.pa.out_mon [OUTPUT MONITOR] BRESP = 0 RRESP = 0 RDATA = 00000000
UVM_INFO axi4_lite_driver.sv(34) @ 4685: uvm_test_top.env.aa.drv [DRV] awaddr = 00000008 wdata = fe6bd3e6 wstrb = 6 araddr = 1735d0d4
UVM_INFO axi4_lite_scoreboard.sv(52) @ 4685: uvm_test_top.env.scb [BRESP] Matched : exp_bresp= 0 actual_bresp=0 write = 1 read = 0
UVM_INFO axi4_lite_subscriber.sv(41) @ 4725: uvm_test_top.env.sb [sb] INPUT COVERAGE = 83.33 %
UVM_INFO axi4_lite_inp_monitor.sv(44) @ 4725: uvm_test_top.env.aa.inp_mon [INPUT MONITOR]  WRITE awaddr=00000000 wdata=ef50ac0f wstrb=1111 
UVM_INFO axi4_lite_out_monitor.sv(28) @ 4745: uvm_test_top.env.pa.out_mon [OUTPUT MONITOR] BRESP = 0 RRESP = 0 RDATA = 00000000
UVM_INFO axi4_lite_driver.sv(34) @ 4745: uvm_test_top.env.aa.drv [DRV] awaddr = 00000000 wdata = ef50ac0f wstrb = f araddr = 7651f010
UVM_INFO axi4_lite_scoreboard.sv(52) @ 4745: uvm_test_top.env.scb [BRESP] Matched : exp_bresp= 0 actual_bresp=0 write = 1 read = 0
UVM_INFO axi4_lite_subscriber.sv(41) @ 4785: uvm_test_top.env.sb [sb] INPUT COVERAGE = 83.33 %
UVM_INFO axi4_lite_inp_monitor.sv(44) @ 4785: uvm_test_top.env.aa.inp_mon [INPUT MONITOR]  WRITE awaddr=0000000c wdata=63c86261 wstrb=0100 
UVM_INFO axi4_lite_out_monitor.sv(28) @ 4805: uvm_test_top.env.pa.out_mon [OUTPUT MONITOR] BRESP = 0 RRESP = 0 RDATA = 00000000
UVM_INFO axi4_lite_driver.sv(34) @ 4805: uvm_test_top.env.aa.drv [DRV] awaddr = 0000000c wdata = 63c86261 wstrb = 4 araddr = 2df5df50
UVM_INFO axi4_lite_scoreboard.sv(52) @ 4805: uvm_test_top.env.scb [BRESP] Matched : exp_bresp= 0 actual_bresp=0 write = 1 read = 0
UVM_INFO axi4_lite_subscriber.sv(41) @ 4845: uvm_test_top.env.sb [sb] INPUT COVERAGE = 83.33 %
UVM_INFO axi4_lite_inp_monitor.sv(44) @ 4845: uvm_test_top.env.aa.inp_mon [INPUT MONITOR]  WRITE awaddr=00000010 wdata=b5905fe1 wstrb=0011 
UVM_INFO axi4_lite_out_monitor.sv(28) @ 4865: uvm_test_top.env.pa.out_mon [OUTPUT MONITOR] BRESP = 0 RRESP = 0 RDATA = 00000000
UVM_INFO axi4_lite_driver.sv(34) @ 4865: uvm_test_top.env.aa.drv [DRV] awaddr = 00000010 wdata = b5905fe1 wstrb = 3 araddr = 8647b7b4
UVM_INFO axi4_lite_scoreboard.sv(52) @ 4865: uvm_test_top.env.scb [BRESP] Matched : exp_bresp= 0 actual_bresp=0 write = 1 read = 0
UVM_INFO axi4_lite_subscriber.sv(41) @ 4895: uvm_test_top.env.sb [sb] INPUT COVERAGE = 83.33 %
UVM_INFO axi4_lite_inp_monitor.sv(44) @ 4895: uvm_test_top.env.aa.inp_mon [INPUT MONITOR]  WRITE awaddr=0000001c wdata=9193aa3f wstrb=0001 
UVM_INFO axi4_lite_out_monitor.sv(28) @ 4915: uvm_test_top.env.pa.out_mon [OUTPUT MONITOR] BRESP = 0 RRESP = 0 RDATA = 00000000
UVM_INFO axi4_lite_driver.sv(34) @ 4915: uvm_test_top.env.aa.drv [DRV] awaddr = 0000001c wdata = 9193aa3f wstrb = 1 araddr = c3ee06c0
UVM_INFO axi4_lite_scoreboard.sv(52) @ 4915: uvm_test_top.env.scb [BRESP] Matched : exp_bresp= 0 actual_bresp=0 write = 1 read = 0
UVM_INFO axi4_lite_subscriber.sv(41) @ 4955: uvm_test_top.env.sb [sb] INPUT COVERAGE = 83.33 %
UVM_INFO axi4_lite_inp_monitor.sv(44) @ 4955: uvm_test_top.env.aa.inp_mon [INPUT MONITOR]  WRITE awaddr=00000028 wdata=dc0632fe wstrb=1000 
UVM_INFO axi4_lite_out_monitor.sv(28) @ 4975: uvm_test_top.env.pa.out_mon [OUTPUT MONITOR] BRESP = 2 RRESP = 0 RDATA = 00000000
UVM_INFO axi4_lite_driver.sv(34) @ 4975: uvm_test_top.env.aa.drv [DRV] awaddr = 00000028 wdata = dc0632fe wstrb = 8 araddr = c2173bc8
UVM_INFO axi4_lite_scoreboard.sv(52) @ 4975: uvm_test_top.env.scb [BRESP] Matched : exp_bresp= 2 actual_bresp=2 write = 1 read = 0
UVM_INFO axi4_lite_subscriber.sv(41) @ 5015: uvm_test_top.env.sb [sb] INPUT COVERAGE = 83.33 %
UVM_INFO axi4_lite_inp_monitor.sv(44) @ 5015: uvm_test_top.env.aa.inp_mon [INPUT MONITOR]  WRITE awaddr=00000008 wdata=9d87f5e5 wstrb=0000 
UVM_INFO axi4_lite_out_monitor.sv(28) @ 5035: uvm_test_top.env.pa.out_mon [OUTPUT MONITOR] BRESP = 0 RRESP = 0 RDATA = 00000000
UVM_INFO axi4_lite_driver.sv(34) @ 5035: uvm_test_top.env.aa.drv [DRV] awaddr = 00000008 wdata = 9d87f5e5 wstrb = 0 araddr = 2d91a6b0
UVM_INFO axi4_lite_scoreboard.sv(52) @ 5035: uvm_test_top.env.scb [BRESP] Matched : exp_bresp= 0 actual_bresp=0 write = 1 read = 0
UVM_INFO axi4_lite_subscriber.sv(41) @ 5055: uvm_test_top.env.sb [sb] INPUT COVERAGE = 83.33 %
UVM_INFO axi4_lite_inp_monitor.sv(44) @ 5055: uvm_test_top.env.aa.inp_mon [INPUT MONITOR]  WRITE awaddr=00000028 wdata=db8f05aa wstrb=1111 
UVM_INFO axi4_lite_out_monitor.sv(28) @ 5075: uvm_test_top.env.pa.out_mon [OUTPUT MONITOR] BRESP = 2 RRESP = 0 RDATA = 00000000
UVM_INFO axi4_lite_driver.sv(34) @ 5075: uvm_test_top.env.aa.drv [DRV] awaddr = 00000028 wdata = db8f05aa wstrb = f araddr = 892b5e10
UVM_INFO axi4_lite_scoreboard.sv(52) @ 5075: uvm_test_top.env.scb [BRESP] Matched : exp_bresp= 2 actual_bresp=2 write = 1 read = 0
UVM_INFO axi4_lite_subscriber.sv(41) @ 5115: uvm_test_top.env.sb [sb] INPUT COVERAGE = 83.33 %
UVM_INFO axi4_lite_inp_monitor.sv(44) @ 5115: uvm_test_top.env.aa.inp_mon [INPUT MONITOR]  WRITE awaddr=00000010 wdata=3a658674 wstrb=0101 
UVM_INFO axi4_lite_out_monitor.sv(28) @ 5135: uvm_test_top.env.pa.out_mon [OUTPUT MONITOR] BRESP = 0 RRESP = 0 RDATA = 00000000
UVM_INFO axi4_lite_driver.sv(34) @ 5135: uvm_test_top.env.aa.drv [DRV] awaddr = 00000010 wdata = 3a658674 wstrb = 5 araddr = 13f3cc98
UVM_INFO axi4_lite_scoreboard.sv(52) @ 5135: uvm_test_top.env.scb [BRESP] Matched : exp_bresp= 0 actual_bresp=0 write = 1 read = 0
UVM_INFO axi4_lite_subscriber.sv(41) @ 5175: uvm_test_top.env.sb [sb] INPUT COVERAGE = 83.33 %
UVM_INFO axi4_lite_inp_monitor.sv(44) @ 5175: uvm_test_top.env.aa.inp_mon [INPUT MONITOR]  WRITE awaddr=0000000c wdata=a3eb1990 wstrb=1100 
UVM_INFO axi4_lite_out_monitor.sv(28) @ 5195: uvm_test_top.env.pa.out_mon [OUTPUT MONITOR] BRESP = 0 RRESP = 0 RDATA = 00000000
UVM_INFO axi4_lite_driver.sv(34) @ 5195: uvm_test_top.env.aa.drv [DRV] awaddr = 0000000c wdata = a3eb1990 wstrb = c araddr = a2c1d5fc
UVM_INFO axi4_lite_scoreboard.sv(52) @ 5195: uvm_test_top.env.scb [BRESP] Matched : exp_bresp= 0 actual_bresp=0 write = 1 read = 0
UVM_INFO axi4_lite_subscriber.sv(41) @ 5245: uvm_test_top.env.sb [sb] INPUT COVERAGE = 83.33 %
UVM_INFO axi4_lite_inp_monitor.sv(44) @ 5245: uvm_test_top.env.aa.inp_mon [INPUT MONITOR]  WRITE awaddr=00000004 wdata=585bc74e wstrb=0010 
UVM_INFO axi4_lite_out_monitor.sv(28) @ 5265: uvm_test_top.env.pa.out_mon [OUTPUT MONITOR] BRESP = 0 RRESP = 0 RDATA = 00000000
UVM_INFO axi4_lite_driver.sv(34) @ 5265: uvm_test_top.env.aa.drv [DRV] awaddr = 00000004 wdata = 585bc74e wstrb = 2 araddr = 667f8130
UVM_INFO axi4_lite_scoreboard.sv(52) @ 5265: uvm_test_top.env.scb [BRESP] Matched : exp_bresp= 0 actual_bresp=0 write = 1 read = 0
UVM_INFO axi4_lite_subscriber.sv(41) @ 5315: uvm_test_top.env.sb [sb] INPUT COVERAGE = 83.33 %
UVM_INFO axi4_lite_inp_monitor.sv(44) @ 5315: uvm_test_top.env.aa.inp_mon [INPUT MONITOR]  WRITE awaddr=00000028 wdata=dacb972f wstrb=1001 
UVM_INFO axi4_lite_out_monitor.sv(28) @ 5335: uvm_test_top.env.pa.out_mon [OUTPUT MONITOR] BRESP = 2 RRESP = 0 RDATA = 00000000
UVM_INFO axi4_lite_driver.sv(34) @ 5335: uvm_test_top.env.aa.drv [DRV] awaddr = 00000028 wdata = dacb972f wstrb = 9 araddr = f4c30334
UVM_INFO axi4_lite_scoreboard.sv(52) @ 5335: uvm_test_top.env.scb [BRESP] Matched : exp_bresp= 2 actual_bresp=2 write = 1 read = 0
UVM_INFO axi4_lite_subscriber.sv(41) @ 5375: uvm_test_top.env.sb [sb] INPUT COVERAGE = 83.33 %
UVM_INFO axi4_lite_inp_monitor.sv(44) @ 5375: uvm_test_top.env.aa.inp_mon [INPUT MONITOR]  WRITE awaddr=00000034 wdata=32913be7 wstrb=1001 
UVM_INFO axi4_lite_out_monitor.sv(28) @ 5395: uvm_test_top.env.pa.out_mon [OUTPUT MONITOR] BRESP = 0 RRESP = 0 RDATA = 00000000
UVM_INFO axi4_lite_driver.sv(34) @ 5395: uvm_test_top.env.aa.drv [DRV] awaddr = 00000034 wdata = 32913be7 wstrb = 9 araddr = 6f26b664
UVM_INFO axi4_lite_scoreboard.sv(52) @ 5395: uvm_test_top.env.scb [BRESP] Matched : exp_bresp= 0 actual_bresp=0 write = 1 read = 0
UVM_INFO axi4_lite_subscriber.sv(41) @ 5425: uvm_test_top.env.sb [sb] INPUT COVERAGE = 83.33 %
UVM_INFO axi4_lite_inp_monitor.sv(44) @ 5425: uvm_test_top.env.aa.inp_mon [INPUT MONITOR]  WRITE awaddr=00000010 wdata=ad993245 wstrb=1110 
UVM_INFO axi4_lite_out_monitor.sv(28) @ 5445: uvm_test_top.env.pa.out_mon [OUTPUT MONITOR] BRESP = 0 RRESP = 0 RDATA = 00000000
UVM_INFO axi4_lite_driver.sv(34) @ 5445: uvm_test_top.env.aa.drv [DRV] awaddr = 00000010 wdata = ad993245 wstrb = e araddr = fccfc420
UVM_INFO axi4_lite_scoreboard.sv(52) @ 5445: uvm_test_top.env.scb [BRESP] Matched : exp_bresp= 0 actual_bresp=0 write = 1 read = 0
UVM_INFO axi4_lite_subscriber.sv(41) @ 5485: uvm_test_top.env.sb [sb] INPUT COVERAGE = 83.33 %
UVM_INFO axi4_lite_inp_monitor.sv(44) @ 5485: uvm_test_top.env.aa.inp_mon [INPUT MONITOR]  WRITE awaddr=00000024 wdata=12b6b27f wstrb=1010 
UVM_INFO axi4_lite_out_monitor.sv(28) @ 5505: uvm_test_top.env.pa.out_mon [OUTPUT MONITOR] BRESP = 0 RRESP = 0 RDATA = 00000000
UVM_INFO axi4_lite_driver.sv(34) @ 5505: uvm_test_top.env.aa.drv [DRV] awaddr = 00000024 wdata = 12b6b27f wstrb = a araddr = 1dafef28
UVM_INFO axi4_lite_scoreboard.sv(52) @ 5505: uvm_test_top.env.scb [BRESP] Matched : exp_bresp= 0 actual_bresp=0 write = 1 read = 0
UVM_INFO axi4_lite_subscriber.sv(41) @ 5545: uvm_test_top.env.sb [sb] INPUT COVERAGE = 83.33 %
UVM_INFO axi4_lite_inp_monitor.sv(44) @ 5545: uvm_test_top.env.aa.inp_mon [INPUT MONITOR]  WRITE awaddr=00000004 wdata=cd1b9b72 wstrb=1110 
UVM_INFO axi4_lite_out_monitor.sv(28) @ 5565: uvm_test_top.env.pa.out_mon [OUTPUT MONITOR] BRESP = 0 RRESP = 0 RDATA = 00000000
UVM_INFO axi4_lite_driver.sv(34) @ 5565: uvm_test_top.env.aa.drv [DRV] awaddr = 00000004 wdata = cd1b9b72 wstrb = e araddr = 96eaebd8
UVM_INFO axi4_lite_scoreboard.sv(52) @ 5565: uvm_test_top.env.scb [BRESP] Matched : exp_bresp= 0 actual_bresp=0 write = 1 read = 0
UVM_INFO axi4_lite_subscriber.sv(41) @ 5605: uvm_test_top.env.sb [sb] INPUT COVERAGE = 83.33 %
UVM_INFO axi4_lite_inp_monitor.sv(44) @ 5605: uvm_test_top.env.aa.inp_mon [INPUT MONITOR]  WRITE awaddr=0000002c wdata=17e8ef4e wstrb=0010 
UVM_INFO axi4_lite_out_monitor.sv(28) @ 5625: uvm_test_top.env.pa.out_mon [OUTPUT MONITOR] BRESP = 2 RRESP = 0 RDATA = 00000000
UVM_INFO axi4_lite_driver.sv(34) @ 5625: uvm_test_top.env.aa.drv [DRV] awaddr = 0000002c wdata = 17e8ef4e wstrb = 2 araddr = 1ba4e50c
UVM_INFO axi4_lite_scoreboard.sv(52) @ 5625: uvm_test_top.env.scb [BRESP] Matched : exp_bresp= 2 actual_bresp=2 write = 1 read = 0
UVM_INFO axi4_lite_subscriber.sv(41) @ 5675: uvm_test_top.env.sb [sb] INPUT COVERAGE = 83.33 %
UVM_INFO axi4_lite_inp_monitor.sv(44) @ 5675: uvm_test_top.env.aa.inp_mon [INPUT MONITOR]  WRITE awaddr=00000038 wdata=1db2bcbe wstrb=1010 
UVM_INFO axi4_lite_out_monitor.sv(28) @ 5695: uvm_test_top.env.pa.out_mon [OUTPUT MONITOR] BRESP = 0 RRESP = 0 RDATA = 00000000
UVM_INFO axi4_lite_driver.sv(34) @ 5695: uvm_test_top.env.aa.drv [DRV] awaddr = 00000038 wdata = 1db2bcbe wstrb = a araddr = 77995b00
UVM_INFO axi4_lite_scoreboard.sv(52) @ 5695: uvm_test_top.env.scb [BRESP] Matched : exp_bresp= 0 actual_bresp=0 write = 1 read = 0
UVM_INFO axi4_lite_subscriber.sv(41) @ 5745: uvm_test_top.env.sb [sb] INPUT COVERAGE = 83.33 %
UVM_INFO axi4_lite_inp_monitor.sv(44) @ 5745: uvm_test_top.env.aa.inp_mon [INPUT MONITOR]  WRITE awaddr=00000018 wdata=1df69b6d wstrb=0001 
UVM_INFO axi4_lite_out_monitor.sv(28) @ 5765: uvm_test_top.env.pa.out_mon [OUTPUT MONITOR] BRESP = 0 RRESP = 0 RDATA = 00000000
UVM_INFO axi4_lite_driver.sv(34) @ 5765: uvm_test_top.env.aa.drv [DRV] awaddr = 00000018 wdata = 1df69b6d wstrb = 1 araddr = ad488980
UVM_INFO axi4_lite_scoreboard.sv(52) @ 5765: uvm_test_top.env.scb [BRESP] Matched : exp_bresp= 0 actual_bresp=0 write = 1 read = 0
UVM_INFO axi4_lite_subscriber.sv(41) @ 5785: uvm_test_top.env.sb [sb] INPUT COVERAGE = 83.33 %
UVM_INFO axi4_lite_inp_monitor.sv(44) @ 5785: uvm_test_top.env.aa.inp_mon [INPUT MONITOR]  WRITE awaddr=00000028 wdata=b571aaa9 wstrb=0101 
UVM_INFO axi4_lite_out_monitor.sv(28) @ 5805: uvm_test_top.env.pa.out_mon [OUTPUT MONITOR] BRESP = 2 RRESP = 0 RDATA = 00000000
UVM_INFO axi4_lite_driver.sv(34) @ 5805: uvm_test_top.env.aa.drv [DRV] awaddr = 00000028 wdata = b571aaa9 wstrb = 5 araddr = 21964490
UVM_INFO axi4_lite_scoreboard.sv(52) @ 5805: uvm_test_top.env.scb [BRESP] Matched : exp_bresp= 2 actual_bresp=2 write = 1 read = 0
UVM_INFO axi4_lite_test.sv(27) @ 5805: uvm_test_top [TEST] Write completed
UVM_INFO /fetools/synopsys/installed_tools/vcs/vcs/Q-2020.03-SP2-8/etc/uvm/base/uvm_objection.svh(1274) @ 5805: reporter [TEST_DONE] 'run' phase is ready to proceed to the 'extract' phase

--- UVM Report Summary ---

** Report counts by severity
UVM_INFO :  504
UVM_WARNING :    0
UVM_ERROR :    0
UVM_FATAL :    0
** Report counts by id
[BRESP]   100
[DRV]   100
[INPUT MONITOR]   100
[OUTPUT MONITOR]   100
[RNTST]     1
[TEST]     1
[TEST_DONE]     1
[UVMTOP]     1
[sb]   100
$finish called from file "/fetools/synopsys/installed_tools/vcs/vcs/Q-2020.03-SP2-8/etc/uvm/base/uvm_root.svh", line 437.
$finish at simulation time                 5805

---------------------------------------------------------------------------
VCS Coverage Metrics: during simulation line, cond, FSM, branch, tgl was monitored
---------------------------------------------------------------------------
           V C S   S i m u l a t i o n   R e p o r t 
Time: 5805 ns
CPU Time:      0.570 seconds;       Data structure size:   0.4Mb
Fri Sep 18 16:06:51 2026
