Command: /fetools/work_area/frontend/Batch_11/ananyaganesh/system_verilog/AXI4_LITE_SLAVE/src/work/simv +UVM_TESTNAME=axi4_lite_test_write +UVM_VERBOSITY=UVM_HIGH +ntb_random_seed=6750 -cm line+cond+fsm+tgl+branch+assert -cm_dir work/regression.vdb -cm_name axi4_lite_test_write_6750 -l work/logs/axi4_lite_test_write_6750.log +UVM_NO_RELNOTES
Chronologic VCS simulator copyright 1991-2020
Contains Synopsys proprietary information.
Compiler version Q-2020.03-SP2-8_Full64; Runtime version Q-2020.03-SP2-8_Full64;  Sep 17 21:45 2026
----------------------------------------------------------------
UVM-1.1d.Synopsys
(C) 2007-2013 Mentor Graphics Corporation
(C) 2007-2013 Cadence Design Systems, Inc.
(C) 2006-2013 Synopsys, Inc.
(C) 2011-2013 Cypress Semiconductor Corp.
----------------------------------------------------------------
UVM_INFO @ 0: reporter [RNTST] Running test axi4_lite_test_write...
UVM_INFO @ 0: reporter [UVMTOP] UVM testbench topology:
---------------------------------------------------------------
Name                       Type                     Size  Value
---------------------------------------------------------------
uvm_test_top               axi4_lite_test_write     -     @469 
  env                      axi4_lite_environment    -     @477 
    aa                     axi4_lite_active_agent   -     @489 
      drv                  axi4_lite_driver         -     @569 
        rsp_port           uvm_analysis_port        -     @586 
        seq_item_port      uvm_seq_item_pull_port   -     @577 
      inp_mon              axi4_lite_inp_monitor    -     @552 
        inp_mon_port       uvm_analysis_port        -     @560 
      seqr                 axi4_lite_seqr           -     @595 
        rsp_export         uvm_analysis_export      -     @603 
        seq_item_export    uvm_seq_item_pull_imp    -     @709 
        arbitration_queue  array                    0     -    
        lock_queue         array                    0     -    
        num_last_reqs      integral                 32    'd1  
        num_last_rsps      integral                 32    'd1  
    pa                     axi4_lite_passive_agent  -     @497 
      out_mon              axi4_lite_out_monitor    -     @726 
        out_mon_port       uvm_analysis_port        -     @734 
    sb                     axi4_lite_subscriber     -     @531 
      analysis_imp         uvm_analysis_imp         -     @539 
    scb                    axi4_lite_scoreboard     -     @505 
      inp_port             uvm_analysis_imp_in      -     @513 
      out_port             uvm_analysis_imp_out     -     @522 
---------------------------------------------------------------

UVM_INFO axi4_lite_subscriber.sv(41) @ 35: uvm_test_top.env.sb [sb] INPUT COVERAGE = 25.00 %
UVM_INFO axi4_lite_inp_monitor.sv(44) @ 35: uvm_test_top.env.aa.inp_mon [INPUT MONITOR]  WRITE awaddr=00000034 wdata=41243272 wstrb=1001 
UVM_INFO axi4_lite_out_monitor.sv(28) @ 55: uvm_test_top.env.pa.out_mon [OUTPUT MONITOR] BRESP = 0 RRESP = 0 RDATA = 00000000
UVM_INFO axi4_lite_driver.sv(34) @ 55: uvm_test_top.env.aa.drv [DRV] awaddr = 00000034 wdata = 41243272 wstrb = 9 araddr = e6677428
UVM_INFO axi4_lite_scoreboard.sv(52) @ 55: uvm_test_top.env.scb [BRESP] Matched : exp_bresp= 0 actual_bresp=0 write = 1 read = 0
UVM_INFO axi4_lite_subscriber.sv(41) @ 105: uvm_test_top.env.sb [sb] INPUT COVERAGE = 41.67 %
UVM_INFO axi4_lite_inp_monitor.sv(44) @ 105: uvm_test_top.env.aa.inp_mon [INPUT MONITOR]  WRITE awaddr=0000002c wdata=9823af33 wstrb=0111 
UVM_INFO axi4_lite_out_monitor.sv(28) @ 125: uvm_test_top.env.pa.out_mon [OUTPUT MONITOR] BRESP = 2 RRESP = 0 RDATA = 00000000
UVM_INFO axi4_lite_driver.sv(34) @ 125: uvm_test_top.env.aa.drv [DRV] awaddr = 0000002c wdata = 9823af33 wstrb = 7 araddr = 1d6eb774
UVM_INFO axi4_lite_scoreboard.sv(52) @ 125: uvm_test_top.env.scb [BRESP] Matched : exp_bresp= 2 actual_bresp=2 write = 1 read = 0
UVM_INFO axi4_lite_subscriber.sv(41) @ 145: uvm_test_top.env.sb [sb] INPUT COVERAGE = 50.00 %
UVM_INFO axi4_lite_inp_monitor.sv(44) @ 145: uvm_test_top.env.aa.inp_mon [INPUT MONITOR]  WRITE awaddr=00000010 wdata=2d04fd50 wstrb=1001 
UVM_INFO axi4_lite_out_monitor.sv(28) @ 165: uvm_test_top.env.pa.out_mon [OUTPUT MONITOR] BRESP = 0 RRESP = 0 RDATA = 00000000
UVM_INFO axi4_lite_driver.sv(34) @ 165: uvm_test_top.env.aa.drv [DRV] awaddr = 00000010 wdata = 2d04fd50 wstrb = 9 araddr = 24ac16f8
UVM_INFO axi4_lite_scoreboard.sv(52) @ 165: uvm_test_top.env.scb [BRESP] Matched : exp_bresp= 0 actual_bresp=0 write = 1 read = 0
UVM_INFO axi4_lite_subscriber.sv(41) @ 205: uvm_test_top.env.sb [sb] INPUT COVERAGE = 61.46 %
UVM_INFO axi4_lite_inp_monitor.sv(44) @ 205: uvm_test_top.env.aa.inp_mon [INPUT MONITOR]  WRITE awaddr=00000038 wdata=dbaaf9c0 wstrb=0011 
UVM_INFO axi4_lite_out_monitor.sv(28) @ 225: uvm_test_top.env.pa.out_mon [OUTPUT MONITOR] BRESP = 0 RRESP = 0 RDATA = 00000000
UVM_INFO axi4_lite_driver.sv(34) @ 225: uvm_test_top.env.aa.drv [DRV] awaddr = 00000038 wdata = dbaaf9c0 wstrb = 3 araddr = 958b92c0
UVM_INFO axi4_lite_scoreboard.sv(52) @ 225: uvm_test_top.env.scb [BRESP] Matched : exp_bresp= 0 actual_bresp=0 write = 1 read = 0
UVM_INFO axi4_lite_subscriber.sv(41) @ 275: uvm_test_top.env.sb [sb] INPUT COVERAGE = 61.46 %
UVM_INFO axi4_lite_inp_monitor.sv(44) @ 275: uvm_test_top.env.aa.inp_mon [INPUT MONITOR]  WRITE awaddr=00000024 wdata=55c1f5cb wstrb=1110 
UVM_INFO axi4_lite_out_monitor.sv(28) @ 295: uvm_test_top.env.pa.out_mon [OUTPUT MONITOR] BRESP = 0 RRESP = 0 RDATA = 00000000
UVM_INFO axi4_lite_driver.sv(34) @ 295: uvm_test_top.env.aa.drv [DRV] awaddr = 00000024 wdata = 55c1f5cb wstrb = e araddr = 50acd750
UVM_INFO axi4_lite_scoreboard.sv(52) @ 295: uvm_test_top.env.scb [BRESP] Matched : exp_bresp= 0 actual_bresp=0 write = 1 read = 0
UVM_INFO axi4_lite_subscriber.sv(41) @ 325: uvm_test_top.env.sb [sb] INPUT COVERAGE = 61.46 %
UVM_INFO axi4_lite_inp_monitor.sv(44) @ 325: uvm_test_top.env.aa.inp_mon [INPUT MONITOR]  WRITE awaddr=00000034 wdata=d832880e wstrb=1010 
UVM_INFO axi4_lite_out_monitor.sv(28) @ 345: uvm_test_top.env.pa.out_mon [OUTPUT MONITOR] BRESP = 0 RRESP = 0 RDATA = 00000000
UVM_INFO axi4_lite_driver.sv(34) @ 345: uvm_test_top.env.aa.drv [DRV] awaddr = 00000034 wdata = d832880e wstrb = a araddr = 19dad568
UVM_INFO axi4_lite_scoreboard.sv(52) @ 345: uvm_test_top.env.scb [BRESP] Matched : exp_bresp= 0 actual_bresp=0 write = 1 read = 0
UVM_INFO axi4_lite_subscriber.sv(41) @ 385: uvm_test_top.env.sb [sb] INPUT COVERAGE = 61.46 %
UVM_INFO axi4_lite_inp_monitor.sv(44) @ 385: uvm_test_top.env.aa.inp_mon [INPUT MONITOR]  WRITE awaddr=00000030 wdata=6cd01e01 wstrb=0011 
UVM_INFO axi4_lite_out_monitor.sv(28) @ 405: uvm_test_top.env.pa.out_mon [OUTPUT MONITOR] BRESP = 2 RRESP = 0 RDATA = 00000000
UVM_INFO axi4_lite_driver.sv(34) @ 405: uvm_test_top.env.aa.drv [DRV] awaddr = 00000030 wdata = 6cd01e01 wstrb = 3 araddr = 05aa9e88
UVM_INFO axi4_lite_scoreboard.sv(52) @ 405: uvm_test_top.env.scb [BRESP] Matched : exp_bresp= 2 actual_bresp=2 write = 1 read = 0
UVM_INFO axi4_lite_subscriber.sv(41) @ 435: uvm_test_top.env.sb [sb] INPUT COVERAGE = 64.58 %
UVM_INFO axi4_lite_inp_monitor.sv(44) @ 435: uvm_test_top.env.aa.inp_mon [INPUT MONITOR]  WRITE awaddr=00000030 wdata=aa17064e wstrb=0100 
UVM_INFO axi4_lite_out_monitor.sv(28) @ 455: uvm_test_top.env.pa.out_mon [OUTPUT MONITOR] BRESP = 2 RRESP = 0 RDATA = 00000000
UVM_INFO axi4_lite_driver.sv(34) @ 455: uvm_test_top.env.aa.drv [DRV] awaddr = 00000030 wdata = aa17064e wstrb = 4 araddr = efbaff5c
UVM_INFO axi4_lite_scoreboard.sv(52) @ 455: uvm_test_top.env.scb [BRESP] Matched : exp_bresp= 2 actual_bresp=2 write = 1 read = 0
UVM_INFO axi4_lite_subscriber.sv(41) @ 485: uvm_test_top.env.sb [sb] INPUT COVERAGE = 67.71 %
UVM_INFO axi4_lite_inp_monitor.sv(44) @ 485: uvm_test_top.env.aa.inp_mon [INPUT MONITOR]  WRITE awaddr=00000004 wdata=106cbe9c wstrb=1000 
UVM_INFO axi4_lite_out_monitor.sv(28) @ 505: uvm_test_top.env.pa.out_mon [OUTPUT MONITOR] BRESP = 0 RRESP = 0 RDATA = 00000000
UVM_INFO axi4_lite_driver.sv(34) @ 505: uvm_test_top.env.aa.drv [DRV] awaddr = 00000004 wdata = 106cbe9c wstrb = 8 araddr = c1d98a60
UVM_INFO axi4_lite_scoreboard.sv(52) @ 505: uvm_test_top.env.scb [BRESP] Matched : exp_bresp= 0 actual_bresp=0 write = 1 read = 0
UVM_INFO axi4_lite_subscriber.sv(41) @ 535: uvm_test_top.env.sb [sb] INPUT COVERAGE = 67.71 %
UVM_INFO axi4_lite_inp_monitor.sv(44) @ 535: uvm_test_top.env.aa.inp_mon [INPUT MONITOR]  WRITE awaddr=00000000 wdata=a3b0a8b6 wstrb=1010 
UVM_INFO axi4_lite_out_monitor.sv(28) @ 555: uvm_test_top.env.pa.out_mon [OUTPUT MONITOR] BRESP = 0 RRESP = 0 RDATA = 00000000
UVM_INFO axi4_lite_driver.sv(34) @ 555: uvm_test_top.env.aa.drv [DRV] awaddr = 00000000 wdata = a3b0a8b6 wstrb = a araddr = 77348068
UVM_INFO axi4_lite_scoreboard.sv(52) @ 555: uvm_test_top.env.scb [BRESP] Matched : exp_bresp= 0 actual_bresp=0 write = 1 read = 0
UVM_INFO axi4_lite_subscriber.sv(41) @ 585: uvm_test_top.env.sb [sb] INPUT COVERAGE = 67.71 %
UVM_INFO axi4_lite_inp_monitor.sv(44) @ 585: uvm_test_top.env.aa.inp_mon [INPUT MONITOR]  WRITE awaddr=00000034 wdata=4b75dc2e wstrb=0100 
UVM_INFO axi4_lite_out_monitor.sv(28) @ 605: uvm_test_top.env.pa.out_mon [OUTPUT MONITOR] BRESP = 0 RRESP = 0 RDATA = 00000000
UVM_INFO axi4_lite_driver.sv(34) @ 605: uvm_test_top.env.aa.drv [DRV] awaddr = 00000034 wdata = 4b75dc2e wstrb = 4 araddr = 8321fad4
UVM_INFO axi4_lite_scoreboard.sv(52) @ 605: uvm_test_top.env.scb [BRESP] Matched : exp_bresp= 0 actual_bresp=0 write = 1 read = 0
UVM_INFO axi4_lite_subscriber.sv(41) @ 655: uvm_test_top.env.sb [sb] INPUT COVERAGE = 70.83 %
UVM_INFO axi4_lite_inp_monitor.sv(44) @ 655: uvm_test_top.env.aa.inp_mon [INPUT MONITOR]  WRITE awaddr=00000020 wdata=4797f4a6 wstrb=0001 
UVM_INFO axi4_lite_out_monitor.sv(28) @ 675: uvm_test_top.env.pa.out_mon [OUTPUT MONITOR] BRESP = 0 RRESP = 0 RDATA = 00000000
UVM_INFO axi4_lite_driver.sv(34) @ 675: uvm_test_top.env.aa.drv [DRV] awaddr = 00000020 wdata = 4797f4a6 wstrb = 1 araddr = 3cf42450
UVM_INFO axi4_lite_scoreboard.sv(52) @ 675: uvm_test_top.env.scb [BRESP] Matched : exp_bresp= 0 actual_bresp=0 write = 1 read = 0
UVM_INFO axi4_lite_subscriber.sv(41) @ 705: uvm_test_top.env.sb [sb] INPUT COVERAGE = 70.83 %
UVM_INFO axi4_lite_inp_monitor.sv(44) @ 705: uvm_test_top.env.aa.inp_mon [INPUT MONITOR]  WRITE awaddr=00000014 wdata=fe289022 wstrb=0110 
UVM_INFO axi4_lite_out_monitor.sv(28) @ 725: uvm_test_top.env.pa.out_mon [OUTPUT MONITOR] BRESP = 0 RRESP = 0 RDATA = 00000000
UVM_INFO axi4_lite_driver.sv(34) @ 725: uvm_test_top.env.aa.drv [DRV] awaddr = 00000014 wdata = fe289022 wstrb = 6 araddr = d93cea60
UVM_INFO axi4_lite_scoreboard.sv(52) @ 725: uvm_test_top.env.scb [BRESP] Matched : exp_bresp= 0 actual_bresp=0 write = 1 read = 0
UVM_INFO axi4_lite_subscriber.sv(41) @ 755: uvm_test_top.env.sb [sb] INPUT COVERAGE = 70.83 %
UVM_INFO axi4_lite_inp_monitor.sv(44) @ 755: uvm_test_top.env.aa.inp_mon [INPUT MONITOR]  WRITE awaddr=00000018 wdata=b927b963 wstrb=0101 
UVM_INFO axi4_lite_out_monitor.sv(28) @ 775: uvm_test_top.env.pa.out_mon [OUTPUT MONITOR] BRESP = 0 RRESP = 0 RDATA = 00000000
UVM_INFO axi4_lite_driver.sv(34) @ 775: uvm_test_top.env.aa.drv [DRV] awaddr = 00000018 wdata = b927b963 wstrb = 5 araddr = cc980e90
UVM_INFO axi4_lite_scoreboard.sv(52) @ 775: uvm_test_top.env.scb [BRESP] Matched : exp_bresp= 0 actual_bresp=0 write = 1 read = 0
UVM_INFO axi4_lite_subscriber.sv(41) @ 815: uvm_test_top.env.sb [sb] INPUT COVERAGE = 73.96 %
UVM_INFO axi4_lite_inp_monitor.sv(44) @ 815: uvm_test_top.env.aa.inp_mon [INPUT MONITOR]  WRITE awaddr=00000024 wdata=9715b1a0 wstrb=1111 
UVM_INFO axi4_lite_out_monitor.sv(28) @ 835: uvm_test_top.env.pa.out_mon [OUTPUT MONITOR] BRESP = 0 RRESP = 0 RDATA = 00000000
UVM_INFO axi4_lite_driver.sv(34) @ 835: uvm_test_top.env.aa.drv [DRV] awaddr = 00000024 wdata = 9715b1a0 wstrb = f araddr = 94560a90
UVM_INFO axi4_lite_scoreboard.sv(52) @ 835: uvm_test_top.env.scb [BRESP] Matched : exp_bresp= 0 actual_bresp=0 write = 1 read = 0
UVM_INFO axi4_lite_subscriber.sv(41) @ 885: uvm_test_top.env.sb [sb] INPUT COVERAGE = 73.96 %
UVM_INFO axi4_lite_inp_monitor.sv(44) @ 885: uvm_test_top.env.aa.inp_mon [INPUT MONITOR]  WRITE awaddr=00000014 wdata=d7409860 wstrb=0100 
UVM_INFO axi4_lite_out_monitor.sv(28) @ 905: uvm_test_top.env.pa.out_mon [OUTPUT MONITOR] BRESP = 0 RRESP = 0 RDATA = 00000000
UVM_INFO axi4_lite_driver.sv(34) @ 905: uvm_test_top.env.aa.drv [DRV] awaddr = 00000014 wdata = d7409860 wstrb = 4 araddr = 91170310
UVM_INFO axi4_lite_scoreboard.sv(52) @ 905: uvm_test_top.env.scb [BRESP] Matched : exp_bresp= 0 actual_bresp=0 write = 1 read = 0
UVM_INFO axi4_lite_subscriber.sv(41) @ 945: uvm_test_top.env.sb [sb] INPUT COVERAGE = 73.96 %
UVM_INFO axi4_lite_inp_monitor.sv(44) @ 945: uvm_test_top.env.aa.inp_mon [INPUT MONITOR]  WRITE awaddr=00000028 wdata=996ddccc wstrb=0001 
UVM_INFO axi4_lite_out_monitor.sv(28) @ 965: uvm_test_top.env.pa.out_mon [OUTPUT MONITOR] BRESP = 2 RRESP = 0 RDATA = 00000000
UVM_INFO axi4_lite_driver.sv(34) @ 965: uvm_test_top.env.aa.drv [DRV] awaddr = 00000028 wdata = 996ddccc wstrb = 1 araddr = 8a2fcd04
UVM_INFO axi4_lite_scoreboard.sv(52) @ 965: uvm_test_top.env.scb [BRESP] Matched : exp_bresp= 2 actual_bresp=2 write = 1 read = 0
UVM_INFO axi4_lite_subscriber.sv(41) @ 1015: uvm_test_top.env.sb [sb] INPUT COVERAGE = 73.96 %
UVM_INFO axi4_lite_inp_monitor.sv(44) @ 1015: uvm_test_top.env.aa.inp_mon [INPUT MONITOR]  WRITE awaddr=0000000c wdata=59f4bcee wstrb=1010 
UVM_INFO axi4_lite_out_monitor.sv(28) @ 1035: uvm_test_top.env.pa.out_mon [OUTPUT MONITOR] BRESP = 0 RRESP = 0 RDATA = 00000000
UVM_INFO axi4_lite_driver.sv(34) @ 1035: uvm_test_top.env.aa.drv [DRV] awaddr = 0000000c wdata = 59f4bcee wstrb = a araddr = 5030f53c
UVM_INFO axi4_lite_scoreboard.sv(52) @ 1035: uvm_test_top.env.scb [BRESP] Matched : exp_bresp= 0 actual_bresp=0 write = 1 read = 0
UVM_INFO axi4_lite_subscriber.sv(41) @ 1085: uvm_test_top.env.sb [sb] INPUT COVERAGE = 73.96 %
UVM_INFO axi4_lite_inp_monitor.sv(44) @ 1085: uvm_test_top.env.aa.inp_mon [INPUT MONITOR]  WRITE awaddr=00000004 wdata=28196c14 wstrb=0101 
UVM_INFO axi4_lite_out_monitor.sv(28) @ 1105: uvm_test_top.env.pa.out_mon [OUTPUT MONITOR] BRESP = 0 RRESP = 0 RDATA = 00000000
UVM_INFO axi4_lite_driver.sv(34) @ 1105: uvm_test_top.env.aa.drv [DRV] awaddr = 00000004 wdata = 28196c14 wstrb = 5 araddr = 817768b4
UVM_INFO axi4_lite_scoreboard.sv(52) @ 1105: uvm_test_top.env.scb [BRESP] Matched : exp_bresp= 0 actual_bresp=0 write = 1 read = 0
UVM_INFO axi4_lite_subscriber.sv(41) @ 1155: uvm_test_top.env.sb [sb] INPUT COVERAGE = 73.96 %
UVM_INFO axi4_lite_inp_monitor.sv(44) @ 1155: uvm_test_top.env.aa.inp_mon [INPUT MONITOR]  WRITE awaddr=00000024 wdata=2e15efd1 wstrb=0111 
UVM_INFO axi4_lite_out_monitor.sv(28) @ 1175: uvm_test_top.env.pa.out_mon [OUTPUT MONITOR] BRESP = 0 RRESP = 0 RDATA = 00000000
UVM_INFO axi4_lite_driver.sv(34) @ 1175: uvm_test_top.env.aa.drv [DRV] awaddr = 00000024 wdata = 2e15efd1 wstrb = 7 araddr = 863384dc
UVM_INFO axi4_lite_scoreboard.sv(52) @ 1175: uvm_test_top.env.scb [BRESP] Matched : exp_bresp= 0 actual_bresp=0 write = 1 read = 0
UVM_INFO axi4_lite_subscriber.sv(41) @ 1215: uvm_test_top.env.sb [sb] INPUT COVERAGE = 77.08 %
UVM_INFO axi4_lite_inp_monitor.sv(44) @ 1215: uvm_test_top.env.aa.inp_mon [INPUT MONITOR]  WRITE awaddr=00000018 wdata=2daddee7 wstrb=0010 
UVM_INFO axi4_lite_out_monitor.sv(28) @ 1235: uvm_test_top.env.pa.out_mon [OUTPUT MONITOR] BRESP = 0 RRESP = 0 RDATA = 00000000
UVM_INFO axi4_lite_driver.sv(34) @ 1235: uvm_test_top.env.aa.drv [DRV] awaddr = 00000018 wdata = 2daddee7 wstrb = 2 araddr = 6eeb0628
UVM_INFO axi4_lite_scoreboard.sv(52) @ 1235: uvm_test_top.env.scb [BRESP] Matched : exp_bresp= 0 actual_bresp=0 write = 1 read = 0
UVM_INFO axi4_lite_subscriber.sv(41) @ 1265: uvm_test_top.env.sb [sb] INPUT COVERAGE = 77.08 %
UVM_INFO axi4_lite_inp_monitor.sv(44) @ 1265: uvm_test_top.env.aa.inp_mon [INPUT MONITOR]  WRITE awaddr=00000038 wdata=23feac10 wstrb=1010 
UVM_INFO axi4_lite_out_monitor.sv(28) @ 1285: uvm_test_top.env.pa.out_mon [OUTPUT MONITOR] BRESP = 0 RRESP = 0 RDATA = 00000000
UVM_INFO axi4_lite_driver.sv(34) @ 1285: uvm_test_top.env.aa.drv [DRV] awaddr = 00000038 wdata = 23feac10 wstrb = a araddr = 57d67b44
UVM_INFO axi4_lite_scoreboard.sv(52) @ 1285: uvm_test_top.env.scb [BRESP] Matched : exp_bresp= 0 actual_bresp=0 write = 1 read = 0
UVM_INFO axi4_lite_subscriber.sv(41) @ 1325: uvm_test_top.env.sb [sb] INPUT COVERAGE = 77.08 %
UVM_INFO axi4_lite_inp_monitor.sv(44) @ 1325: uvm_test_top.env.aa.inp_mon [INPUT MONITOR]  WRITE awaddr=0000001c wdata=b849c7b0 wstrb=0111 
UVM_INFO axi4_lite_out_monitor.sv(28) @ 1345: uvm_test_top.env.pa.out_mon [OUTPUT MONITOR] BRESP = 0 RRESP = 0 RDATA = 00000000
UVM_INFO axi4_lite_driver.sv(34) @ 1345: uvm_test_top.env.aa.drv [DRV] awaddr = 0000001c wdata = b849c7b0 wstrb = 7 araddr = bb56263c
UVM_INFO axi4_lite_scoreboard.sv(52) @ 1345: uvm_test_top.env.scb [BRESP] Matched : exp_bresp= 0 actual_bresp=0 write = 1 read = 0
UVM_INFO axi4_lite_subscriber.sv(41) @ 1385: uvm_test_top.env.sb [sb] INPUT COVERAGE = 77.08 %
UVM_INFO axi4_lite_inp_monitor.sv(44) @ 1385: uvm_test_top.env.aa.inp_mon [INPUT MONITOR]  WRITE awaddr=00000028 wdata=df8294f1 wstrb=0011 
UVM_INFO axi4_lite_out_monitor.sv(28) @ 1405: uvm_test_top.env.pa.out_mon [OUTPUT MONITOR] BRESP = 2 RRESP = 0 RDATA = 00000000
UVM_INFO axi4_lite_driver.sv(34) @ 1405: uvm_test_top.env.aa.drv [DRV] awaddr = 00000028 wdata = df8294f1 wstrb = 3 araddr = 0b36fec8
UVM_INFO axi4_lite_scoreboard.sv(52) @ 1405: uvm_test_top.env.scb [BRESP] Matched : exp_bresp= 2 actual_bresp=2 write = 1 read = 0
UVM_INFO axi4_lite_subscriber.sv(41) @ 1445: uvm_test_top.env.sb [sb] INPUT COVERAGE = 77.08 %
UVM_INFO axi4_lite_inp_monitor.sv(44) @ 1445: uvm_test_top.env.aa.inp_mon [INPUT MONITOR]  WRITE awaddr=0000002c wdata=86d7e168 wstrb=1111 
UVM_INFO axi4_lite_out_monitor.sv(28) @ 1465: uvm_test_top.env.pa.out_mon [OUTPUT MONITOR] BRESP = 2 RRESP = 0 RDATA = 00000000
UVM_INFO axi4_lite_driver.sv(34) @ 1465: uvm_test_top.env.aa.drv [DRV] awaddr = 0000002c wdata = 86d7e168 wstrb = f araddr = 0bec12d0
UVM_INFO axi4_lite_scoreboard.sv(52) @ 1465: uvm_test_top.env.scb [BRESP] Matched : exp_bresp= 2 actual_bresp=2 write = 1 read = 0
UVM_INFO axi4_lite_subscriber.sv(41) @ 1485: uvm_test_top.env.sb [sb] INPUT COVERAGE = 77.08 %
UVM_INFO axi4_lite_inp_monitor.sv(44) @ 1485: uvm_test_top.env.aa.inp_mon [INPUT MONITOR]  WRITE awaddr=00000014 wdata=a81896d8 wstrb=0001 
UVM_INFO axi4_lite_out_monitor.sv(28) @ 1505: uvm_test_top.env.pa.out_mon [OUTPUT MONITOR] BRESP = 0 RRESP = 0 RDATA = 00000000
UVM_INFO axi4_lite_driver.sv(34) @ 1505: uvm_test_top.env.aa.drv [DRV] awaddr = 00000014 wdata = a81896d8 wstrb = 1 araddr = 6844c75c
UVM_INFO axi4_lite_scoreboard.sv(52) @ 1505: uvm_test_top.env.scb [BRESP] Matched : exp_bresp= 0 actual_bresp=0 write = 1 read = 0
UVM_INFO axi4_lite_subscriber.sv(41) @ 1555: uvm_test_top.env.sb [sb] INPUT COVERAGE = 77.08 %
UVM_INFO axi4_lite_inp_monitor.sv(44) @ 1555: uvm_test_top.env.aa.inp_mon [INPUT MONITOR]  WRITE awaddr=00000030 wdata=ee6649eb wstrb=0010 
UVM_INFO axi4_lite_out_monitor.sv(28) @ 1575: uvm_test_top.env.pa.out_mon [OUTPUT MONITOR] BRESP = 2 RRESP = 0 RDATA = 00000000
UVM_INFO axi4_lite_driver.sv(34) @ 1575: uvm_test_top.env.aa.drv [DRV] awaddr = 00000030 wdata = ee6649eb wstrb = 2 araddr = d634e4e4
UVM_INFO axi4_lite_scoreboard.sv(52) @ 1575: uvm_test_top.env.scb [BRESP] Matched : exp_bresp= 2 actual_bresp=2 write = 1 read = 0
UVM_INFO axi4_lite_subscriber.sv(41) @ 1625: uvm_test_top.env.sb [sb] INPUT COVERAGE = 77.08 %
UVM_INFO axi4_lite_inp_monitor.sv(44) @ 1625: uvm_test_top.env.aa.inp_mon [INPUT MONITOR]  WRITE awaddr=00000004 wdata=59f1dc74 wstrb=0001 
UVM_INFO axi4_lite_out_monitor.sv(28) @ 1645: uvm_test_top.env.pa.out_mon [OUTPUT MONITOR] BRESP = 0 RRESP = 0 RDATA = 00000000
UVM_INFO axi4_lite_driver.sv(34) @ 1645: uvm_test_top.env.aa.drv [DRV] awaddr = 00000004 wdata = 59f1dc74 wstrb = 1 araddr = 77585270
UVM_INFO axi4_lite_scoreboard.sv(52) @ 1645: uvm_test_top.env.scb [BRESP] Matched : exp_bresp= 0 actual_bresp=0 write = 1 read = 0
UVM_INFO axi4_lite_subscriber.sv(41) @ 1675: uvm_test_top.env.sb [sb] INPUT COVERAGE = 77.08 %
UVM_INFO axi4_lite_inp_monitor.sv(44) @ 1675: uvm_test_top.env.aa.inp_mon [INPUT MONITOR]  WRITE awaddr=00000004 wdata=20865ee4 wstrb=1011 
UVM_INFO axi4_lite_out_monitor.sv(28) @ 1695: uvm_test_top.env.pa.out_mon [OUTPUT MONITOR] BRESP = 0 RRESP = 0 RDATA = 00000000
UVM_INFO axi4_lite_driver.sv(34) @ 1695: uvm_test_top.env.aa.drv [DRV] awaddr = 00000004 wdata = 20865ee4 wstrb = b araddr = 7483f458
UVM_INFO axi4_lite_scoreboard.sv(52) @ 1695: uvm_test_top.env.scb [BRESP] Matched : exp_bresp= 0 actual_bresp=0 write = 1 read = 0
UVM_INFO axi4_lite_subscriber.sv(41) @ 1735: uvm_test_top.env.sb [sb] INPUT COVERAGE = 77.08 %
UVM_INFO axi4_lite_inp_monitor.sv(44) @ 1735: uvm_test_top.env.aa.inp_mon [INPUT MONITOR]  WRITE awaddr=00000028 wdata=c4413465 wstrb=0010 
UVM_INFO axi4_lite_out_monitor.sv(28) @ 1755: uvm_test_top.env.pa.out_mon [OUTPUT MONITOR] BRESP = 2 RRESP = 0 RDATA = 00000000
UVM_INFO axi4_lite_driver.sv(34) @ 1755: uvm_test_top.env.aa.drv [DRV] awaddr = 00000028 wdata = c4413465 wstrb = 2 araddr = 9c1bce28
UVM_INFO axi4_lite_scoreboard.sv(52) @ 1755: uvm_test_top.env.scb [BRESP] Matched : exp_bresp= 2 actual_bresp=2 write = 1 read = 0
UVM_INFO axi4_lite_subscriber.sv(41) @ 1795: uvm_test_top.env.sb [sb] INPUT COVERAGE = 77.08 %
UVM_INFO axi4_lite_inp_monitor.sv(44) @ 1795: uvm_test_top.env.aa.inp_mon [INPUT MONITOR]  WRITE awaddr=0000002c wdata=b7860dcb wstrb=0111 
UVM_INFO axi4_lite_out_monitor.sv(28) @ 1815: uvm_test_top.env.pa.out_mon [OUTPUT MONITOR] BRESP = 2 RRESP = 0 RDATA = 00000000
UVM_INFO axi4_lite_driver.sv(34) @ 1815: uvm_test_top.env.aa.drv [DRV] awaddr = 0000002c wdata = b7860dcb wstrb = 7 araddr = bd565f8c
UVM_INFO axi4_lite_scoreboard.sv(52) @ 1815: uvm_test_top.env.scb [BRESP] Matched : exp_bresp= 2 actual_bresp=2 write = 1 read = 0
UVM_INFO axi4_lite_subscriber.sv(41) @ 1855: uvm_test_top.env.sb [sb] INPUT COVERAGE = 77.08 %
UVM_INFO axi4_lite_inp_monitor.sv(44) @ 1855: uvm_test_top.env.aa.inp_mon [INPUT MONITOR]  WRITE awaddr=00000010 wdata=da32b14a wstrb=0111 
UVM_INFO axi4_lite_out_monitor.sv(28) @ 1875: uvm_test_top.env.pa.out_mon [OUTPUT MONITOR] BRESP = 0 RRESP = 0 RDATA = 00000000
UVM_INFO axi4_lite_driver.sv(34) @ 1875: uvm_test_top.env.aa.drv [DRV] awaddr = 00000010 wdata = da32b14a wstrb = 7 araddr = f741d7d8
UVM_INFO axi4_lite_scoreboard.sv(52) @ 1875: uvm_test_top.env.scb [BRESP] Matched : exp_bresp= 0 actual_bresp=0 write = 1 read = 0
UVM_INFO axi4_lite_subscriber.sv(41) @ 1915: uvm_test_top.env.sb [sb] INPUT COVERAGE = 77.08 %
UVM_INFO axi4_lite_inp_monitor.sv(44) @ 1915: uvm_test_top.env.aa.inp_mon [INPUT MONITOR]  WRITE awaddr=00000004 wdata=6fd02146 wstrb=0110 
UVM_INFO axi4_lite_out_monitor.sv(28) @ 1935: uvm_test_top.env.pa.out_mon [OUTPUT MONITOR] BRESP = 0 RRESP = 0 RDATA = 00000000
UVM_INFO axi4_lite_driver.sv(34) @ 1935: uvm_test_top.env.aa.drv [DRV] awaddr = 00000004 wdata = 6fd02146 wstrb = 6 araddr = 6e426970
UVM_INFO axi4_lite_scoreboard.sv(52) @ 1935: uvm_test_top.env.scb [BRESP] Matched : exp_bresp= 0 actual_bresp=0 write = 1 read = 0
UVM_INFO axi4_lite_subscriber.sv(41) @ 1975: uvm_test_top.env.sb [sb] INPUT COVERAGE = 77.08 %
UVM_INFO axi4_lite_inp_monitor.sv(44) @ 1975: uvm_test_top.env.aa.inp_mon [INPUT MONITOR]  WRITE awaddr=00000024 wdata=8c767799 wstrb=1010 
UVM_INFO axi4_lite_out_monitor.sv(28) @ 1995: uvm_test_top.env.pa.out_mon [OUTPUT MONITOR] BRESP = 0 RRESP = 0 RDATA = 00000000
UVM_INFO axi4_lite_driver.sv(34) @ 1995: uvm_test_top.env.aa.drv [DRV] awaddr = 00000024 wdata = 8c767799 wstrb = a araddr = e2a3c9d8
UVM_INFO axi4_lite_scoreboard.sv(52) @ 1995: uvm_test_top.env.scb [BRESP] Matched : exp_bresp= 0 actual_bresp=0 write = 1 read = 0
UVM_INFO axi4_lite_subscriber.sv(41) @ 2025: uvm_test_top.env.sb [sb] INPUT COVERAGE = 77.08 %
UVM_INFO axi4_lite_inp_monitor.sv(44) @ 2025: uvm_test_top.env.aa.inp_mon [INPUT MONITOR]  WRITE awaddr=00000008 wdata=70ff9e2c wstrb=0100 
UVM_INFO axi4_lite_out_monitor.sv(28) @ 2045: uvm_test_top.env.pa.out_mon [OUTPUT MONITOR] BRESP = 0 RRESP = 0 RDATA = 00000000
UVM_INFO axi4_lite_driver.sv(34) @ 2045: uvm_test_top.env.aa.drv [DRV] awaddr = 00000008 wdata = 70ff9e2c wstrb = 4 araddr = f3446320
UVM_INFO axi4_lite_scoreboard.sv(52) @ 2045: uvm_test_top.env.scb [BRESP] Matched : exp_bresp= 0 actual_bresp=0 write = 1 read = 0
UVM_INFO axi4_lite_subscriber.sv(41) @ 2065: uvm_test_top.env.sb [sb] INPUT COVERAGE = 77.08 %
UVM_INFO axi4_lite_inp_monitor.sv(44) @ 2065: uvm_test_top.env.aa.inp_mon [INPUT MONITOR]  WRITE awaddr=0000002c wdata=8f7250dd wstrb=1111 
UVM_INFO axi4_lite_out_monitor.sv(28) @ 2085: uvm_test_top.env.pa.out_mon [OUTPUT MONITOR] BRESP = 2 RRESP = 0 RDATA = 00000000
UVM_INFO axi4_lite_driver.sv(34) @ 2085: uvm_test_top.env.aa.drv [DRV] awaddr = 0000002c wdata = 8f7250dd wstrb = f araddr = 2a7f237c
UVM_INFO axi4_lite_scoreboard.sv(52) @ 2085: uvm_test_top.env.scb [BRESP] Matched : exp_bresp= 2 actual_bresp=2 write = 1 read = 0
UVM_INFO axi4_lite_subscriber.sv(41) @ 2105: uvm_test_top.env.sb [sb] INPUT COVERAGE = 77.08 %
UVM_INFO axi4_lite_inp_monitor.sv(44) @ 2105: uvm_test_top.env.aa.inp_mon [INPUT MONITOR]  WRITE awaddr=0000000c wdata=7a1147cd wstrb=0100 
UVM_INFO axi4_lite_out_monitor.sv(28) @ 2125: uvm_test_top.env.pa.out_mon [OUTPUT MONITOR] BRESP = 0 RRESP = 0 RDATA = 00000000
UVM_INFO axi4_lite_driver.sv(34) @ 2125: uvm_test_top.env.aa.drv [DRV] awaddr = 0000000c wdata = 7a1147cd wstrb = 4 araddr = 2d98ea2c
UVM_INFO axi4_lite_scoreboard.sv(52) @ 2125: uvm_test_top.env.scb [BRESP] Matched : exp_bresp= 0 actual_bresp=0 write = 1 read = 0
UVM_INFO axi4_lite_subscriber.sv(41) @ 2155: uvm_test_top.env.sb [sb] INPUT COVERAGE = 77.08 %
UVM_INFO axi4_lite_inp_monitor.sv(44) @ 2155: uvm_test_top.env.aa.inp_mon [INPUT MONITOR]  WRITE awaddr=00000030 wdata=8b92ec8c wstrb=0001 
UVM_INFO axi4_lite_out_monitor.sv(28) @ 2175: uvm_test_top.env.pa.out_mon [OUTPUT MONITOR] BRESP = 2 RRESP = 0 RDATA = 00000000
UVM_INFO axi4_lite_driver.sv(34) @ 2175: uvm_test_top.env.aa.drv [DRV] awaddr = 00000030 wdata = 8b92ec8c wstrb = 1 araddr = e33007a0
UVM_INFO axi4_lite_scoreboard.sv(52) @ 2175: uvm_test_top.env.scb [BRESP] Matched : exp_bresp= 2 actual_bresp=2 write = 1 read = 0
UVM_INFO axi4_lite_subscriber.sv(41) @ 2215: uvm_test_top.env.sb [sb] INPUT COVERAGE = 80.21 %
UVM_INFO axi4_lite_inp_monitor.sv(44) @ 2215: uvm_test_top.env.aa.inp_mon [INPUT MONITOR]  WRITE awaddr=0000002c wdata=9fa92cf5 wstrb=1100 
UVM_INFO axi4_lite_out_monitor.sv(28) @ 2235: uvm_test_top.env.pa.out_mon [OUTPUT MONITOR] BRESP = 2 RRESP = 0 RDATA = 00000000
UVM_INFO axi4_lite_driver.sv(34) @ 2235: uvm_test_top.env.aa.drv [DRV] awaddr = 0000002c wdata = 9fa92cf5 wstrb = c araddr = 7712fdac
UVM_INFO axi4_lite_scoreboard.sv(52) @ 2235: uvm_test_top.env.scb [BRESP] Matched : exp_bresp= 2 actual_bresp=2 write = 1 read = 0
UVM_INFO axi4_lite_subscriber.sv(41) @ 2285: uvm_test_top.env.sb [sb] INPUT COVERAGE = 80.21 %
UVM_INFO axi4_lite_inp_monitor.sv(44) @ 2285: uvm_test_top.env.aa.inp_mon [INPUT MONITOR]  WRITE awaddr=0000000c wdata=2c1b496f wstrb=1001 
UVM_INFO axi4_lite_out_monitor.sv(28) @ 2305: uvm_test_top.env.pa.out_mon [OUTPUT MONITOR] BRESP = 0 RRESP = 0 RDATA = 00000000
UVM_INFO axi4_lite_driver.sv(34) @ 2305: uvm_test_top.env.aa.drv [DRV] awaddr = 0000000c wdata = 2c1b496f wstrb = 9 araddr = 4c0977d8
UVM_INFO axi4_lite_scoreboard.sv(52) @ 2305: uvm_test_top.env.scb [BRESP] Matched : exp_bresp= 0 actual_bresp=0 write = 1 read = 0
UVM_INFO axi4_lite_subscriber.sv(41) @ 2345: uvm_test_top.env.sb [sb] INPUT COVERAGE = 80.21 %
UVM_INFO axi4_lite_inp_monitor.sv(44) @ 2345: uvm_test_top.env.aa.inp_mon [INPUT MONITOR]  WRITE awaddr=00000000 wdata=7dadec18 wstrb=0010 
UVM_INFO axi4_lite_out_monitor.sv(28) @ 2365: uvm_test_top.env.pa.out_mon [OUTPUT MONITOR] BRESP = 0 RRESP = 0 RDATA = 00000000
UVM_INFO axi4_lite_driver.sv(34) @ 2365: uvm_test_top.env.aa.drv [DRV] awaddr = 00000000 wdata = 7dadec18 wstrb = 2 araddr = 3f724a0c
UVM_INFO axi4_lite_scoreboard.sv(52) @ 2365: uvm_test_top.env.scb [BRESP] Matched : exp_bresp= 0 actual_bresp=0 write = 1 read = 0
UVM_INFO axi4_lite_subscriber.sv(41) @ 2405: uvm_test_top.env.sb [sb] INPUT COVERAGE = 80.21 %
UVM_INFO axi4_lite_inp_monitor.sv(44) @ 2405: uvm_test_top.env.aa.inp_mon [INPUT MONITOR]  WRITE awaddr=00000000 wdata=d27e83a8 wstrb=0011 
UVM_INFO axi4_lite_out_monitor.sv(28) @ 2425: uvm_test_top.env.pa.out_mon [OUTPUT MONITOR] BRESP = 0 RRESP = 0 RDATA = 00000000
UVM_INFO axi4_lite_driver.sv(34) @ 2425: uvm_test_top.env.aa.drv [DRV] awaddr = 00000000 wdata = d27e83a8 wstrb = 3 araddr = 447949d4
UVM_INFO axi4_lite_scoreboard.sv(52) @ 2425: uvm_test_top.env.scb [BRESP] Matched : exp_bresp= 0 actual_bresp=0 write = 1 read = 0
UVM_INFO axi4_lite_subscriber.sv(41) @ 2465: uvm_test_top.env.sb [sb] INPUT COVERAGE = 80.21 %
UVM_INFO axi4_lite_inp_monitor.sv(44) @ 2465: uvm_test_top.env.aa.inp_mon [INPUT MONITOR]  WRITE awaddr=00000014 wdata=07f36d36 wstrb=1101 
UVM_INFO axi4_lite_out_monitor.sv(28) @ 2485: uvm_test_top.env.pa.out_mon [OUTPUT MONITOR] BRESP = 0 RRESP = 0 RDATA = 00000000
UVM_INFO axi4_lite_driver.sv(34) @ 2485: uvm_test_top.env.aa.drv [DRV] awaddr = 00000014 wdata = 07f36d36 wstrb = d araddr = df443450
UVM_INFO axi4_lite_scoreboard.sv(52) @ 2485: uvm_test_top.env.scb [BRESP] Matched : exp_bresp= 0 actual_bresp=0 write = 1 read = 0
UVM_INFO axi4_lite_subscriber.sv(41) @ 2535: uvm_test_top.env.sb [sb] INPUT COVERAGE = 80.21 %
UVM_INFO axi4_lite_inp_monitor.sv(44) @ 2535: uvm_test_top.env.aa.inp_mon [INPUT MONITOR]  WRITE awaddr=00000008 wdata=48e1aa90 wstrb=1101 
UVM_INFO axi4_lite_out_monitor.sv(28) @ 2555: uvm_test_top.env.pa.out_mon [OUTPUT MONITOR] BRESP = 0 RRESP = 0 RDATA = 00000000
UVM_INFO axi4_lite_driver.sv(34) @ 2555: uvm_test_top.env.aa.drv [DRV] awaddr = 00000008 wdata = 48e1aa90 wstrb = d araddr = 927cb6ec
UVM_INFO axi4_lite_scoreboard.sv(52) @ 2555: uvm_test_top.env.scb [BRESP] Matched : exp_bresp= 0 actual_bresp=0 write = 1 read = 0
UVM_INFO axi4_lite_subscriber.sv(41) @ 2595: uvm_test_top.env.sb [sb] INPUT COVERAGE = 80.21 %
UVM_INFO axi4_lite_inp_monitor.sv(44) @ 2595: uvm_test_top.env.aa.inp_mon [INPUT MONITOR]  WRITE awaddr=00000038 wdata=c8945877 wstrb=0100 
UVM_INFO axi4_lite_out_monitor.sv(28) @ 2615: uvm_test_top.env.pa.out_mon [OUTPUT MONITOR] BRESP = 0 RRESP = 0 RDATA = 00000000
UVM_INFO axi4_lite_driver.sv(34) @ 2615: uvm_test_top.env.aa.drv [DRV] awaddr = 00000038 wdata = c8945877 wstrb = 4 araddr = ee3eedd4
UVM_INFO axi4_lite_scoreboard.sv(52) @ 2615: uvm_test_top.env.scb [BRESP] Matched : exp_bresp= 0 actual_bresp=0 write = 1 read = 0
UVM_INFO axi4_lite_subscriber.sv(41) @ 2655: uvm_test_top.env.sb [sb] INPUT COVERAGE = 80.21 %
UVM_INFO axi4_lite_inp_monitor.sv(44) @ 2655: uvm_test_top.env.aa.inp_mon [INPUT MONITOR]  WRITE awaddr=00000024 wdata=302db030 wstrb=1101 
UVM_INFO axi4_lite_out_monitor.sv(28) @ 2675: uvm_test_top.env.pa.out_mon [OUTPUT MONITOR] BRESP = 0 RRESP = 0 RDATA = 00000000
UVM_INFO axi4_lite_driver.sv(34) @ 2675: uvm_test_top.env.aa.drv [DRV] awaddr = 00000024 wdata = 302db030 wstrb = d araddr = 96065c48
UVM_INFO axi4_lite_scoreboard.sv(52) @ 2675: uvm_test_top.env.scb [BRESP] Matched : exp_bresp= 0 actual_bresp=0 write = 1 read = 0
UVM_INFO axi4_lite_subscriber.sv(41) @ 2715: uvm_test_top.env.sb [sb] INPUT COVERAGE = 83.33 %
UVM_INFO axi4_lite_inp_monitor.sv(44) @ 2715: uvm_test_top.env.aa.inp_mon [INPUT MONITOR]  WRITE awaddr=00000008 wdata=f40b472a wstrb=0000 
UVM_INFO axi4_lite_out_monitor.sv(28) @ 2735: uvm_test_top.env.pa.out_mon [OUTPUT MONITOR] BRESP = 0 RRESP = 0 RDATA = 00000000
UVM_INFO axi4_lite_driver.sv(34) @ 2735: uvm_test_top.env.aa.drv [DRV] awaddr = 00000008 wdata = f40b472a wstrb = 0 araddr = dcad793c
UVM_INFO axi4_lite_scoreboard.sv(52) @ 2735: uvm_test_top.env.scb [BRESP] Matched : exp_bresp= 0 actual_bresp=0 write = 1 read = 0
UVM_INFO axi4_lite_subscriber.sv(41) @ 2785: uvm_test_top.env.sb [sb] INPUT COVERAGE = 83.33 %
UVM_INFO axi4_lite_inp_monitor.sv(44) @ 2785: uvm_test_top.env.aa.inp_mon [INPUT MONITOR]  WRITE awaddr=00000014 wdata=e16099f4 wstrb=0011 
UVM_INFO axi4_lite_out_monitor.sv(28) @ 2805: uvm_test_top.env.pa.out_mon [OUTPUT MONITOR] BRESP = 0 RRESP = 0 RDATA = 00000000
UVM_INFO axi4_lite_driver.sv(34) @ 2805: uvm_test_top.env.aa.drv [DRV] awaddr = 00000014 wdata = e16099f4 wstrb = 3 araddr = 4bde9cb4
UVM_INFO axi4_lite_scoreboard.sv(52) @ 2805: uvm_test_top.env.scb [BRESP] Matched : exp_bresp= 0 actual_bresp=0 write = 1 read = 0
UVM_INFO axi4_lite_subscriber.sv(41) @ 2825: uvm_test_top.env.sb [sb] INPUT COVERAGE = 83.33 %
UVM_INFO axi4_lite_inp_monitor.sv(44) @ 2825: uvm_test_top.env.aa.inp_mon [INPUT MONITOR]  WRITE awaddr=00000034 wdata=deafab8e wstrb=1111 
UVM_INFO axi4_lite_out_monitor.sv(28) @ 2845: uvm_test_top.env.pa.out_mon [OUTPUT MONITOR] BRESP = 0 RRESP = 0 RDATA = 00000000
UVM_INFO axi4_lite_driver.sv(34) @ 2845: uvm_test_top.env.aa.drv [DRV] awaddr = 00000034 wdata = deafab8e wstrb = f araddr = 20cf6864
UVM_INFO axi4_lite_scoreboard.sv(52) @ 2845: uvm_test_top.env.scb [BRESP] Matched : exp_bresp= 0 actual_bresp=0 write = 1 read = 0
UVM_INFO axi4_lite_subscriber.sv(41) @ 2885: uvm_test_top.env.sb [sb] INPUT COVERAGE = 83.33 %
UVM_INFO axi4_lite_inp_monitor.sv(44) @ 2885: uvm_test_top.env.aa.inp_mon [INPUT MONITOR]  WRITE awaddr=00000020 wdata=fffd8196 wstrb=1010 
UVM_INFO axi4_lite_out_monitor.sv(28) @ 2905: uvm_test_top.env.pa.out_mon [OUTPUT MONITOR] BRESP = 0 RRESP = 0 RDATA = 00000000
UVM_INFO axi4_lite_driver.sv(34) @ 2905: uvm_test_top.env.aa.drv [DRV] awaddr = 00000020 wdata = fffd8196 wstrb = a araddr = c4b7d044
UVM_INFO axi4_lite_scoreboard.sv(52) @ 2905: uvm_test_top.env.scb [BRESP] Matched : exp_bresp= 0 actual_bresp=0 write = 1 read = 0
UVM_INFO axi4_lite_subscriber.sv(41) @ 2935: uvm_test_top.env.sb [sb] INPUT COVERAGE = 83.33 %
UVM_INFO axi4_lite_inp_monitor.sv(44) @ 2935: uvm_test_top.env.aa.inp_mon [INPUT MONITOR]  WRITE awaddr=00000020 wdata=582e23c6 wstrb=0010 
UVM_INFO axi4_lite_out_monitor.sv(28) @ 2955: uvm_test_top.env.pa.out_mon [OUTPUT MONITOR] BRESP = 0 RRESP = 0 RDATA = 00000000
UVM_INFO axi4_lite_driver.sv(34) @ 2955: uvm_test_top.env.aa.drv [DRV] awaddr = 00000020 wdata = 582e23c6 wstrb = 2 araddr = fc04206c
UVM_INFO axi4_lite_scoreboard.sv(52) @ 2955: uvm_test_top.env.scb [BRESP] Matched : exp_bresp= 0 actual_bresp=0 write = 1 read = 0
UVM_INFO axi4_lite_subscriber.sv(41) @ 2995: uvm_test_top.env.sb [sb] INPUT COVERAGE = 83.33 %
UVM_INFO axi4_lite_inp_monitor.sv(44) @ 2995: uvm_test_top.env.aa.inp_mon [INPUT MONITOR]  WRITE awaddr=00000004 wdata=0df069fd wstrb=0010 
UVM_INFO axi4_lite_out_monitor.sv(28) @ 3015: uvm_test_top.env.pa.out_mon [OUTPUT MONITOR] BRESP = 0 RRESP = 0 RDATA = 00000000
UVM_INFO axi4_lite_driver.sv(34) @ 3015: uvm_test_top.env.aa.drv [DRV] awaddr = 00000004 wdata = 0df069fd wstrb = 2 araddr = df05d32c
UVM_INFO axi4_lite_scoreboard.sv(52) @ 3015: uvm_test_top.env.scb [BRESP] Matched : exp_bresp= 0 actual_bresp=0 write = 1 read = 0
UVM_INFO axi4_lite_subscriber.sv(41) @ 3045: uvm_test_top.env.sb [sb] INPUT COVERAGE = 83.33 %
UVM_INFO axi4_lite_inp_monitor.sv(44) @ 3045: uvm_test_top.env.aa.inp_mon [INPUT MONITOR]  WRITE awaddr=0000000c wdata=d1dfc27a wstrb=1011 
UVM_INFO axi4_lite_out_monitor.sv(28) @ 3065: uvm_test_top.env.pa.out_mon [OUTPUT MONITOR] BRESP = 0 RRESP = 0 RDATA = 00000000
UVM_INFO axi4_lite_driver.sv(34) @ 3065: uvm_test_top.env.aa.drv [DRV] awaddr = 0000000c wdata = d1dfc27a wstrb = b araddr = a4db496c
UVM_INFO axi4_lite_scoreboard.sv(52) @ 3065: uvm_test_top.env.scb [BRESP] Matched : exp_bresp= 0 actual_bresp=0 write = 1 read = 0
UVM_INFO axi4_lite_subscriber.sv(41) @ 3115: uvm_test_top.env.sb [sb] INPUT COVERAGE = 83.33 %
UVM_INFO axi4_lite_inp_monitor.sv(44) @ 3115: uvm_test_top.env.aa.inp_mon [INPUT MONITOR]  WRITE awaddr=00000010 wdata=9c5210a7 wstrb=1101 
UVM_INFO axi4_lite_out_monitor.sv(28) @ 3135: uvm_test_top.env.pa.out_mon [OUTPUT MONITOR] BRESP = 0 RRESP = 0 RDATA = 00000000
UVM_INFO axi4_lite_driver.sv(34) @ 3135: uvm_test_top.env.aa.drv [DRV] awaddr = 00000010 wdata = 9c5210a7 wstrb = d araddr = 6d713304
UVM_INFO axi4_lite_scoreboard.sv(52) @ 3135: uvm_test_top.env.scb [BRESP] Matched : exp_bresp= 0 actual_bresp=0 write = 1 read = 0
UVM_INFO axi4_lite_subscriber.sv(41) @ 3155: uvm_test_top.env.sb [sb] INPUT COVERAGE = 83.33 %
UVM_INFO axi4_lite_inp_monitor.sv(44) @ 3155: uvm_test_top.env.aa.inp_mon [INPUT MONITOR]  WRITE awaddr=00000004 wdata=9cdd24c8 wstrb=0010 
UVM_INFO axi4_lite_out_monitor.sv(28) @ 3175: uvm_test_top.env.pa.out_mon [OUTPUT MONITOR] BRESP = 0 RRESP = 0 RDATA = 00000000
UVM_INFO axi4_lite_driver.sv(34) @ 3175: uvm_test_top.env.aa.drv [DRV] awaddr = 00000004 wdata = 9cdd24c8 wstrb = 2 araddr = 93691c34
UVM_INFO axi4_lite_scoreboard.sv(52) @ 3175: uvm_test_top.env.scb [BRESP] Matched : exp_bresp= 0 actual_bresp=0 write = 1 read = 0
UVM_INFO axi4_lite_subscriber.sv(41) @ 3205: uvm_test_top.env.sb [sb] INPUT COVERAGE = 83.33 %
UVM_INFO axi4_lite_inp_monitor.sv(44) @ 3205: uvm_test_top.env.aa.inp_mon [INPUT MONITOR]  WRITE awaddr=00000028 wdata=8e3ec8d0 wstrb=0011 
UVM_INFO axi4_lite_out_monitor.sv(28) @ 3225: uvm_test_top.env.pa.out_mon [OUTPUT MONITOR] BRESP = 2 RRESP = 0 RDATA = 00000000
UVM_INFO axi4_lite_driver.sv(34) @ 3225: uvm_test_top.env.aa.drv [DRV] awaddr = 00000028 wdata = 8e3ec8d0 wstrb = 3 araddr = 1aaf4594
UVM_INFO axi4_lite_scoreboard.sv(52) @ 3225: uvm_test_top.env.scb [BRESP] Matched : exp_bresp= 2 actual_bresp=2 write = 1 read = 0
UVM_INFO axi4_lite_subscriber.sv(41) @ 3275: uvm_test_top.env.sb [sb] INPUT COVERAGE = 83.33 %
UVM_INFO axi4_lite_inp_monitor.sv(44) @ 3275: uvm_test_top.env.aa.inp_mon [INPUT MONITOR]  WRITE awaddr=0000000c wdata=f6fae6cd wstrb=1000 
UVM_INFO axi4_lite_out_monitor.sv(28) @ 3295: uvm_test_top.env.pa.out_mon [OUTPUT MONITOR] BRESP = 0 RRESP = 0 RDATA = 00000000
UVM_INFO axi4_lite_driver.sv(34) @ 3295: uvm_test_top.env.aa.drv [DRV] awaddr = 0000000c wdata = f6fae6cd wstrb = 8 araddr = 3bbdbef4
UVM_INFO axi4_lite_scoreboard.sv(52) @ 3295: uvm_test_top.env.scb [BRESP] Matched : exp_bresp= 0 actual_bresp=0 write = 1 read = 0
UVM_INFO axi4_lite_subscriber.sv(41) @ 3345: uvm_test_top.env.sb [sb] INPUT COVERAGE = 83.33 %
UVM_INFO axi4_lite_inp_monitor.sv(44) @ 3345: uvm_test_top.env.aa.inp_mon [INPUT MONITOR]  WRITE awaddr=00000034 wdata=c2418f92 wstrb=1110 
UVM_INFO axi4_lite_out_monitor.sv(28) @ 3365: uvm_test_top.env.pa.out_mon [OUTPUT MONITOR] BRESP = 0 RRESP = 0 RDATA = 00000000
UVM_INFO axi4_lite_driver.sv(34) @ 3365: uvm_test_top.env.aa.drv [DRV] awaddr = 00000034 wdata = c2418f92 wstrb = e araddr = 7c13a510
UVM_INFO axi4_lite_scoreboard.sv(52) @ 3365: uvm_test_top.env.scb [BRESP] Matched : exp_bresp= 0 actual_bresp=0 write = 1 read = 0
UVM_INFO axi4_lite_subscriber.sv(41) @ 3405: uvm_test_top.env.sb [sb] INPUT COVERAGE = 83.33 %
UVM_INFO axi4_lite_inp_monitor.sv(44) @ 3405: uvm_test_top.env.aa.inp_mon [INPUT MONITOR]  WRITE awaddr=00000034 wdata=ae9a8eca wstrb=0000 
UVM_INFO axi4_lite_out_monitor.sv(28) @ 3425: uvm_test_top.env.pa.out_mon [OUTPUT MONITOR] BRESP = 0 RRESP = 0 RDATA = 00000000
UVM_INFO axi4_lite_driver.sv(34) @ 3425: uvm_test_top.env.aa.drv [DRV] awaddr = 00000034 wdata = ae9a8eca wstrb = 0 araddr = d3edc3fc
UVM_INFO axi4_lite_scoreboard.sv(52) @ 3425: uvm_test_top.env.scb [BRESP] Matched : exp_bresp= 0 actual_bresp=0 write = 1 read = 0
UVM_INFO axi4_lite_subscriber.sv(41) @ 3465: uvm_test_top.env.sb [sb] INPUT COVERAGE = 83.33 %
UVM_INFO axi4_lite_inp_monitor.sv(44) @ 3465: uvm_test_top.env.aa.inp_mon [INPUT MONITOR]  WRITE awaddr=00000014 wdata=291c30b2 wstrb=0010 
UVM_INFO axi4_lite_out_monitor.sv(28) @ 3485: uvm_test_top.env.pa.out_mon [OUTPUT MONITOR] BRESP = 0 RRESP = 0 RDATA = 00000000
UVM_INFO axi4_lite_driver.sv(34) @ 3485: uvm_test_top.env.aa.drv [DRV] awaddr = 00000014 wdata = 291c30b2 wstrb = 2 araddr = bd2a5e34
UVM_INFO axi4_lite_scoreboard.sv(52) @ 3485: uvm_test_top.env.scb [BRESP] Matched : exp_bresp= 0 actual_bresp=0 write = 1 read = 0
UVM_INFO axi4_lite_subscriber.sv(41) @ 3515: uvm_test_top.env.sb [sb] INPUT COVERAGE = 83.33 %
UVM_INFO axi4_lite_inp_monitor.sv(44) @ 3515: uvm_test_top.env.aa.inp_mon [INPUT MONITOR]  WRITE awaddr=0000000c wdata=6542192d wstrb=1011 
UVM_INFO axi4_lite_out_monitor.sv(28) @ 3535: uvm_test_top.env.pa.out_mon [OUTPUT MONITOR] BRESP = 0 RRESP = 0 RDATA = 00000000
UVM_INFO axi4_lite_driver.sv(34) @ 3535: uvm_test_top.env.aa.drv [DRV] awaddr = 0000000c wdata = 6542192d wstrb = b araddr = 99420f48
UVM_INFO axi4_lite_scoreboard.sv(52) @ 3535: uvm_test_top.env.scb [BRESP] Matched : exp_bresp= 0 actual_bresp=0 write = 1 read = 0
UVM_INFO axi4_lite_subscriber.sv(41) @ 3575: uvm_test_top.env.sb [sb] INPUT COVERAGE = 83.33 %
UVM_INFO axi4_lite_inp_monitor.sv(44) @ 3575: uvm_test_top.env.aa.inp_mon [INPUT MONITOR]  WRITE awaddr=00000038 wdata=48759139 wstrb=0001 
UVM_INFO axi4_lite_out_monitor.sv(28) @ 3595: uvm_test_top.env.pa.out_mon [OUTPUT MONITOR] BRESP = 0 RRESP = 0 RDATA = 00000000
UVM_INFO axi4_lite_driver.sv(34) @ 3595: uvm_test_top.env.aa.drv [DRV] awaddr = 00000038 wdata = 48759139 wstrb = 1 araddr = 7871752c
UVM_INFO axi4_lite_scoreboard.sv(52) @ 3595: uvm_test_top.env.scb [BRESP] Matched : exp_bresp= 0 actual_bresp=0 write = 1 read = 0
UVM_INFO axi4_lite_subscriber.sv(41) @ 3625: uvm_test_top.env.sb [sb] INPUT COVERAGE = 83.33 %
UVM_INFO axi4_lite_inp_monitor.sv(44) @ 3625: uvm_test_top.env.aa.inp_mon [INPUT MONITOR]  WRITE awaddr=0000002c wdata=3e9d9eef wstrb=1101 
UVM_INFO axi4_lite_out_monitor.sv(28) @ 3645: uvm_test_top.env.pa.out_mon [OUTPUT MONITOR] BRESP = 2 RRESP = 0 RDATA = 00000000
UVM_INFO axi4_lite_driver.sv(34) @ 3645: uvm_test_top.env.aa.drv [DRV] awaddr = 0000002c wdata = 3e9d9eef wstrb = d araddr = aeb38e10
UVM_INFO axi4_lite_scoreboard.sv(52) @ 3645: uvm_test_top.env.scb [BRESP] Matched : exp_bresp= 2 actual_bresp=2 write = 1 read = 0
UVM_INFO axi4_lite_subscriber.sv(41) @ 3665: uvm_test_top.env.sb [sb] INPUT COVERAGE = 83.33 %
UVM_INFO axi4_lite_inp_monitor.sv(44) @ 3665: uvm_test_top.env.aa.inp_mon [INPUT MONITOR]  WRITE awaddr=0000001c wdata=8f77c9a4 wstrb=0101 
UVM_INFO axi4_lite_out_monitor.sv(28) @ 3685: uvm_test_top.env.pa.out_mon [OUTPUT MONITOR] BRESP = 0 RRESP = 0 RDATA = 00000000
UVM_INFO axi4_lite_driver.sv(34) @ 3685: uvm_test_top.env.aa.drv [DRV] awaddr = 0000001c wdata = 8f77c9a4 wstrb = 5 araddr = e6cc32e4
UVM_INFO axi4_lite_scoreboard.sv(52) @ 3685: uvm_test_top.env.scb [BRESP] Matched : exp_bresp= 0 actual_bresp=0 write = 1 read = 0
UVM_INFO axi4_lite_subscriber.sv(41) @ 3715: uvm_test_top.env.sb [sb] INPUT COVERAGE = 83.33 %
UVM_INFO axi4_lite_inp_monitor.sv(44) @ 3715: uvm_test_top.env.aa.inp_mon [INPUT MONITOR]  WRITE awaddr=00000038 wdata=32fa4d25 wstrb=0010 
UVM_INFO axi4_lite_out_monitor.sv(28) @ 3735: uvm_test_top.env.pa.out_mon [OUTPUT MONITOR] BRESP = 0 RRESP = 0 RDATA = 00000000
UVM_INFO axi4_lite_driver.sv(34) @ 3735: uvm_test_top.env.aa.drv [DRV] awaddr = 00000038 wdata = 32fa4d25 wstrb = 2 araddr = c55d6530
UVM_INFO axi4_lite_scoreboard.sv(52) @ 3735: uvm_test_top.env.scb [BRESP] Matched : exp_bresp= 0 actual_bresp=0 write = 1 read = 0
UVM_INFO axi4_lite_subscriber.sv(41) @ 3765: uvm_test_top.env.sb [sb] INPUT COVERAGE = 83.33 %
UVM_INFO axi4_lite_inp_monitor.sv(44) @ 3765: uvm_test_top.env.aa.inp_mon [INPUT MONITOR]  WRITE awaddr=0000000c wdata=a9e53fb7 wstrb=0011 
UVM_INFO axi4_lite_out_monitor.sv(28) @ 3785: uvm_test_top.env.pa.out_mon [OUTPUT MONITOR] BRESP = 0 RRESP = 0 RDATA = 00000000
UVM_INFO axi4_lite_driver.sv(34) @ 3785: uvm_test_top.env.aa.drv [DRV] awaddr = 0000000c wdata = a9e53fb7 wstrb = 3 araddr = 1b8bdb4c
UVM_INFO axi4_lite_scoreboard.sv(52) @ 3785: uvm_test_top.env.scb [BRESP] Matched : exp_bresp= 0 actual_bresp=0 write = 1 read = 0
UVM_INFO axi4_lite_subscriber.sv(41) @ 3815: uvm_test_top.env.sb [sb] INPUT COVERAGE = 83.33 %
UVM_INFO axi4_lite_inp_monitor.sv(44) @ 3815: uvm_test_top.env.aa.inp_mon [INPUT MONITOR]  WRITE awaddr=00000038 wdata=69e8a742 wstrb=1111 
UVM_INFO axi4_lite_out_monitor.sv(28) @ 3835: uvm_test_top.env.pa.out_mon [OUTPUT MONITOR] BRESP = 0 RRESP = 0 RDATA = 00000000
UVM_INFO axi4_lite_driver.sv(34) @ 3835: uvm_test_top.env.aa.drv [DRV] awaddr = 00000038 wdata = 69e8a742 wstrb = f araddr = 2f8629c0
UVM_INFO axi4_lite_scoreboard.sv(52) @ 3835: uvm_test_top.env.scb [BRESP] Matched : exp_bresp= 0 actual_bresp=0 write = 1 read = 0
UVM_INFO axi4_lite_subscriber.sv(41) @ 3865: uvm_test_top.env.sb [sb] INPUT COVERAGE = 83.33 %
UVM_INFO axi4_lite_inp_monitor.sv(44) @ 3865: uvm_test_top.env.aa.inp_mon [INPUT MONITOR]  WRITE awaddr=00000000 wdata=9f70913e wstrb=1100 
UVM_INFO axi4_lite_out_monitor.sv(28) @ 3885: uvm_test_top.env.pa.out_mon [OUTPUT MONITOR] BRESP = 0 RRESP = 0 RDATA = 00000000
UVM_INFO axi4_lite_driver.sv(34) @ 3885: uvm_test_top.env.aa.drv [DRV] awaddr = 00000000 wdata = 9f70913e wstrb = c araddr = 139f7284
UVM_INFO axi4_lite_scoreboard.sv(52) @ 3885: uvm_test_top.env.scb [BRESP] Matched : exp_bresp= 0 actual_bresp=0 write = 1 read = 0
UVM_INFO axi4_lite_subscriber.sv(41) @ 3925: uvm_test_top.env.sb [sb] INPUT COVERAGE = 83.33 %
UVM_INFO axi4_lite_inp_monitor.sv(44) @ 3925: uvm_test_top.env.aa.inp_mon [INPUT MONITOR]  WRITE awaddr=00000018 wdata=0fb47bcc wstrb=0000 
UVM_INFO axi4_lite_out_monitor.sv(28) @ 3945: uvm_test_top.env.pa.out_mon [OUTPUT MONITOR] BRESP = 0 RRESP = 0 RDATA = 00000000
UVM_INFO axi4_lite_driver.sv(34) @ 3945: uvm_test_top.env.aa.drv [DRV] awaddr = 00000018 wdata = 0fb47bcc wstrb = 0 araddr = ad9a9928
UVM_INFO axi4_lite_scoreboard.sv(52) @ 3945: uvm_test_top.env.scb [BRESP] Matched : exp_bresp= 0 actual_bresp=0 write = 1 read = 0
UVM_INFO axi4_lite_subscriber.sv(41) @ 3995: uvm_test_top.env.sb [sb] INPUT COVERAGE = 83.33 %
UVM_INFO axi4_lite_inp_monitor.sv(44) @ 3995: uvm_test_top.env.aa.inp_mon [INPUT MONITOR]  WRITE awaddr=00000010 wdata=243d47d0 wstrb=0101 
UVM_INFO axi4_lite_out_monitor.sv(28) @ 4015: uvm_test_top.env.pa.out_mon [OUTPUT MONITOR] BRESP = 0 RRESP = 0 RDATA = 00000000
UVM_INFO axi4_lite_driver.sv(34) @ 4015: uvm_test_top.env.aa.drv [DRV] awaddr = 00000010 wdata = 243d47d0 wstrb = 5 araddr = 54e448c8
UVM_INFO axi4_lite_scoreboard.sv(52) @ 4015: uvm_test_top.env.scb [BRESP] Matched : exp_bresp= 0 actual_bresp=0 write = 1 read = 0
UVM_INFO axi4_lite_subscriber.sv(41) @ 4045: uvm_test_top.env.sb [sb] INPUT COVERAGE = 83.33 %
UVM_INFO axi4_lite_inp_monitor.sv(44) @ 4045: uvm_test_top.env.aa.inp_mon [INPUT MONITOR]  WRITE awaddr=00000010 wdata=a270037c wstrb=0001 
UVM_INFO axi4_lite_out_monitor.sv(28) @ 4065: uvm_test_top.env.pa.out_mon [OUTPUT MONITOR] BRESP = 0 RRESP = 0 RDATA = 00000000
UVM_INFO axi4_lite_driver.sv(34) @ 4065: uvm_test_top.env.aa.drv [DRV] awaddr = 00000010 wdata = a270037c wstrb = 1 araddr = 9d8ea080
UVM_INFO axi4_lite_scoreboard.sv(52) @ 4065: uvm_test_top.env.scb [BRESP] Matched : exp_bresp= 0 actual_bresp=0 write = 1 read = 0
UVM_INFO axi4_lite_subscriber.sv(41) @ 4095: uvm_test_top.env.sb [sb] INPUT COVERAGE = 83.33 %
UVM_INFO axi4_lite_inp_monitor.sv(44) @ 4095: uvm_test_top.env.aa.inp_mon [INPUT MONITOR]  WRITE awaddr=00000028 wdata=199667b2 wstrb=0110 
UVM_INFO axi4_lite_out_monitor.sv(28) @ 4115: uvm_test_top.env.pa.out_mon [OUTPUT MONITOR] BRESP = 2 RRESP = 0 RDATA = 00000000
UVM_INFO axi4_lite_driver.sv(34) @ 4115: uvm_test_top.env.aa.drv [DRV] awaddr = 00000028 wdata = 199667b2 wstrb = 6 araddr = 3293b638
UVM_INFO axi4_lite_scoreboard.sv(52) @ 4115: uvm_test_top.env.scb [BRESP] Matched : exp_bresp= 2 actual_bresp=2 write = 1 read = 0
UVM_INFO axi4_lite_subscriber.sv(41) @ 4165: uvm_test_top.env.sb [sb] INPUT COVERAGE = 83.33 %
UVM_INFO axi4_lite_inp_monitor.sv(44) @ 4165: uvm_test_top.env.aa.inp_mon [INPUT MONITOR]  WRITE awaddr=00000000 wdata=274e6215 wstrb=1011 
UVM_INFO axi4_lite_out_monitor.sv(28) @ 4185: uvm_test_top.env.pa.out_mon [OUTPUT MONITOR] BRESP = 0 RRESP = 0 RDATA = 00000000
UVM_INFO axi4_lite_driver.sv(34) @ 4185: uvm_test_top.env.aa.drv [DRV] awaddr = 00000000 wdata = 274e6215 wstrb = b araddr = 0c0aeec8
UVM_INFO axi4_lite_scoreboard.sv(52) @ 4185: uvm_test_top.env.scb [BRESP] Matched : exp_bresp= 0 actual_bresp=0 write = 1 read = 0
UVM_INFO axi4_lite_subscriber.sv(41) @ 4235: uvm_test_top.env.sb [sb] INPUT COVERAGE = 83.33 %
UVM_INFO axi4_lite_inp_monitor.sv(44) @ 4235: uvm_test_top.env.aa.inp_mon [INPUT MONITOR]  WRITE awaddr=00000024 wdata=ba79f6fd wstrb=1011 
UVM_INFO axi4_lite_out_monitor.sv(28) @ 4255: uvm_test_top.env.pa.out_mon [OUTPUT MONITOR] BRESP = 0 RRESP = 0 RDATA = 00000000
UVM_INFO axi4_lite_driver.sv(34) @ 4255: uvm_test_top.env.aa.drv [DRV] awaddr = 00000024 wdata = ba79f6fd wstrb = b araddr = 94a61f7c
UVM_INFO axi4_lite_scoreboard.sv(52) @ 4255: uvm_test_top.env.scb [BRESP] Matched : exp_bresp= 0 actual_bresp=0 write = 1 read = 0
UVM_INFO axi4_lite_subscriber.sv(41) @ 4305: uvm_test_top.env.sb [sb] INPUT COVERAGE = 83.33 %
UVM_INFO axi4_lite_inp_monitor.sv(44) @ 4305: uvm_test_top.env.aa.inp_mon [INPUT MONITOR]  WRITE awaddr=00000008 wdata=5ae7d107 wstrb=1101 
UVM_INFO axi4_lite_out_monitor.sv(28) @ 4325: uvm_test_top.env.pa.out_mon [OUTPUT MONITOR] BRESP = 0 RRESP = 0 RDATA = 00000000
UVM_INFO axi4_lite_driver.sv(34) @ 4325: uvm_test_top.env.aa.drv [DRV] awaddr = 00000008 wdata = 5ae7d107 wstrb = d araddr = 510492a0
UVM_INFO axi4_lite_scoreboard.sv(52) @ 4325: uvm_test_top.env.scb [BRESP] Matched : exp_bresp= 0 actual_bresp=0 write = 1 read = 0
UVM_INFO axi4_lite_subscriber.sv(41) @ 4365: uvm_test_top.env.sb [sb] INPUT COVERAGE = 83.33 %
UVM_INFO axi4_lite_inp_monitor.sv(44) @ 4365: uvm_test_top.env.aa.inp_mon [INPUT MONITOR]  WRITE awaddr=00000000 wdata=20c14273 wstrb=0100 
UVM_INFO axi4_lite_out_monitor.sv(28) @ 4385: uvm_test_top.env.pa.out_mon [OUTPUT MONITOR] BRESP = 0 RRESP = 0 RDATA = 00000000
UVM_INFO axi4_lite_driver.sv(34) @ 4385: uvm_test_top.env.aa.drv [DRV] awaddr = 00000000 wdata = 20c14273 wstrb = 4 araddr = e26dfcb0
UVM_INFO axi4_lite_scoreboard.sv(52) @ 4385: uvm_test_top.env.scb [BRESP] Matched : exp_bresp= 0 actual_bresp=0 write = 1 read = 0
UVM_INFO axi4_lite_subscriber.sv(41) @ 4435: uvm_test_top.env.sb [sb] INPUT COVERAGE = 83.33 %
UVM_INFO axi4_lite_inp_monitor.sv(44) @ 4435: uvm_test_top.env.aa.inp_mon [INPUT MONITOR]  WRITE awaddr=00000024 wdata=91125ac1 wstrb=1011 
UVM_INFO axi4_lite_out_monitor.sv(28) @ 4455: uvm_test_top.env.pa.out_mon [OUTPUT MONITOR] BRESP = 0 RRESP = 0 RDATA = 00000000
UVM_INFO axi4_lite_driver.sv(34) @ 4455: uvm_test_top.env.aa.drv [DRV] awaddr = 00000024 wdata = 91125ac1 wstrb = b araddr = 6f66b32c
UVM_INFO axi4_lite_scoreboard.sv(52) @ 4455: uvm_test_top.env.scb [BRESP] Matched : exp_bresp= 0 actual_bresp=0 write = 1 read = 0
UVM_INFO axi4_lite_subscriber.sv(41) @ 4495: uvm_test_top.env.sb [sb] INPUT COVERAGE = 83.33 %
UVM_INFO axi4_lite_inp_monitor.sv(44) @ 4495: uvm_test_top.env.aa.inp_mon [INPUT MONITOR]  WRITE awaddr=00000038 wdata=264e58eb wstrb=0111 
UVM_INFO axi4_lite_out_monitor.sv(28) @ 4515: uvm_test_top.env.pa.out_mon [OUTPUT MONITOR] BRESP = 0 RRESP = 0 RDATA = 00000000
UVM_INFO axi4_lite_driver.sv(34) @ 4515: uvm_test_top.env.aa.drv [DRV] awaddr = 00000038 wdata = 264e58eb wstrb = 7 araddr = 8eca07f0
UVM_INFO axi4_lite_scoreboard.sv(52) @ 4515: uvm_test_top.env.scb [BRESP] Matched : exp_bresp= 0 actual_bresp=0 write = 1 read = 0
UVM_INFO axi4_lite_subscriber.sv(41) @ 4555: uvm_test_top.env.sb [sb] INPUT COVERAGE = 83.33 %
UVM_INFO axi4_lite_inp_monitor.sv(44) @ 4555: uvm_test_top.env.aa.inp_mon [INPUT MONITOR]  WRITE awaddr=00000030 wdata=069c7846 wstrb=0011 
UVM_INFO axi4_lite_out_monitor.sv(28) @ 4575: uvm_test_top.env.pa.out_mon [OUTPUT MONITOR] BRESP = 2 RRESP = 0 RDATA = 00000000
UVM_INFO axi4_lite_driver.sv(34) @ 4575: uvm_test_top.env.aa.drv [DRV] awaddr = 00000030 wdata = 069c7846 wstrb = 3 araddr = 8567bcf8
UVM_INFO axi4_lite_scoreboard.sv(52) @ 4575: uvm_test_top.env.scb [BRESP] Matched : exp_bresp= 2 actual_bresp=2 write = 1 read = 0
UVM_INFO axi4_lite_subscriber.sv(41) @ 4615: uvm_test_top.env.sb [sb] INPUT COVERAGE = 83.33 %
UVM_INFO axi4_lite_inp_monitor.sv(44) @ 4615: uvm_test_top.env.aa.inp_mon [INPUT MONITOR]  WRITE awaddr=00000008 wdata=49d8bc3a wstrb=0011 
UVM_INFO axi4_lite_out_monitor.sv(28) @ 4635: uvm_test_top.env.pa.out_mon [OUTPUT MONITOR] BRESP = 0 RRESP = 0 RDATA = 00000000
UVM_INFO axi4_lite_driver.sv(34) @ 4635: uvm_test_top.env.aa.drv [DRV] awaddr = 00000008 wdata = 49d8bc3a wstrb = 3 araddr = c6af96b8
UVM_INFO axi4_lite_scoreboard.sv(52) @ 4635: uvm_test_top.env.scb [BRESP] Matched : exp_bresp= 0 actual_bresp=0 write = 1 read = 0
UVM_INFO axi4_lite_subscriber.sv(41) @ 4685: uvm_test_top.env.sb [sb] INPUT COVERAGE = 83.33 %
UVM_INFO axi4_lite_inp_monitor.sv(44) @ 4685: uvm_test_top.env.aa.inp_mon [INPUT MONITOR]  WRITE awaddr=00000010 wdata=8c900de9 wstrb=1010 
UVM_INFO axi4_lite_out_monitor.sv(28) @ 4705: uvm_test_top.env.pa.out_mon [OUTPUT MONITOR] BRESP = 0 RRESP = 0 RDATA = 00000000
UVM_INFO axi4_lite_driver.sv(34) @ 4705: uvm_test_top.env.aa.drv [DRV] awaddr = 00000010 wdata = 8c900de9 wstrb = a araddr = 15f44d14
UVM_INFO axi4_lite_scoreboard.sv(52) @ 4705: uvm_test_top.env.scb [BRESP] Matched : exp_bresp= 0 actual_bresp=0 write = 1 read = 0
UVM_INFO axi4_lite_subscriber.sv(41) @ 4725: uvm_test_top.env.sb [sb] INPUT COVERAGE = 83.33 %
UVM_INFO axi4_lite_inp_monitor.sv(44) @ 4725: uvm_test_top.env.aa.inp_mon [INPUT MONITOR]  WRITE awaddr=00000004 wdata=854f8616 wstrb=0010 
UVM_INFO axi4_lite_out_monitor.sv(28) @ 4745: uvm_test_top.env.pa.out_mon [OUTPUT MONITOR] BRESP = 0 RRESP = 0 RDATA = 00000000
UVM_INFO axi4_lite_driver.sv(34) @ 4745: uvm_test_top.env.aa.drv [DRV] awaddr = 00000004 wdata = 854f8616 wstrb = 2 araddr = 20af6b60
UVM_INFO axi4_lite_scoreboard.sv(52) @ 4745: uvm_test_top.env.scb [BRESP] Matched : exp_bresp= 0 actual_bresp=0 write = 1 read = 0
UVM_INFO axi4_lite_subscriber.sv(41) @ 4785: uvm_test_top.env.sb [sb] INPUT COVERAGE = 83.33 %
UVM_INFO axi4_lite_inp_monitor.sv(44) @ 4785: uvm_test_top.env.aa.inp_mon [INPUT MONITOR]  WRITE awaddr=00000018 wdata=f231d1c6 wstrb=0100 
UVM_INFO axi4_lite_out_monitor.sv(28) @ 4805: uvm_test_top.env.pa.out_mon [OUTPUT MONITOR] BRESP = 0 RRESP = 0 RDATA = 00000000
UVM_INFO axi4_lite_driver.sv(34) @ 4805: uvm_test_top.env.aa.drv [DRV] awaddr = 00000018 wdata = f231d1c6 wstrb = 4 araddr = 8c309f9c
UVM_INFO axi4_lite_scoreboard.sv(52) @ 4805: uvm_test_top.env.scb [BRESP] Matched : exp_bresp= 0 actual_bresp=0 write = 1 read = 0
UVM_INFO axi4_lite_subscriber.sv(41) @ 4855: uvm_test_top.env.sb [sb] INPUT COVERAGE = 83.33 %
UVM_INFO axi4_lite_inp_monitor.sv(44) @ 4855: uvm_test_top.env.aa.inp_mon [INPUT MONITOR]  WRITE awaddr=00000028 wdata=29510d36 wstrb=1000 
UVM_INFO axi4_lite_out_monitor.sv(28) @ 4875: uvm_test_top.env.pa.out_mon [OUTPUT MONITOR] BRESP = 2 RRESP = 0 RDATA = 00000000
UVM_INFO axi4_lite_driver.sv(34) @ 4875: uvm_test_top.env.aa.drv [DRV] awaddr = 00000028 wdata = 29510d36 wstrb = 8 araddr = b78fcb08
UVM_INFO axi4_lite_scoreboard.sv(52) @ 4875: uvm_test_top.env.scb [BRESP] Matched : exp_bresp= 2 actual_bresp=2 write = 1 read = 0
UVM_INFO axi4_lite_subscriber.sv(41) @ 4905: uvm_test_top.env.sb [sb] INPUT COVERAGE = 83.33 %
UVM_INFO axi4_lite_inp_monitor.sv(44) @ 4905: uvm_test_top.env.aa.inp_mon [INPUT MONITOR]  WRITE awaddr=00000024 wdata=09169d79 wstrb=0111 
UVM_INFO axi4_lite_out_monitor.sv(28) @ 4925: uvm_test_top.env.pa.out_mon [OUTPUT MONITOR] BRESP = 0 RRESP = 0 RDATA = 00000000
UVM_INFO axi4_lite_driver.sv(34) @ 4925: uvm_test_top.env.aa.drv [DRV] awaddr = 00000024 wdata = 09169d79 wstrb = 7 araddr = 017fa574
UVM_INFO axi4_lite_scoreboard.sv(52) @ 4925: uvm_test_top.env.scb [BRESP] Matched : exp_bresp= 0 actual_bresp=0 write = 1 read = 0
UVM_INFO axi4_lite_subscriber.sv(41) @ 4965: uvm_test_top.env.sb [sb] INPUT COVERAGE = 83.33 %
UVM_INFO axi4_lite_inp_monitor.sv(44) @ 4965: uvm_test_top.env.aa.inp_mon [INPUT MONITOR]  WRITE awaddr=00000020 wdata=b0e84b26 wstrb=0011 
UVM_INFO axi4_lite_out_monitor.sv(28) @ 4985: uvm_test_top.env.pa.out_mon [OUTPUT MONITOR] BRESP = 0 RRESP = 0 RDATA = 00000000
UVM_INFO axi4_lite_driver.sv(34) @ 4985: uvm_test_top.env.aa.drv [DRV] awaddr = 00000020 wdata = b0e84b26 wstrb = 3 araddr = 9eac1778
UVM_INFO axi4_lite_scoreboard.sv(52) @ 4985: uvm_test_top.env.scb [BRESP] Matched : exp_bresp= 0 actual_bresp=0 write = 1 read = 0
UVM_INFO axi4_lite_subscriber.sv(41) @ 5025: uvm_test_top.env.sb [sb] INPUT COVERAGE = 83.33 %
UVM_INFO axi4_lite_inp_monitor.sv(44) @ 5025: uvm_test_top.env.aa.inp_mon [INPUT MONITOR]  WRITE awaddr=00000008 wdata=7b92f5f2 wstrb=0101 
UVM_INFO axi4_lite_out_monitor.sv(28) @ 5045: uvm_test_top.env.pa.out_mon [OUTPUT MONITOR] BRESP = 0 RRESP = 0 RDATA = 00000000
UVM_INFO axi4_lite_driver.sv(34) @ 5045: uvm_test_top.env.aa.drv [DRV] awaddr = 00000008 wdata = 7b92f5f2 wstrb = 5 araddr = 3dcfc38c
UVM_INFO axi4_lite_scoreboard.sv(52) @ 5045: uvm_test_top.env.scb [BRESP] Matched : exp_bresp= 0 actual_bresp=0 write = 1 read = 0
UVM_INFO axi4_lite_subscriber.sv(41) @ 5085: uvm_test_top.env.sb [sb] INPUT COVERAGE = 83.33 %
UVM_INFO axi4_lite_inp_monitor.sv(44) @ 5085: uvm_test_top.env.aa.inp_mon [INPUT MONITOR]  WRITE awaddr=00000000 wdata=24b215ea wstrb=1001 
UVM_INFO axi4_lite_out_monitor.sv(28) @ 5105: uvm_test_top.env.pa.out_mon [OUTPUT MONITOR] BRESP = 0 RRESP = 0 RDATA = 00000000
UVM_INFO axi4_lite_driver.sv(34) @ 5105: uvm_test_top.env.aa.drv [DRV] awaddr = 00000000 wdata = 24b215ea wstrb = 9 araddr = 20ea0968
UVM_INFO axi4_lite_scoreboard.sv(52) @ 5105: uvm_test_top.env.scb [BRESP] Matched : exp_bresp= 0 actual_bresp=0 write = 1 read = 0
UVM_INFO axi4_lite_subscriber.sv(41) @ 5145: uvm_test_top.env.sb [sb] INPUT COVERAGE = 83.33 %
UVM_INFO axi4_lite_inp_monitor.sv(44) @ 5145: uvm_test_top.env.aa.inp_mon [INPUT MONITOR]  WRITE awaddr=00000038 wdata=bf47b975 wstrb=1111 
UVM_INFO axi4_lite_out_monitor.sv(28) @ 5165: uvm_test_top.env.pa.out_mon [OUTPUT MONITOR] BRESP = 0 RRESP = 0 RDATA = 00000000
UVM_INFO axi4_lite_driver.sv(34) @ 5165: uvm_test_top.env.aa.drv [DRV] awaddr = 00000038 wdata = bf47b975 wstrb = f araddr = 730e3600
UVM_INFO axi4_lite_scoreboard.sv(52) @ 5165: uvm_test_top.env.scb [BRESP] Matched : exp_bresp= 0 actual_bresp=0 write = 1 read = 0
UVM_INFO axi4_lite_subscriber.sv(41) @ 5215: uvm_test_top.env.sb [sb] INPUT COVERAGE = 83.33 %
UVM_INFO axi4_lite_inp_monitor.sv(44) @ 5215: uvm_test_top.env.aa.inp_mon [INPUT MONITOR]  WRITE awaddr=00000028 wdata=bde86c7b wstrb=1110 
UVM_INFO axi4_lite_out_monitor.sv(28) @ 5235: uvm_test_top.env.pa.out_mon [OUTPUT MONITOR] BRESP = 2 RRESP = 0 RDATA = 00000000
UVM_INFO axi4_lite_driver.sv(34) @ 5235: uvm_test_top.env.aa.drv [DRV] awaddr = 00000028 wdata = bde86c7b wstrb = e araddr = d9e1b094
UVM_INFO axi4_lite_scoreboard.sv(52) @ 5235: uvm_test_top.env.scb [BRESP] Matched : exp_bresp= 2 actual_bresp=2 write = 1 read = 0
UVM_INFO axi4_lite_subscriber.sv(41) @ 5265: uvm_test_top.env.sb [sb] INPUT COVERAGE = 83.33 %
UVM_INFO axi4_lite_inp_monitor.sv(44) @ 5265: uvm_test_top.env.aa.inp_mon [INPUT MONITOR]  WRITE awaddr=0000002c wdata=17c029d7 wstrb=0101 
UVM_INFO axi4_lite_out_monitor.sv(28) @ 5285: uvm_test_top.env.pa.out_mon [OUTPUT MONITOR] BRESP = 2 RRESP = 0 RDATA = 00000000
UVM_INFO axi4_lite_driver.sv(34) @ 5285: uvm_test_top.env.aa.drv [DRV] awaddr = 0000002c wdata = 17c029d7 wstrb = 5 araddr = ab95c748
UVM_INFO axi4_lite_scoreboard.sv(52) @ 5285: uvm_test_top.env.scb [BRESP] Matched : exp_bresp= 2 actual_bresp=2 write = 1 read = 0
UVM_INFO axi4_lite_subscriber.sv(41) @ 5325: uvm_test_top.env.sb [sb] INPUT COVERAGE = 83.33 %
UVM_INFO axi4_lite_inp_monitor.sv(44) @ 5325: uvm_test_top.env.aa.inp_mon [INPUT MONITOR]  WRITE awaddr=00000034 wdata=253e7adb wstrb=0101 
UVM_INFO axi4_lite_out_monitor.sv(28) @ 5345: uvm_test_top.env.pa.out_mon [OUTPUT MONITOR] BRESP = 0 RRESP = 0 RDATA = 00000000
UVM_INFO axi4_lite_driver.sv(34) @ 5345: uvm_test_top.env.aa.drv [DRV] awaddr = 00000034 wdata = 253e7adb wstrb = 5 araddr = 8feb2d20
UVM_INFO axi4_lite_scoreboard.sv(52) @ 5345: uvm_test_top.env.scb [BRESP] Matched : exp_bresp= 0 actual_bresp=0 write = 1 read = 0
UVM_INFO axi4_lite_subscriber.sv(41) @ 5395: uvm_test_top.env.sb [sb] INPUT COVERAGE = 83.33 %
UVM_INFO axi4_lite_inp_monitor.sv(44) @ 5395: uvm_test_top.env.aa.inp_mon [INPUT MONITOR]  WRITE awaddr=00000038 wdata=907a1bd9 wstrb=1010 
UVM_INFO axi4_lite_out_monitor.sv(28) @ 5415: uvm_test_top.env.pa.out_mon [OUTPUT MONITOR] BRESP = 0 RRESP = 0 RDATA = 00000000
UVM_INFO axi4_lite_driver.sv(34) @ 5415: uvm_test_top.env.aa.drv [DRV] awaddr = 00000038 wdata = 907a1bd9 wstrb = a araddr = 8ebce748
UVM_INFO axi4_lite_scoreboard.sv(52) @ 5415: uvm_test_top.env.scb [BRESP] Matched : exp_bresp= 0 actual_bresp=0 write = 1 read = 0
UVM_INFO axi4_lite_subscriber.sv(41) @ 5465: uvm_test_top.env.sb [sb] INPUT COVERAGE = 83.33 %
UVM_INFO axi4_lite_inp_monitor.sv(44) @ 5465: uvm_test_top.env.aa.inp_mon [INPUT MONITOR]  WRITE awaddr=00000004 wdata=a1db296e wstrb=1000 
UVM_INFO axi4_lite_out_monitor.sv(28) @ 5485: uvm_test_top.env.pa.out_mon [OUTPUT MONITOR] BRESP = 0 RRESP = 0 RDATA = 00000000
UVM_INFO axi4_lite_driver.sv(34) @ 5485: uvm_test_top.env.aa.drv [DRV] awaddr = 00000004 wdata = a1db296e wstrb = 8 araddr = 3071fccc
UVM_INFO axi4_lite_scoreboard.sv(52) @ 5485: uvm_test_top.env.scb [BRESP] Matched : exp_bresp= 0 actual_bresp=0 write = 1 read = 0
UVM_INFO axi4_lite_subscriber.sv(41) @ 5505: uvm_test_top.env.sb [sb] INPUT COVERAGE = 83.33 %
UVM_INFO axi4_lite_inp_monitor.sv(44) @ 5505: uvm_test_top.env.aa.inp_mon [INPUT MONITOR]  WRITE awaddr=0000001c wdata=5156622f wstrb=1100 
UVM_INFO axi4_lite_out_monitor.sv(28) @ 5525: uvm_test_top.env.pa.out_mon [OUTPUT MONITOR] BRESP = 0 RRESP = 0 RDATA = 00000000
UVM_INFO axi4_lite_driver.sv(34) @ 5525: uvm_test_top.env.aa.drv [DRV] awaddr = 0000001c wdata = 5156622f wstrb = c araddr = 2e287e70
UVM_INFO axi4_lite_scoreboard.sv(52) @ 5525: uvm_test_top.env.scb [BRESP] Matched : exp_bresp= 0 actual_bresp=0 write = 1 read = 0
UVM_INFO axi4_lite_subscriber.sv(41) @ 5575: uvm_test_top.env.sb [sb] INPUT COVERAGE = 83.33 %
UVM_INFO axi4_lite_inp_monitor.sv(44) @ 5575: uvm_test_top.env.aa.inp_mon [INPUT MONITOR]  WRITE awaddr=00000000 wdata=f17c0f9f wstrb=0101 
UVM_INFO axi4_lite_out_monitor.sv(28) @ 5595: uvm_test_top.env.pa.out_mon [OUTPUT MONITOR] BRESP = 0 RRESP = 0 RDATA = 00000000
UVM_INFO axi4_lite_driver.sv(34) @ 5595: uvm_test_top.env.aa.drv [DRV] awaddr = 00000000 wdata = f17c0f9f wstrb = 5 araddr = 8cff3140
UVM_INFO axi4_lite_scoreboard.sv(52) @ 5595: uvm_test_top.env.scb [BRESP] Matched : exp_bresp= 0 actual_bresp=0 write = 1 read = 0
UVM_INFO axi4_lite_subscriber.sv(41) @ 5615: uvm_test_top.env.sb [sb] INPUT COVERAGE = 83.33 %
UVM_INFO axi4_lite_inp_monitor.sv(44) @ 5615: uvm_test_top.env.aa.inp_mon [INPUT MONITOR]  WRITE awaddr=00000028 wdata=058468e2 wstrb=1111 
UVM_INFO axi4_lite_out_monitor.sv(28) @ 5635: uvm_test_top.env.pa.out_mon [OUTPUT MONITOR] BRESP = 2 RRESP = 0 RDATA = 00000000
UVM_INFO axi4_lite_driver.sv(34) @ 5635: uvm_test_top.env.aa.drv [DRV] awaddr = 00000028 wdata = 058468e2 wstrb = f araddr = 13778608
UVM_INFO axi4_lite_scoreboard.sv(52) @ 5635: uvm_test_top.env.scb [BRESP] Matched : exp_bresp= 2 actual_bresp=2 write = 1 read = 0
UVM_INFO axi4_lite_subscriber.sv(41) @ 5685: uvm_test_top.env.sb [sb] INPUT COVERAGE = 83.33 %
UVM_INFO axi4_lite_inp_monitor.sv(44) @ 5685: uvm_test_top.env.aa.inp_mon [INPUT MONITOR]  WRITE awaddr=00000010 wdata=aa67f6b3 wstrb=1010 
UVM_INFO axi4_lite_out_monitor.sv(28) @ 5705: uvm_test_top.env.pa.out_mon [OUTPUT MONITOR] BRESP = 0 RRESP = 0 RDATA = 00000000
UVM_INFO axi4_lite_driver.sv(34) @ 5705: uvm_test_top.env.aa.drv [DRV] awaddr = 00000010 wdata = aa67f6b3 wstrb = a araddr = 2aacd33c
UVM_INFO axi4_lite_scoreboard.sv(52) @ 5705: uvm_test_top.env.scb [BRESP] Matched : exp_bresp= 0 actual_bresp=0 write = 1 read = 0
UVM_INFO axi4_lite_subscriber.sv(41) @ 5745: uvm_test_top.env.sb [sb] INPUT COVERAGE = 83.33 %
UVM_INFO axi4_lite_inp_monitor.sv(44) @ 5745: uvm_test_top.env.aa.inp_mon [INPUT MONITOR]  WRITE awaddr=00000034 wdata=eba92cd5 wstrb=1100 
UVM_INFO axi4_lite_out_monitor.sv(28) @ 5765: uvm_test_top.env.pa.out_mon [OUTPUT MONITOR] BRESP = 0 RRESP = 0 RDATA = 00000000
UVM_INFO axi4_lite_driver.sv(34) @ 5765: uvm_test_top.env.aa.drv [DRV] awaddr = 00000034 wdata = eba92cd5 wstrb = c araddr = 33cfdf1c
UVM_INFO axi4_lite_scoreboard.sv(52) @ 5765: uvm_test_top.env.scb [BRESP] Matched : exp_bresp= 0 actual_bresp=0 write = 1 read = 0
UVM_INFO axi4_lite_subscriber.sv(41) @ 5815: uvm_test_top.env.sb [sb] INPUT COVERAGE = 83.33 %
UVM_INFO axi4_lite_inp_monitor.sv(44) @ 5815: uvm_test_top.env.aa.inp_mon [INPUT MONITOR]  WRITE awaddr=0000001c wdata=87ae7820 wstrb=0010 
UVM_INFO axi4_lite_out_monitor.sv(28) @ 5835: uvm_test_top.env.pa.out_mon [OUTPUT MONITOR] BRESP = 0 RRESP = 0 RDATA = 00000000
UVM_INFO axi4_lite_driver.sv(34) @ 5835: uvm_test_top.env.aa.drv [DRV] awaddr = 0000001c wdata = 87ae7820 wstrb = 2 araddr = 5a9c0c94
UVM_INFO axi4_lite_scoreboard.sv(52) @ 5835: uvm_test_top.env.scb [BRESP] Matched : exp_bresp= 0 actual_bresp=0 write = 1 read = 0
UVM_INFO axi4_lite_test.sv(27) @ 5835: uvm_test_top [TEST] Write completed
UVM_INFO /fetools/synopsys/installed_tools/vcs/vcs/Q-2020.03-SP2-8/etc/uvm/base/uvm_objection.svh(1274) @ 5835: reporter [TEST_DONE] 'run' phase is ready to proceed to the 'extract' phase

--- UVM Report Summary ---

** Report counts by severity
UVM_INFO :  504
UVM_WARNING :    0
UVM_ERROR :    0
UVM_FATAL :    0
** Report counts by id
[BRESP]   100
[DRV]   100
[INPUT MONITOR]   100
[OUTPUT MONITOR]   100
[RNTST]     1
[TEST]     1
[TEST_DONE]     1
[UVMTOP]     1
[sb]   100
$finish called from file "/fetools/synopsys/installed_tools/vcs/vcs/Q-2020.03-SP2-8/etc/uvm/base/uvm_root.svh", line 437.
$finish at simulation time                 5835

---------------------------------------------------------------------------
VCS Coverage Metrics: during simulation line, cond, FSM, branch, tgl was monitored
---------------------------------------------------------------------------
           V C S   S i m u l a t i o n   R e p o r t 
Time: 5835 ns
CPU Time:      0.580 seconds;       Data structure size:   0.4Mb
Thu Sep 17 21:45:29 2026
