Command: /fetools/work_area/frontend/Batch_11/ananyaganesh/system_verilog/AXI4_LITE_SLAVE/src/work/simv +UVM_TESTNAME=axi4_lite_test_simultaneous_read_write +UVM_VERBOSITY=UVM_HIGH +ntb_random_seed=11352 -cm line+cond+fsm+tgl+branch+assert -cm_dir work/regression.vdb -cm_name axi4_lite_test_simultaneous_read_write_11352 -l work/logs/axi4_lite_test_simultaneous_read_write_11352.log +UVM_NO_RELNOTES
Chronologic VCS simulator copyright 1991-2020
Contains Synopsys proprietary information.
Compiler version Q-2020.03-SP2-8_Full64; Runtime version Q-2020.03-SP2-8_Full64;  Sep 17 16:19 2026
----------------------------------------------------------------
UVM-1.1d.Synopsys
(C) 2007-2013 Mentor Graphics Corporation
(C) 2007-2013 Cadence Design Systems, Inc.
(C) 2006-2013 Synopsys, Inc.
(C) 2011-2013 Cypress Semiconductor Corp.
----------------------------------------------------------------
UVM_INFO @ 0: reporter [RNTST] Running test axi4_lite_test_simultaneous_read_write...
UVM_INFO @ 0: reporter [UVMTOP] UVM testbench topology:
------------------------------------------------------------------------------
Name                       Type                                    Size  Value
------------------------------------------------------------------------------
uvm_test_top               axi4_lite_test_simultaneous_read_write  -     @469 
  env                      axi4_lite_environment                   -     @477 
    aa                     axi4_lite_active_agent                  -     @489 
      drv                  axi4_lite_driver                        -     @569 
        rsp_port           uvm_analysis_port                       -     @586 
        seq_item_port      uvm_seq_item_pull_port                  -     @577 
      inp_mon              axi4_lite_inp_monitor                   -     @552 
        inp_mon_port       uvm_analysis_port                       -     @560 
      seqr                 axi4_lite_seqr                          -     @595 
        rsp_export         uvm_analysis_export                     -     @603 
        seq_item_export    uvm_seq_item_pull_imp                   -     @709 
        arbitration_queue  array                                   0     -    
        lock_queue         array                                   0     -    
        num_last_reqs      integral                                32    'd1  
        num_last_rsps      integral                                32    'd1  
    pa                     axi4_lite_passive_agent                 -     @497 
      out_mon              axi4_lite_out_monitor                   -     @726 
        out_mon_port       uvm_analysis_port                       -     @734 
    sb                     axi4_lite_subscriber                    -     @531 
      analysis_imp         uvm_analysis_imp                        -     @539 
    scb                    axi4_lite_scoreboard                    -     @505 
      inp_port             uvm_analysis_imp_in                     -     @513 
      out_port             uvm_analysis_imp_out                    -     @522 
------------------------------------------------------------------------------

UVM_INFO axi4_lite_subscriber.sv(41) @ 25: uvm_test_top.env.sb [sb] INPUT COVERAGE = 16.67 %
UVM_INFO axi4_lite_inp_monitor.sv(44) @ 25: uvm_test_top.env.aa.inp_mon [INPUT MONITOR]  WRITE awaddr=34fc9bdc wdata=11e9f7af wstrb=1001 
UVM_INFO axi4_lite_out_monitor.sv(28) @ 45: uvm_test_top.env.pa.out_mon [OUTPUT MONITOR] BRESP = 3 RRESP = 0 RDATA = 00000000
UVM_INFO axi4_lite_scoreboard.sv(52) @ 45: uvm_test_top.env.scb [BRESP] Matched : exp_bresp= 3 actual_bresp=3 write = 1 read = 0
UVM_INFO axi4_lite_subscriber.sv(41) @ 55: uvm_test_top.env.sb [sb] INPUT COVERAGE = 28.12 %
UVM_INFO axi4_lite_inp_monitor.sv(38) @ 55: uvm_test_top.env.aa.inp_mon [INPUT MONITOR] READ araddr=0000000c
UVM_INFO axi4_lite_out_monitor.sv(28) @ 65: uvm_test_top.env.pa.out_mon [OUTPUT MONITOR] BRESP = 0 RRESP = 0 RDATA = 00000000
UVM_INFO axi4_lite_driver.sv(34) @ 65: uvm_test_top.env.aa.drv [DRV] awaddr = 34fc9bdc wdata = 11e9f7af wstrb = 9 araddr = 0000000c
UVM_INFO axi4_lite_scoreboard.sv(68) @ 65: uvm_test_top.env.scb [RRESP] Matched : exp_rresp=0 actual_rresp =0 write = 0 read = 1
UVM_INFO axi4_lite_scoreboard.sv(72) @ 65: uvm_test_top.env.scb [RDATA] Matched : exp_rdata=00000000 actual_rdata =00000000
UVM_INFO axi4_lite_subscriber.sv(41) @ 85: uvm_test_top.env.sb [sb] INPUT COVERAGE = 39.58 %
UVM_INFO axi4_lite_inp_monitor.sv(44) @ 85: uvm_test_top.env.aa.inp_mon [INPUT MONITOR]  WRITE awaddr=a9b3b9e0 wdata=d9ba27a2 wstrb=1000 
UVM_INFO axi4_lite_out_monitor.sv(28) @ 105: uvm_test_top.env.pa.out_mon [OUTPUT MONITOR] BRESP = 3 RRESP = 0 RDATA = 00000000
UVM_INFO axi4_lite_scoreboard.sv(52) @ 105: uvm_test_top.env.scb [BRESP] Matched : exp_bresp= 3 actual_bresp=3 write = 1 read = 0
UVM_INFO axi4_lite_subscriber.sv(41) @ 115: uvm_test_top.env.sb [sb] INPUT COVERAGE = 47.92 %
UVM_INFO axi4_lite_inp_monitor.sv(38) @ 115: uvm_test_top.env.aa.inp_mon [INPUT MONITOR] READ araddr=0000002c
UVM_INFO axi4_lite_out_monitor.sv(28) @ 125: uvm_test_top.env.pa.out_mon [OUTPUT MONITOR] BRESP = 0 RRESP = 0 RDATA = 00000000
UVM_INFO axi4_lite_driver.sv(34) @ 125: uvm_test_top.env.aa.drv [DRV] awaddr = a9b3b9e0 wdata = d9ba27a2 wstrb = 8 araddr = 0000002c
UVM_INFO axi4_lite_scoreboard.sv(68) @ 125: uvm_test_top.env.scb [RRESP] Matched : exp_rresp=0 actual_rresp =0 write = 0 read = 1
UVM_INFO axi4_lite_scoreboard.sv(72) @ 125: uvm_test_top.env.scb [RDATA] Matched : exp_rdata=00000000 actual_rdata =00000000
UVM_INFO axi4_lite_subscriber.sv(41) @ 165: uvm_test_top.env.sb [sb] INPUT COVERAGE = 47.92 %
UVM_INFO axi4_lite_inp_monitor.sv(44) @ 165: uvm_test_top.env.aa.inp_mon [INPUT MONITOR]  WRITE awaddr=3df51c74 wdata=33d15078 wstrb=1001 
UVM_INFO axi4_lite_out_monitor.sv(28) @ 185: uvm_test_top.env.pa.out_mon [OUTPUT MONITOR] BRESP = 3 RRESP = 0 RDATA = 00000000
UVM_INFO axi4_lite_scoreboard.sv(52) @ 185: uvm_test_top.env.scb [BRESP] Matched : exp_bresp= 3 actual_bresp=3 write = 1 read = 0
UVM_INFO axi4_lite_subscriber.sv(41) @ 195: uvm_test_top.env.sb [sb] INPUT COVERAGE = 47.92 %
UVM_INFO axi4_lite_inp_monitor.sv(38) @ 195: uvm_test_top.env.aa.inp_mon [INPUT MONITOR] READ araddr=00000020
UVM_INFO axi4_lite_out_monitor.sv(28) @ 205: uvm_test_top.env.pa.out_mon [OUTPUT MONITOR] BRESP = 0 RRESP = 0 RDATA = 00000000
UVM_INFO axi4_lite_driver.sv(34) @ 205: uvm_test_top.env.aa.drv [DRV] awaddr = 3df51c74 wdata = 33d15078 wstrb = 9 araddr = 00000020
UVM_INFO axi4_lite_scoreboard.sv(68) @ 205: uvm_test_top.env.scb [RRESP] Matched : exp_rresp=0 actual_rresp =0 write = 0 read = 1
UVM_INFO axi4_lite_scoreboard.sv(72) @ 205: uvm_test_top.env.scb [RDATA] Matched : exp_rdata=00000000 actual_rdata =00000000
UVM_INFO axi4_lite_subscriber.sv(41) @ 255: uvm_test_top.env.sb [sb] INPUT COVERAGE = 47.92 %
UVM_INFO axi4_lite_inp_monitor.sv(44) @ 255: uvm_test_top.env.aa.inp_mon [INPUT MONITOR]  WRITE awaddr=129a27c8 wdata=322bc946 wstrb=0101 
UVM_INFO axi4_lite_out_monitor.sv(28) @ 275: uvm_test_top.env.pa.out_mon [OUTPUT MONITOR] BRESP = 3 RRESP = 0 RDATA = 00000000
UVM_INFO axi4_lite_scoreboard.sv(52) @ 275: uvm_test_top.env.scb [BRESP] Matched : exp_bresp= 3 actual_bresp=3 write = 1 read = 0
UVM_INFO axi4_lite_subscriber.sv(41) @ 285: uvm_test_top.env.sb [sb] INPUT COVERAGE = 47.92 %
UVM_INFO axi4_lite_inp_monitor.sv(38) @ 285: uvm_test_top.env.aa.inp_mon [INPUT MONITOR] READ araddr=00000014
UVM_INFO axi4_lite_out_monitor.sv(28) @ 295: uvm_test_top.env.pa.out_mon [OUTPUT MONITOR] BRESP = 0 RRESP = 0 RDATA = 00000000
UVM_INFO axi4_lite_driver.sv(34) @ 295: uvm_test_top.env.aa.drv [DRV] awaddr = 129a27c8 wdata = 322bc946 wstrb = 5 araddr = 00000014
UVM_INFO axi4_lite_scoreboard.sv(68) @ 295: uvm_test_top.env.scb [RRESP] Matched : exp_rresp=0 actual_rresp =0 write = 0 read = 1
UVM_INFO axi4_lite_scoreboard.sv(72) @ 295: uvm_test_top.env.scb [RDATA] Matched : exp_rdata=00000000 actual_rdata =00000000
UVM_INFO axi4_lite_subscriber.sv(41) @ 325: uvm_test_top.env.sb [sb] INPUT COVERAGE = 56.25 %
UVM_INFO axi4_lite_inp_monitor.sv(44) @ 325: uvm_test_top.env.aa.inp_mon [INPUT MONITOR]  WRITE awaddr=8d8e34cc wdata=6600e8d4 wstrb=0101 
UVM_INFO axi4_lite_out_monitor.sv(28) @ 345: uvm_test_top.env.pa.out_mon [OUTPUT MONITOR] BRESP = 3 RRESP = 0 RDATA = 00000000
UVM_INFO axi4_lite_scoreboard.sv(52) @ 345: uvm_test_top.env.scb [BRESP] Matched : exp_bresp= 3 actual_bresp=3 write = 1 read = 0
UVM_INFO axi4_lite_subscriber.sv(41) @ 355: uvm_test_top.env.sb [sb] INPUT COVERAGE = 56.25 %
UVM_INFO axi4_lite_inp_monitor.sv(38) @ 355: uvm_test_top.env.aa.inp_mon [INPUT MONITOR] READ araddr=0000002c
UVM_INFO axi4_lite_out_monitor.sv(28) @ 365: uvm_test_top.env.pa.out_mon [OUTPUT MONITOR] BRESP = 0 RRESP = 0 RDATA = 00000000
UVM_INFO axi4_lite_driver.sv(34) @ 365: uvm_test_top.env.aa.drv [DRV] awaddr = 8d8e34cc wdata = 6600e8d4 wstrb = 5 araddr = 0000002c
UVM_INFO axi4_lite_scoreboard.sv(68) @ 365: uvm_test_top.env.scb [RRESP] Matched : exp_rresp=0 actual_rresp =0 write = 0 read = 1
UVM_INFO axi4_lite_scoreboard.sv(72) @ 365: uvm_test_top.env.scb [RDATA] Matched : exp_rdata=00000000 actual_rdata =00000000
UVM_INFO axi4_lite_subscriber.sv(41) @ 385: uvm_test_top.env.sb [sb] INPUT COVERAGE = 56.25 %
UVM_INFO axi4_lite_inp_monitor.sv(44) @ 385: uvm_test_top.env.aa.inp_mon [INPUT MONITOR]  WRITE awaddr=25dc419c wdata=7543da88 wstrb=1000 
UVM_INFO axi4_lite_out_monitor.sv(28) @ 405: uvm_test_top.env.pa.out_mon [OUTPUT MONITOR] BRESP = 3 RRESP = 0 RDATA = 00000000
UVM_INFO axi4_lite_scoreboard.sv(52) @ 405: uvm_test_top.env.scb [BRESP] Matched : exp_bresp= 3 actual_bresp=3 write = 1 read = 0
UVM_INFO axi4_lite_subscriber.sv(41) @ 415: uvm_test_top.env.sb [sb] INPUT COVERAGE = 56.25 %
UVM_INFO axi4_lite_inp_monitor.sv(38) @ 415: uvm_test_top.env.aa.inp_mon [INPUT MONITOR] READ araddr=0000002c
UVM_INFO axi4_lite_out_monitor.sv(28) @ 425: uvm_test_top.env.pa.out_mon [OUTPUT MONITOR] BRESP = 0 RRESP = 0 RDATA = 00000000
UVM_INFO axi4_lite_driver.sv(34) @ 425: uvm_test_top.env.aa.drv [DRV] awaddr = 25dc419c wdata = 7543da88 wstrb = 8 araddr = 0000002c
UVM_INFO axi4_lite_scoreboard.sv(68) @ 425: uvm_test_top.env.scb [RRESP] Matched : exp_rresp=0 actual_rresp =0 write = 0 read = 1
UVM_INFO axi4_lite_scoreboard.sv(72) @ 425: uvm_test_top.env.scb [RDATA] Matched : exp_rdata=00000000 actual_rdata =00000000
UVM_INFO axi4_lite_subscriber.sv(41) @ 455: uvm_test_top.env.sb [sb] INPUT COVERAGE = 59.38 %
UVM_INFO axi4_lite_inp_monitor.sv(44) @ 455: uvm_test_top.env.aa.inp_mon [INPUT MONITOR]  WRITE awaddr=380f89e8 wdata=b2f11d1a wstrb=1111 
UVM_INFO axi4_lite_out_monitor.sv(28) @ 475: uvm_test_top.env.pa.out_mon [OUTPUT MONITOR] BRESP = 3 RRESP = 0 RDATA = 00000000
UVM_INFO axi4_lite_scoreboard.sv(52) @ 475: uvm_test_top.env.scb [BRESP] Matched : exp_bresp= 3 actual_bresp=3 write = 1 read = 0
UVM_INFO axi4_lite_subscriber.sv(41) @ 485: uvm_test_top.env.sb [sb] INPUT COVERAGE = 59.38 %
UVM_INFO axi4_lite_inp_monitor.sv(38) @ 485: uvm_test_top.env.aa.inp_mon [INPUT MONITOR] READ araddr=00000020
UVM_INFO axi4_lite_out_monitor.sv(28) @ 495: uvm_test_top.env.pa.out_mon [OUTPUT MONITOR] BRESP = 0 RRESP = 0 RDATA = 00000000
UVM_INFO axi4_lite_driver.sv(34) @ 495: uvm_test_top.env.aa.drv [DRV] awaddr = 380f89e8 wdata = b2f11d1a wstrb = f araddr = 00000020
UVM_INFO axi4_lite_scoreboard.sv(68) @ 495: uvm_test_top.env.scb [RRESP] Matched : exp_rresp=0 actual_rresp =0 write = 0 read = 1
UVM_INFO axi4_lite_scoreboard.sv(72) @ 495: uvm_test_top.env.scb [RDATA] Matched : exp_rdata=00000000 actual_rdata =00000000
UVM_INFO axi4_lite_subscriber.sv(41) @ 515: uvm_test_top.env.sb [sb] INPUT COVERAGE = 62.50 %
UVM_INFO axi4_lite_inp_monitor.sv(44) @ 515: uvm_test_top.env.aa.inp_mon [INPUT MONITOR]  WRITE awaddr=ab495d54 wdata=026e0341 wstrb=0010 
UVM_INFO axi4_lite_out_monitor.sv(28) @ 535: uvm_test_top.env.pa.out_mon [OUTPUT MONITOR] BRESP = 3 RRESP = 0 RDATA = 00000000
UVM_INFO axi4_lite_scoreboard.sv(52) @ 535: uvm_test_top.env.scb [BRESP] Matched : exp_bresp= 3 actual_bresp=3 write = 1 read = 0
UVM_INFO axi4_lite_subscriber.sv(41) @ 545: uvm_test_top.env.sb [sb] INPUT COVERAGE = 62.50 %
UVM_INFO axi4_lite_inp_monitor.sv(38) @ 545: uvm_test_top.env.aa.inp_mon [INPUT MONITOR] READ araddr=00000004
UVM_INFO axi4_lite_out_monitor.sv(28) @ 555: uvm_test_top.env.pa.out_mon [OUTPUT MONITOR] BRESP = 0 RRESP = 0 RDATA = 00000000
UVM_INFO axi4_lite_driver.sv(34) @ 555: uvm_test_top.env.aa.drv [DRV] awaddr = ab495d54 wdata = 026e0341 wstrb = 2 araddr = 00000004
UVM_INFO axi4_lite_scoreboard.sv(68) @ 555: uvm_test_top.env.scb [RRESP] Matched : exp_rresp=0 actual_rresp =0 write = 0 read = 1
UVM_INFO axi4_lite_scoreboard.sv(72) @ 555: uvm_test_top.env.scb [RDATA] Matched : exp_rdata=00000000 actual_rdata =00000000
UVM_INFO axi4_lite_subscriber.sv(41) @ 575: uvm_test_top.env.sb [sb] INPUT COVERAGE = 62.50 %
UVM_INFO axi4_lite_inp_monitor.sv(44) @ 575: uvm_test_top.env.aa.inp_mon [INPUT MONITOR]  WRITE awaddr=3f79ff14 wdata=9bd5a465 wstrb=0000 
UVM_INFO axi4_lite_out_monitor.sv(28) @ 595: uvm_test_top.env.pa.out_mon [OUTPUT MONITOR] BRESP = 3 RRESP = 0 RDATA = 00000000
UVM_INFO axi4_lite_scoreboard.sv(52) @ 595: uvm_test_top.env.scb [BRESP] Matched : exp_bresp= 3 actual_bresp=3 write = 1 read = 0
UVM_INFO axi4_lite_subscriber.sv(41) @ 605: uvm_test_top.env.sb [sb] INPUT COVERAGE = 70.83 %
UVM_INFO axi4_lite_inp_monitor.sv(38) @ 605: uvm_test_top.env.aa.inp_mon [INPUT MONITOR] READ araddr=00000038
UVM_INFO axi4_lite_out_monitor.sv(28) @ 615: uvm_test_top.env.pa.out_mon [OUTPUT MONITOR] BRESP = 0 RRESP = 2 RDATA = 00000000
UVM_INFO axi4_lite_driver.sv(34) @ 615: uvm_test_top.env.aa.drv [DRV] awaddr = 3f79ff14 wdata = 9bd5a465 wstrb = 0 araddr = 00000038
UVM_INFO axi4_lite_scoreboard.sv(68) @ 615: uvm_test_top.env.scb [RRESP] Matched : exp_rresp=2 actual_rresp =2 write = 0 read = 1
UVM_INFO axi4_lite_scoreboard.sv(72) @ 615: uvm_test_top.env.scb [RDATA] Matched : exp_rdata=00000000 actual_rdata =00000000
UVM_INFO axi4_lite_subscriber.sv(41) @ 655: uvm_test_top.env.sb [sb] INPUT COVERAGE = 70.83 %
UVM_INFO axi4_lite_inp_monitor.sv(44) @ 655: uvm_test_top.env.aa.inp_mon [INPUT MONITOR]  WRITE awaddr=2075cd5c wdata=19fcf5b1 wstrb=1110 
UVM_INFO axi4_lite_out_monitor.sv(28) @ 675: uvm_test_top.env.pa.out_mon [OUTPUT MONITOR] BRESP = 3 RRESP = 0 RDATA = 00000000
UVM_INFO axi4_lite_scoreboard.sv(52) @ 675: uvm_test_top.env.scb [BRESP] Matched : exp_bresp= 3 actual_bresp=3 write = 1 read = 0
UVM_INFO axi4_lite_subscriber.sv(41) @ 685: uvm_test_top.env.sb [sb] INPUT COVERAGE = 70.83 %
UVM_INFO axi4_lite_inp_monitor.sv(38) @ 685: uvm_test_top.env.aa.inp_mon [INPUT MONITOR] READ araddr=00000004
UVM_INFO axi4_lite_out_monitor.sv(28) @ 695: uvm_test_top.env.pa.out_mon [OUTPUT MONITOR] BRESP = 0 RRESP = 0 RDATA = 00000000
UVM_INFO axi4_lite_driver.sv(34) @ 695: uvm_test_top.env.aa.drv [DRV] awaddr = 2075cd5c wdata = 19fcf5b1 wstrb = e araddr = 00000004
UVM_INFO axi4_lite_scoreboard.sv(68) @ 695: uvm_test_top.env.scb [RRESP] Matched : exp_rresp=0 actual_rresp =0 write = 0 read = 1
UVM_INFO axi4_lite_scoreboard.sv(72) @ 695: uvm_test_top.env.scb [RDATA] Matched : exp_rdata=00000000 actual_rdata =00000000
UVM_INFO axi4_lite_subscriber.sv(41) @ 725: uvm_test_top.env.sb [sb] INPUT COVERAGE = 70.83 %
UVM_INFO axi4_lite_inp_monitor.sv(44) @ 725: uvm_test_top.env.aa.inp_mon [INPUT MONITOR]  WRITE awaddr=24c62f98 wdata=9d297b3f wstrb=1000 
UVM_INFO axi4_lite_out_monitor.sv(28) @ 745: uvm_test_top.env.pa.out_mon [OUTPUT MONITOR] BRESP = 3 RRESP = 0 RDATA = 00000000
UVM_INFO axi4_lite_scoreboard.sv(52) @ 745: uvm_test_top.env.scb [BRESP] Matched : exp_bresp= 3 actual_bresp=3 write = 1 read = 0
UVM_INFO axi4_lite_subscriber.sv(41) @ 755: uvm_test_top.env.sb [sb] INPUT COVERAGE = 70.83 %
UVM_INFO axi4_lite_inp_monitor.sv(38) @ 755: uvm_test_top.env.aa.inp_mon [INPUT MONITOR] READ araddr=00000024
UVM_INFO axi4_lite_out_monitor.sv(28) @ 765: uvm_test_top.env.pa.out_mon [OUTPUT MONITOR] BRESP = 0 RRESP = 0 RDATA = 00000000
UVM_INFO axi4_lite_driver.sv(34) @ 765: uvm_test_top.env.aa.drv [DRV] awaddr = 24c62f98 wdata = 9d297b3f wstrb = 8 araddr = 00000024
UVM_INFO axi4_lite_scoreboard.sv(68) @ 765: uvm_test_top.env.scb [RRESP] Matched : exp_rresp=0 actual_rresp =0 write = 0 read = 1
UVM_INFO axi4_lite_scoreboard.sv(72) @ 765: uvm_test_top.env.scb [RDATA] Matched : exp_rdata=00000000 actual_rdata =00000000
UVM_INFO axi4_lite_subscriber.sv(41) @ 805: uvm_test_top.env.sb [sb] INPUT COVERAGE = 70.83 %
UVM_INFO axi4_lite_inp_monitor.sv(44) @ 805: uvm_test_top.env.aa.inp_mon [INPUT MONITOR]  WRITE awaddr=36e9efd8 wdata=e76b8ca8 wstrb=0000 
UVM_INFO axi4_lite_out_monitor.sv(28) @ 825: uvm_test_top.env.pa.out_mon [OUTPUT MONITOR] BRESP = 3 RRESP = 0 RDATA = 00000000
UVM_INFO axi4_lite_scoreboard.sv(52) @ 825: uvm_test_top.env.scb [BRESP] Matched : exp_bresp= 3 actual_bresp=3 write = 1 read = 0
UVM_INFO axi4_lite_subscriber.sv(41) @ 835: uvm_test_top.env.sb [sb] INPUT COVERAGE = 70.83 %
UVM_INFO axi4_lite_inp_monitor.sv(38) @ 835: uvm_test_top.env.aa.inp_mon [INPUT MONITOR] READ araddr=00000014
UVM_INFO axi4_lite_out_monitor.sv(28) @ 845: uvm_test_top.env.pa.out_mon [OUTPUT MONITOR] BRESP = 0 RRESP = 0 RDATA = 00000000
UVM_INFO axi4_lite_driver.sv(34) @ 845: uvm_test_top.env.aa.drv [DRV] awaddr = 36e9efd8 wdata = e76b8ca8 wstrb = 0 araddr = 00000014
UVM_INFO axi4_lite_scoreboard.sv(68) @ 845: uvm_test_top.env.scb [RRESP] Matched : exp_rresp=0 actual_rresp =0 write = 0 read = 1
UVM_INFO axi4_lite_scoreboard.sv(72) @ 845: uvm_test_top.env.scb [RDATA] Matched : exp_rdata=00000000 actual_rdata =00000000
UVM_INFO axi4_lite_subscriber.sv(41) @ 875: uvm_test_top.env.sb [sb] INPUT COVERAGE = 70.83 %
UVM_INFO axi4_lite_inp_monitor.sv(44) @ 875: uvm_test_top.env.aa.inp_mon [INPUT MONITOR]  WRITE awaddr=e7dd1c20 wdata=76f24d8c wstrb=0101 
UVM_INFO axi4_lite_out_monitor.sv(28) @ 895: uvm_test_top.env.pa.out_mon [OUTPUT MONITOR] BRESP = 3 RRESP = 0 RDATA = 00000000
UVM_INFO axi4_lite_scoreboard.sv(52) @ 895: uvm_test_top.env.scb [BRESP] Matched : exp_bresp= 3 actual_bresp=3 write = 1 read = 0
UVM_INFO axi4_lite_subscriber.sv(41) @ 905: uvm_test_top.env.sb [sb] INPUT COVERAGE = 70.83 %
UVM_INFO axi4_lite_inp_monitor.sv(38) @ 905: uvm_test_top.env.aa.inp_mon [INPUT MONITOR] READ araddr=00000010
UVM_INFO axi4_lite_out_monitor.sv(28) @ 915: uvm_test_top.env.pa.out_mon [OUTPUT MONITOR] BRESP = 0 RRESP = 0 RDATA = 00000000
UVM_INFO axi4_lite_driver.sv(34) @ 915: uvm_test_top.env.aa.drv [DRV] awaddr = e7dd1c20 wdata = 76f24d8c wstrb = 5 araddr = 00000010
UVM_INFO axi4_lite_scoreboard.sv(68) @ 915: uvm_test_top.env.scb [RRESP] Matched : exp_rresp=0 actual_rresp =0 write = 0 read = 1
UVM_INFO axi4_lite_scoreboard.sv(72) @ 915: uvm_test_top.env.scb [RDATA] Matched : exp_rdata=00000000 actual_rdata =00000000
UVM_INFO axi4_lite_subscriber.sv(41) @ 965: uvm_test_top.env.sb [sb] INPUT COVERAGE = 70.83 %
UVM_INFO axi4_lite_inp_monitor.sv(44) @ 965: uvm_test_top.env.aa.inp_mon [INPUT MONITOR]  WRITE awaddr=c689e2b4 wdata=32997583 wstrb=0101 
UVM_INFO axi4_lite_out_monitor.sv(28) @ 985: uvm_test_top.env.pa.out_mon [OUTPUT MONITOR] BRESP = 3 RRESP = 0 RDATA = 00000000
UVM_INFO axi4_lite_scoreboard.sv(52) @ 985: uvm_test_top.env.scb [BRESP] Matched : exp_bresp= 3 actual_bresp=3 write = 1 read = 0
UVM_INFO axi4_lite_subscriber.sv(41) @ 995: uvm_test_top.env.sb [sb] INPUT COVERAGE = 70.83 %
UVM_INFO axi4_lite_inp_monitor.sv(38) @ 995: uvm_test_top.env.aa.inp_mon [INPUT MONITOR] READ araddr=00000010
UVM_INFO axi4_lite_out_monitor.sv(28) @ 1005: uvm_test_top.env.pa.out_mon [OUTPUT MONITOR] BRESP = 0 RRESP = 0 RDATA = 00000000
UVM_INFO axi4_lite_driver.sv(34) @ 1005: uvm_test_top.env.aa.drv [DRV] awaddr = c689e2b4 wdata = 32997583 wstrb = 5 araddr = 00000010
UVM_INFO axi4_lite_scoreboard.sv(68) @ 1005: uvm_test_top.env.scb [RRESP] Matched : exp_rresp=0 actual_rresp =0 write = 0 read = 1
UVM_INFO axi4_lite_scoreboard.sv(72) @ 1005: uvm_test_top.env.scb [RDATA] Matched : exp_rdata=00000000 actual_rdata =00000000
UVM_INFO axi4_lite_subscriber.sv(41) @ 1055: uvm_test_top.env.sb [sb] INPUT COVERAGE = 70.83 %
UVM_INFO axi4_lite_inp_monitor.sv(44) @ 1055: uvm_test_top.env.aa.inp_mon [INPUT MONITOR]  WRITE awaddr=49580e2c wdata=ca1f03ed wstrb=1011 
UVM_INFO axi4_lite_out_monitor.sv(28) @ 1075: uvm_test_top.env.pa.out_mon [OUTPUT MONITOR] BRESP = 3 RRESP = 0 RDATA = 00000000
UVM_INFO axi4_lite_scoreboard.sv(52) @ 1075: uvm_test_top.env.scb [BRESP] Matched : exp_bresp= 3 actual_bresp=3 write = 1 read = 0
UVM_INFO axi4_lite_subscriber.sv(41) @ 1085: uvm_test_top.env.sb [sb] INPUT COVERAGE = 70.83 %
UVM_INFO axi4_lite_inp_monitor.sv(38) @ 1085: uvm_test_top.env.aa.inp_mon [INPUT MONITOR] READ araddr=00000014
UVM_INFO axi4_lite_out_monitor.sv(28) @ 1095: uvm_test_top.env.pa.out_mon [OUTPUT MONITOR] BRESP = 0 RRESP = 0 RDATA = 00000000
UVM_INFO axi4_lite_driver.sv(34) @ 1095: uvm_test_top.env.aa.drv [DRV] awaddr = 49580e2c wdata = ca1f03ed wstrb = b araddr = 00000014
UVM_INFO axi4_lite_scoreboard.sv(68) @ 1095: uvm_test_top.env.scb [RRESP] Matched : exp_rresp=0 actual_rresp =0 write = 0 read = 1
UVM_INFO axi4_lite_scoreboard.sv(72) @ 1095: uvm_test_top.env.scb [RDATA] Matched : exp_rdata=00000000 actual_rdata =00000000
UVM_INFO axi4_lite_subscriber.sv(41) @ 1135: uvm_test_top.env.sb [sb] INPUT COVERAGE = 70.83 %
UVM_INFO axi4_lite_inp_monitor.sv(44) @ 1135: uvm_test_top.env.aa.inp_mon [INPUT MONITOR]  WRITE awaddr=d907b6a0 wdata=c36a76b9 wstrb=1001 
UVM_INFO axi4_lite_out_monitor.sv(28) @ 1155: uvm_test_top.env.pa.out_mon [OUTPUT MONITOR] BRESP = 3 RRESP = 0 RDATA = 00000000
UVM_INFO axi4_lite_scoreboard.sv(52) @ 1155: uvm_test_top.env.scb [BRESP] Matched : exp_bresp= 3 actual_bresp=3 write = 1 read = 0
UVM_INFO axi4_lite_subscriber.sv(41) @ 1165: uvm_test_top.env.sb [sb] INPUT COVERAGE = 70.83 %
UVM_INFO axi4_lite_inp_monitor.sv(38) @ 1165: uvm_test_top.env.aa.inp_mon [INPUT MONITOR] READ araddr=00000010
UVM_INFO axi4_lite_out_monitor.sv(28) @ 1175: uvm_test_top.env.pa.out_mon [OUTPUT MONITOR] BRESP = 0 RRESP = 0 RDATA = 00000000
UVM_INFO axi4_lite_driver.sv(34) @ 1175: uvm_test_top.env.aa.drv [DRV] awaddr = d907b6a0 wdata = c36a76b9 wstrb = 9 araddr = 00000010
UVM_INFO axi4_lite_scoreboard.sv(68) @ 1175: uvm_test_top.env.scb [RRESP] Matched : exp_rresp=0 actual_rresp =0 write = 0 read = 1
UVM_INFO axi4_lite_scoreboard.sv(72) @ 1175: uvm_test_top.env.scb [RDATA] Matched : exp_rdata=00000000 actual_rdata =00000000
UVM_INFO axi4_lite_subscriber.sv(41) @ 1215: uvm_test_top.env.sb [sb] INPUT COVERAGE = 70.83 %
UVM_INFO axi4_lite_inp_monitor.sv(44) @ 1215: uvm_test_top.env.aa.inp_mon [INPUT MONITOR]  WRITE awaddr=f79985d4 wdata=2aef096a wstrb=0000 
UVM_INFO axi4_lite_out_monitor.sv(28) @ 1235: uvm_test_top.env.pa.out_mon [OUTPUT MONITOR] BRESP = 3 RRESP = 0 RDATA = 00000000
UVM_INFO axi4_lite_scoreboard.sv(52) @ 1235: uvm_test_top.env.scb [BRESP] Matched : exp_bresp= 3 actual_bresp=3 write = 1 read = 0
UVM_INFO axi4_lite_subscriber.sv(41) @ 1245: uvm_test_top.env.sb [sb] INPUT COVERAGE = 70.83 %
UVM_INFO axi4_lite_inp_monitor.sv(38) @ 1245: uvm_test_top.env.aa.inp_mon [INPUT MONITOR] READ araddr=00000038
UVM_INFO axi4_lite_out_monitor.sv(28) @ 1255: uvm_test_top.env.pa.out_mon [OUTPUT MONITOR] BRESP = 0 RRESP = 2 RDATA = 00000000
UVM_INFO axi4_lite_driver.sv(34) @ 1255: uvm_test_top.env.aa.drv [DRV] awaddr = f79985d4 wdata = 2aef096a wstrb = 0 araddr = 00000038
UVM_INFO axi4_lite_scoreboard.sv(68) @ 1255: uvm_test_top.env.scb [RRESP] Matched : exp_rresp=2 actual_rresp =2 write = 0 read = 1
UVM_INFO axi4_lite_scoreboard.sv(72) @ 1255: uvm_test_top.env.scb [RDATA] Matched : exp_rdata=00000000 actual_rdata =00000000
UVM_INFO axi4_lite_subscriber.sv(41) @ 1295: uvm_test_top.env.sb [sb] INPUT COVERAGE = 73.96 %
UVM_INFO axi4_lite_inp_monitor.sv(44) @ 1295: uvm_test_top.env.aa.inp_mon [INPUT MONITOR]  WRITE awaddr=f14fe2f4 wdata=4fe1fafe wstrb=0100 
UVM_INFO axi4_lite_out_monitor.sv(28) @ 1315: uvm_test_top.env.pa.out_mon [OUTPUT MONITOR] BRESP = 3 RRESP = 0 RDATA = 00000000
UVM_INFO axi4_lite_scoreboard.sv(52) @ 1315: uvm_test_top.env.scb [BRESP] Matched : exp_bresp= 3 actual_bresp=3 write = 1 read = 0
UVM_INFO axi4_lite_subscriber.sv(41) @ 1325: uvm_test_top.env.sb [sb] INPUT COVERAGE = 73.96 %
UVM_INFO axi4_lite_inp_monitor.sv(38) @ 1325: uvm_test_top.env.aa.inp_mon [INPUT MONITOR] READ araddr=00000020
UVM_INFO axi4_lite_out_monitor.sv(28) @ 1335: uvm_test_top.env.pa.out_mon [OUTPUT MONITOR] BRESP = 0 RRESP = 0 RDATA = 00000000
UVM_INFO axi4_lite_driver.sv(34) @ 1335: uvm_test_top.env.aa.drv [DRV] awaddr = f14fe2f4 wdata = 4fe1fafe wstrb = 4 araddr = 00000020
UVM_INFO axi4_lite_scoreboard.sv(68) @ 1335: uvm_test_top.env.scb [RRESP] Matched : exp_rresp=0 actual_rresp =0 write = 0 read = 1
UVM_INFO axi4_lite_scoreboard.sv(72) @ 1335: uvm_test_top.env.scb [RDATA] Matched : exp_rdata=00000000 actual_rdata =00000000
UVM_INFO axi4_lite_subscriber.sv(41) @ 1375: uvm_test_top.env.sb [sb] INPUT COVERAGE = 73.96 %
UVM_INFO axi4_lite_inp_monitor.sv(44) @ 1375: uvm_test_top.env.aa.inp_mon [INPUT MONITOR]  WRITE awaddr=2c7127c0 wdata=af37d5b1 wstrb=1111 
UVM_INFO axi4_lite_out_monitor.sv(28) @ 1395: uvm_test_top.env.pa.out_mon [OUTPUT MONITOR] BRESP = 3 RRESP = 0 RDATA = 00000000
UVM_INFO axi4_lite_scoreboard.sv(52) @ 1395: uvm_test_top.env.scb [BRESP] Matched : exp_bresp= 3 actual_bresp=3 write = 1 read = 0
UVM_INFO axi4_lite_subscriber.sv(41) @ 1405: uvm_test_top.env.sb [sb] INPUT COVERAGE = 73.96 %
UVM_INFO axi4_lite_inp_monitor.sv(38) @ 1405: uvm_test_top.env.aa.inp_mon [INPUT MONITOR] READ araddr=00000010
UVM_INFO axi4_lite_out_monitor.sv(28) @ 1415: uvm_test_top.env.pa.out_mon [OUTPUT MONITOR] BRESP = 0 RRESP = 0 RDATA = 00000000
UVM_INFO axi4_lite_driver.sv(34) @ 1415: uvm_test_top.env.aa.drv [DRV] awaddr = 2c7127c0 wdata = af37d5b1 wstrb = f araddr = 00000010
UVM_INFO axi4_lite_scoreboard.sv(68) @ 1415: uvm_test_top.env.scb [RRESP] Matched : exp_rresp=0 actual_rresp =0 write = 0 read = 1
UVM_INFO axi4_lite_scoreboard.sv(72) @ 1415: uvm_test_top.env.scb [RDATA] Matched : exp_rdata=00000000 actual_rdata =00000000
UVM_INFO axi4_lite_subscriber.sv(41) @ 1455: uvm_test_top.env.sb [sb] INPUT COVERAGE = 73.96 %
UVM_INFO axi4_lite_inp_monitor.sv(44) @ 1455: uvm_test_top.env.aa.inp_mon [INPUT MONITOR]  WRITE awaddr=3d9f461c wdata=ca256105 wstrb=0110 
UVM_INFO axi4_lite_out_monitor.sv(28) @ 1475: uvm_test_top.env.pa.out_mon [OUTPUT MONITOR] BRESP = 3 RRESP = 0 RDATA = 00000000
UVM_INFO axi4_lite_scoreboard.sv(52) @ 1475: uvm_test_top.env.scb [BRESP] Matched : exp_bresp= 3 actual_bresp=3 write = 1 read = 0
UVM_INFO axi4_lite_subscriber.sv(41) @ 1485: uvm_test_top.env.sb [sb] INPUT COVERAGE = 73.96 %
UVM_INFO axi4_lite_inp_monitor.sv(38) @ 1485: uvm_test_top.env.aa.inp_mon [INPUT MONITOR] READ araddr=00000000
UVM_INFO axi4_lite_out_monitor.sv(28) @ 1495: uvm_test_top.env.pa.out_mon [OUTPUT MONITOR] BRESP = 0 RRESP = 0 RDATA = 00000000
UVM_INFO axi4_lite_driver.sv(34) @ 1495: uvm_test_top.env.aa.drv [DRV] awaddr = 3d9f461c wdata = ca256105 wstrb = 6 araddr = 00000000
UVM_INFO axi4_lite_scoreboard.sv(68) @ 1495: uvm_test_top.env.scb [RRESP] Matched : exp_rresp=0 actual_rresp =0 write = 0 read = 1
UVM_INFO axi4_lite_scoreboard.sv(72) @ 1495: uvm_test_top.env.scb [RDATA] Matched : exp_rdata=00000000 actual_rdata =00000000
UVM_INFO axi4_lite_subscriber.sv(41) @ 1535: uvm_test_top.env.sb [sb] INPUT COVERAGE = 73.96 %
UVM_INFO axi4_lite_inp_monitor.sv(44) @ 1535: uvm_test_top.env.aa.inp_mon [INPUT MONITOR]  WRITE awaddr=0232e16c wdata=756ae0cd wstrb=1101 
UVM_INFO axi4_lite_out_monitor.sv(28) @ 1555: uvm_test_top.env.pa.out_mon [OUTPUT MONITOR] BRESP = 3 RRESP = 0 RDATA = 00000000
UVM_INFO axi4_lite_scoreboard.sv(52) @ 1555: uvm_test_top.env.scb [BRESP] Matched : exp_bresp= 3 actual_bresp=3 write = 1 read = 0
UVM_INFO axi4_lite_subscriber.sv(41) @ 1565: uvm_test_top.env.sb [sb] INPUT COVERAGE = 73.96 %
UVM_INFO axi4_lite_inp_monitor.sv(38) @ 1565: uvm_test_top.env.aa.inp_mon [INPUT MONITOR] READ araddr=00000030
UVM_INFO axi4_lite_out_monitor.sv(28) @ 1575: uvm_test_top.env.pa.out_mon [OUTPUT MONITOR] BRESP = 0 RRESP = 0 RDATA = 00000000
UVM_INFO axi4_lite_driver.sv(34) @ 1575: uvm_test_top.env.aa.drv [DRV] awaddr = 0232e16c wdata = 756ae0cd wstrb = d araddr = 00000030
UVM_INFO axi4_lite_scoreboard.sv(68) @ 1575: uvm_test_top.env.scb [RRESP] Matched : exp_rresp=0 actual_rresp =0 write = 0 read = 1
UVM_INFO axi4_lite_scoreboard.sv(72) @ 1575: uvm_test_top.env.scb [RDATA] Matched : exp_rdata=00000000 actual_rdata =00000000
UVM_INFO axi4_lite_subscriber.sv(41) @ 1625: uvm_test_top.env.sb [sb] INPUT COVERAGE = 77.08 %
UVM_INFO axi4_lite_inp_monitor.sv(44) @ 1625: uvm_test_top.env.aa.inp_mon [INPUT MONITOR]  WRITE awaddr=579bf5b0 wdata=eb9c7db9 wstrb=0001 
UVM_INFO axi4_lite_out_monitor.sv(28) @ 1645: uvm_test_top.env.pa.out_mon [OUTPUT MONITOR] BRESP = 3 RRESP = 0 RDATA = 00000000
UVM_INFO axi4_lite_scoreboard.sv(52) @ 1645: uvm_test_top.env.scb [BRESP] Matched : exp_bresp= 3 actual_bresp=3 write = 1 read = 0
UVM_INFO axi4_lite_subscriber.sv(41) @ 1655: uvm_test_top.env.sb [sb] INPUT COVERAGE = 77.08 %
UVM_INFO axi4_lite_inp_monitor.sv(38) @ 1655: uvm_test_top.env.aa.inp_mon [INPUT MONITOR] READ araddr=00000014
UVM_INFO axi4_lite_out_monitor.sv(28) @ 1665: uvm_test_top.env.pa.out_mon [OUTPUT MONITOR] BRESP = 0 RRESP = 0 RDATA = 00000000
UVM_INFO axi4_lite_driver.sv(34) @ 1665: uvm_test_top.env.aa.drv [DRV] awaddr = 579bf5b0 wdata = eb9c7db9 wstrb = 1 araddr = 00000014
UVM_INFO axi4_lite_scoreboard.sv(68) @ 1665: uvm_test_top.env.scb [RRESP] Matched : exp_rresp=0 actual_rresp =0 write = 0 read = 1
UVM_INFO axi4_lite_scoreboard.sv(72) @ 1665: uvm_test_top.env.scb [RDATA] Matched : exp_rdata=00000000 actual_rdata =00000000
UVM_INFO axi4_lite_subscriber.sv(41) @ 1685: uvm_test_top.env.sb [sb] INPUT COVERAGE = 77.08 %
UVM_INFO axi4_lite_inp_monitor.sv(44) @ 1685: uvm_test_top.env.aa.inp_mon [INPUT MONITOR]  WRITE awaddr=2db69850 wdata=f8b6c207 wstrb=0100 
UVM_INFO axi4_lite_out_monitor.sv(28) @ 1705: uvm_test_top.env.pa.out_mon [OUTPUT MONITOR] BRESP = 3 RRESP = 0 RDATA = 00000000
UVM_INFO axi4_lite_scoreboard.sv(52) @ 1705: uvm_test_top.env.scb [BRESP] Matched : exp_bresp= 3 actual_bresp=3 write = 1 read = 0
UVM_INFO axi4_lite_subscriber.sv(41) @ 1715: uvm_test_top.env.sb [sb] INPUT COVERAGE = 77.08 %
UVM_INFO axi4_lite_inp_monitor.sv(38) @ 1715: uvm_test_top.env.aa.inp_mon [INPUT MONITOR] READ araddr=00000024
UVM_INFO axi4_lite_out_monitor.sv(28) @ 1725: uvm_test_top.env.pa.out_mon [OUTPUT MONITOR] BRESP = 0 RRESP = 0 RDATA = 00000000
UVM_INFO axi4_lite_driver.sv(34) @ 1725: uvm_test_top.env.aa.drv [DRV] awaddr = 2db69850 wdata = f8b6c207 wstrb = 4 araddr = 00000024
UVM_INFO axi4_lite_scoreboard.sv(68) @ 1725: uvm_test_top.env.scb [RRESP] Matched : exp_rresp=0 actual_rresp =0 write = 0 read = 1
UVM_INFO axi4_lite_scoreboard.sv(72) @ 1725: uvm_test_top.env.scb [RDATA] Matched : exp_rdata=00000000 actual_rdata =00000000
UVM_INFO axi4_lite_subscriber.sv(41) @ 1765: uvm_test_top.env.sb [sb] INPUT COVERAGE = 77.08 %
UVM_INFO axi4_lite_inp_monitor.sv(44) @ 1765: uvm_test_top.env.aa.inp_mon [INPUT MONITOR]  WRITE awaddr=c00e8d40 wdata=8e17dd81 wstrb=0010 
UVM_INFO axi4_lite_out_monitor.sv(28) @ 1785: uvm_test_top.env.pa.out_mon [OUTPUT MONITOR] BRESP = 3 RRESP = 0 RDATA = 00000000
UVM_INFO axi4_lite_scoreboard.sv(52) @ 1785: uvm_test_top.env.scb [BRESP] Matched : exp_bresp= 3 actual_bresp=3 write = 1 read = 0
UVM_INFO axi4_lite_subscriber.sv(41) @ 1795: uvm_test_top.env.sb [sb] INPUT COVERAGE = 77.08 %
UVM_INFO axi4_lite_inp_monitor.sv(38) @ 1795: uvm_test_top.env.aa.inp_mon [INPUT MONITOR] READ araddr=00000030
UVM_INFO axi4_lite_out_monitor.sv(28) @ 1805: uvm_test_top.env.pa.out_mon [OUTPUT MONITOR] BRESP = 0 RRESP = 0 RDATA = 00000000
UVM_INFO axi4_lite_driver.sv(34) @ 1805: uvm_test_top.env.aa.drv [DRV] awaddr = c00e8d40 wdata = 8e17dd81 wstrb = 2 araddr = 00000030
UVM_INFO axi4_lite_scoreboard.sv(68) @ 1805: uvm_test_top.env.scb [RRESP] Matched : exp_rresp=0 actual_rresp =0 write = 0 read = 1
UVM_INFO axi4_lite_scoreboard.sv(72) @ 1805: uvm_test_top.env.scb [RDATA] Matched : exp_rdata=00000000 actual_rdata =00000000
UVM_INFO axi4_lite_subscriber.sv(41) @ 1845: uvm_test_top.env.sb [sb] INPUT COVERAGE = 77.08 %
UVM_INFO axi4_lite_inp_monitor.sv(44) @ 1845: uvm_test_top.env.aa.inp_mon [INPUT MONITOR]  WRITE awaddr=df90b64c wdata=4f94e842 wstrb=1010 
UVM_INFO axi4_lite_out_monitor.sv(28) @ 1865: uvm_test_top.env.pa.out_mon [OUTPUT MONITOR] BRESP = 3 RRESP = 0 RDATA = 00000000
UVM_INFO axi4_lite_scoreboard.sv(52) @ 1865: uvm_test_top.env.scb [BRESP] Matched : exp_bresp= 3 actual_bresp=3 write = 1 read = 0
UVM_INFO axi4_lite_subscriber.sv(41) @ 1875: uvm_test_top.env.sb [sb] INPUT COVERAGE = 77.08 %
UVM_INFO axi4_lite_inp_monitor.sv(38) @ 1875: uvm_test_top.env.aa.inp_mon [INPUT MONITOR] READ araddr=00000034
UVM_INFO axi4_lite_out_monitor.sv(28) @ 1885: uvm_test_top.env.pa.out_mon [OUTPUT MONITOR] BRESP = 0 RRESP = 2 RDATA = 00000000
UVM_INFO axi4_lite_driver.sv(34) @ 1885: uvm_test_top.env.aa.drv [DRV] awaddr = df90b64c wdata = 4f94e842 wstrb = a araddr = 00000034
UVM_INFO axi4_lite_scoreboard.sv(68) @ 1885: uvm_test_top.env.scb [RRESP] Matched : exp_rresp=2 actual_rresp =2 write = 0 read = 1
UVM_INFO axi4_lite_scoreboard.sv(72) @ 1885: uvm_test_top.env.scb [RDATA] Matched : exp_rdata=00000000 actual_rdata =00000000
UVM_INFO axi4_lite_subscriber.sv(41) @ 1915: uvm_test_top.env.sb [sb] INPUT COVERAGE = 77.08 %
UVM_INFO axi4_lite_inp_monitor.sv(44) @ 1915: uvm_test_top.env.aa.inp_mon [INPUT MONITOR]  WRITE awaddr=69b7c75c wdata=00a6c00b wstrb=1110 
UVM_INFO axi4_lite_out_monitor.sv(28) @ 1935: uvm_test_top.env.pa.out_mon [OUTPUT MONITOR] BRESP = 3 RRESP = 0 RDATA = 00000000
UVM_INFO axi4_lite_scoreboard.sv(52) @ 1935: uvm_test_top.env.scb [BRESP] Matched : exp_bresp= 3 actual_bresp=3 write = 1 read = 0
UVM_INFO axi4_lite_subscriber.sv(41) @ 1945: uvm_test_top.env.sb [sb] INPUT COVERAGE = 77.08 %
UVM_INFO axi4_lite_inp_monitor.sv(38) @ 1945: uvm_test_top.env.aa.inp_mon [INPUT MONITOR] READ araddr=00000028
UVM_INFO axi4_lite_out_monitor.sv(28) @ 1955: uvm_test_top.env.pa.out_mon [OUTPUT MONITOR] BRESP = 0 RRESP = 0 RDATA = 00000000
UVM_INFO axi4_lite_driver.sv(34) @ 1955: uvm_test_top.env.aa.drv [DRV] awaddr = 69b7c75c wdata = 00a6c00b wstrb = e araddr = 00000028
UVM_INFO axi4_lite_scoreboard.sv(68) @ 1955: uvm_test_top.env.scb [RRESP] Matched : exp_rresp=0 actual_rresp =0 write = 0 read = 1
UVM_INFO axi4_lite_scoreboard.sv(72) @ 1955: uvm_test_top.env.scb [RDATA] Matched : exp_rdata=00000000 actual_rdata =00000000
UVM_INFO axi4_lite_subscriber.sv(41) @ 1985: uvm_test_top.env.sb [sb] INPUT COVERAGE = 80.21 %
UVM_INFO axi4_lite_inp_monitor.sv(44) @ 1985: uvm_test_top.env.aa.inp_mon [INPUT MONITOR]  WRITE awaddr=0efc6648 wdata=ee853d0f wstrb=0011 
UVM_INFO axi4_lite_out_monitor.sv(28) @ 2005: uvm_test_top.env.pa.out_mon [OUTPUT MONITOR] BRESP = 3 RRESP = 0 RDATA = 00000000
UVM_INFO axi4_lite_scoreboard.sv(52) @ 2005: uvm_test_top.env.scb [BRESP] Matched : exp_bresp= 3 actual_bresp=3 write = 1 read = 0
UVM_INFO axi4_lite_subscriber.sv(41) @ 2015: uvm_test_top.env.sb [sb] INPUT COVERAGE = 80.21 %
UVM_INFO axi4_lite_inp_monitor.sv(38) @ 2015: uvm_test_top.env.aa.inp_mon [INPUT MONITOR] READ araddr=00000028
UVM_INFO axi4_lite_out_monitor.sv(28) @ 2025: uvm_test_top.env.pa.out_mon [OUTPUT MONITOR] BRESP = 0 RRESP = 0 RDATA = 00000000
UVM_INFO axi4_lite_driver.sv(34) @ 2025: uvm_test_top.env.aa.drv [DRV] awaddr = 0efc6648 wdata = ee853d0f wstrb = 3 araddr = 00000028
UVM_INFO axi4_lite_scoreboard.sv(68) @ 2025: uvm_test_top.env.scb [RRESP] Matched : exp_rresp=0 actual_rresp =0 write = 0 read = 1
UVM_INFO axi4_lite_scoreboard.sv(72) @ 2025: uvm_test_top.env.scb [RDATA] Matched : exp_rdata=00000000 actual_rdata =00000000
UVM_INFO axi4_lite_subscriber.sv(41) @ 2075: uvm_test_top.env.sb [sb] INPUT COVERAGE = 80.21 %
UVM_INFO axi4_lite_inp_monitor.sv(44) @ 2075: uvm_test_top.env.aa.inp_mon [INPUT MONITOR]  WRITE awaddr=7a9af5b8 wdata=176e7a94 wstrb=0111 
UVM_INFO axi4_lite_out_monitor.sv(28) @ 2095: uvm_test_top.env.pa.out_mon [OUTPUT MONITOR] BRESP = 3 RRESP = 0 RDATA = 00000000
UVM_INFO axi4_lite_scoreboard.sv(52) @ 2095: uvm_test_top.env.scb [BRESP] Matched : exp_bresp= 3 actual_bresp=3 write = 1 read = 0
UVM_INFO axi4_lite_subscriber.sv(41) @ 2105: uvm_test_top.env.sb [sb] INPUT COVERAGE = 80.21 %
UVM_INFO axi4_lite_inp_monitor.sv(38) @ 2105: uvm_test_top.env.aa.inp_mon [INPUT MONITOR] READ araddr=00000014
UVM_INFO axi4_lite_out_monitor.sv(28) @ 2115: uvm_test_top.env.pa.out_mon [OUTPUT MONITOR] BRESP = 0 RRESP = 0 RDATA = 00000000
UVM_INFO axi4_lite_driver.sv(34) @ 2115: uvm_test_top.env.aa.drv [DRV] awaddr = 7a9af5b8 wdata = 176e7a94 wstrb = 7 araddr = 00000014
UVM_INFO axi4_lite_scoreboard.sv(68) @ 2115: uvm_test_top.env.scb [RRESP] Matched : exp_rresp=0 actual_rresp =0 write = 0 read = 1
UVM_INFO axi4_lite_scoreboard.sv(72) @ 2115: uvm_test_top.env.scb [RDATA] Matched : exp_rdata=00000000 actual_rdata =00000000
UVM_INFO axi4_lite_subscriber.sv(41) @ 2155: uvm_test_top.env.sb [sb] INPUT COVERAGE = 83.33 %
UVM_INFO axi4_lite_inp_monitor.sv(44) @ 2155: uvm_test_top.env.aa.inp_mon [INPUT MONITOR]  WRITE awaddr=4d22c5a8 wdata=64d339a1 wstrb=1100 
UVM_INFO axi4_lite_out_monitor.sv(28) @ 2175: uvm_test_top.env.pa.out_mon [OUTPUT MONITOR] BRESP = 3 RRESP = 0 RDATA = 00000000
UVM_INFO axi4_lite_scoreboard.sv(52) @ 2175: uvm_test_top.env.scb [BRESP] Matched : exp_bresp= 3 actual_bresp=3 write = 1 read = 0
UVM_INFO axi4_lite_subscriber.sv(41) @ 2185: uvm_test_top.env.sb [sb] INPUT COVERAGE = 83.33 %
UVM_INFO axi4_lite_inp_monitor.sv(38) @ 2185: uvm_test_top.env.aa.inp_mon [INPUT MONITOR] READ araddr=00000014
UVM_INFO axi4_lite_out_monitor.sv(28) @ 2195: uvm_test_top.env.pa.out_mon [OUTPUT MONITOR] BRESP = 0 RRESP = 0 RDATA = 00000000
UVM_INFO axi4_lite_driver.sv(34) @ 2195: uvm_test_top.env.aa.drv [DRV] awaddr = 4d22c5a8 wdata = 64d339a1 wstrb = c araddr = 00000014
UVM_INFO axi4_lite_scoreboard.sv(68) @ 2195: uvm_test_top.env.scb [RRESP] Matched : exp_rresp=0 actual_rresp =0 write = 0 read = 1
UVM_INFO axi4_lite_scoreboard.sv(72) @ 2195: uvm_test_top.env.scb [RDATA] Matched : exp_rdata=00000000 actual_rdata =00000000
UVM_INFO axi4_lite_subscriber.sv(41) @ 2245: uvm_test_top.env.sb [sb] INPUT COVERAGE = 83.33 %
UVM_INFO axi4_lite_inp_monitor.sv(44) @ 2245: uvm_test_top.env.aa.inp_mon [INPUT MONITOR]  WRITE awaddr=58bfa124 wdata=7b4b6f17 wstrb=0100 
UVM_INFO axi4_lite_out_monitor.sv(28) @ 2265: uvm_test_top.env.pa.out_mon [OUTPUT MONITOR] BRESP = 3 RRESP = 0 RDATA = 00000000
UVM_INFO axi4_lite_scoreboard.sv(52) @ 2265: uvm_test_top.env.scb [BRESP] Matched : exp_bresp= 3 actual_bresp=3 write = 1 read = 0
UVM_INFO axi4_lite_subscriber.sv(41) @ 2275: uvm_test_top.env.sb [sb] INPUT COVERAGE = 83.33 %
UVM_INFO axi4_lite_inp_monitor.sv(38) @ 2275: uvm_test_top.env.aa.inp_mon [INPUT MONITOR] READ araddr=00000020
UVM_INFO axi4_lite_out_monitor.sv(28) @ 2285: uvm_test_top.env.pa.out_mon [OUTPUT MONITOR] BRESP = 0 RRESP = 0 RDATA = 00000000
UVM_INFO axi4_lite_driver.sv(34) @ 2285: uvm_test_top.env.aa.drv [DRV] awaddr = 58bfa124 wdata = 7b4b6f17 wstrb = 4 araddr = 00000020
UVM_INFO axi4_lite_scoreboard.sv(68) @ 2285: uvm_test_top.env.scb [RRESP] Matched : exp_rresp=0 actual_rresp =0 write = 0 read = 1
UVM_INFO axi4_lite_scoreboard.sv(72) @ 2285: uvm_test_top.env.scb [RDATA] Matched : exp_rdata=00000000 actual_rdata =00000000
UVM_INFO axi4_lite_subscriber.sv(41) @ 2315: uvm_test_top.env.sb [sb] INPUT COVERAGE = 83.33 %
UVM_INFO axi4_lite_inp_monitor.sv(44) @ 2315: uvm_test_top.env.aa.inp_mon [INPUT MONITOR]  WRITE awaddr=7860e080 wdata=114e0aef wstrb=1011 
UVM_INFO axi4_lite_out_monitor.sv(28) @ 2335: uvm_test_top.env.pa.out_mon [OUTPUT MONITOR] BRESP = 3 RRESP = 0 RDATA = 00000000
UVM_INFO axi4_lite_scoreboard.sv(52) @ 2335: uvm_test_top.env.scb [BRESP] Matched : exp_bresp= 3 actual_bresp=3 write = 1 read = 0
UVM_INFO axi4_lite_subscriber.sv(41) @ 2345: uvm_test_top.env.sb [sb] INPUT COVERAGE = 83.33 %
UVM_INFO axi4_lite_inp_monitor.sv(38) @ 2345: uvm_test_top.env.aa.inp_mon [INPUT MONITOR] READ araddr=0000000c
UVM_INFO axi4_lite_out_monitor.sv(28) @ 2355: uvm_test_top.env.pa.out_mon [OUTPUT MONITOR] BRESP = 0 RRESP = 0 RDATA = 00000000
UVM_INFO axi4_lite_driver.sv(34) @ 2355: uvm_test_top.env.aa.drv [DRV] awaddr = 7860e080 wdata = 114e0aef wstrb = b araddr = 0000000c
UVM_INFO axi4_lite_scoreboard.sv(68) @ 2355: uvm_test_top.env.scb [RRESP] Matched : exp_rresp=0 actual_rresp =0 write = 0 read = 1
UVM_INFO axi4_lite_scoreboard.sv(72) @ 2355: uvm_test_top.env.scb [RDATA] Matched : exp_rdata=00000000 actual_rdata =00000000
UVM_INFO axi4_lite_subscriber.sv(41) @ 2385: uvm_test_top.env.sb [sb] INPUT COVERAGE = 83.33 %
UVM_INFO axi4_lite_inp_monitor.sv(44) @ 2385: uvm_test_top.env.aa.inp_mon [INPUT MONITOR]  WRITE awaddr=87e29d88 wdata=ba64d9a8 wstrb=1101 
UVM_INFO axi4_lite_out_monitor.sv(28) @ 2405: uvm_test_top.env.pa.out_mon [OUTPUT MONITOR] BRESP = 3 RRESP = 0 RDATA = 00000000
UVM_INFO axi4_lite_scoreboard.sv(52) @ 2405: uvm_test_top.env.scb [BRESP] Matched : exp_bresp= 3 actual_bresp=3 write = 1 read = 0
UVM_INFO axi4_lite_subscriber.sv(41) @ 2415: uvm_test_top.env.sb [sb] INPUT COVERAGE = 83.33 %
UVM_INFO axi4_lite_inp_monitor.sv(38) @ 2415: uvm_test_top.env.aa.inp_mon [INPUT MONITOR] READ araddr=00000018
UVM_INFO axi4_lite_out_monitor.sv(28) @ 2425: uvm_test_top.env.pa.out_mon [OUTPUT MONITOR] BRESP = 0 RRESP = 0 RDATA = 00000000
UVM_INFO axi4_lite_driver.sv(34) @ 2425: uvm_test_top.env.aa.drv [DRV] awaddr = 87e29d88 wdata = ba64d9a8 wstrb = d araddr = 00000018
UVM_INFO axi4_lite_scoreboard.sv(68) @ 2425: uvm_test_top.env.scb [RRESP] Matched : exp_rresp=0 actual_rresp =0 write = 0 read = 1
UVM_INFO axi4_lite_scoreboard.sv(72) @ 2425: uvm_test_top.env.scb [RDATA] Matched : exp_rdata=00000000 actual_rdata =00000000
UVM_INFO axi4_lite_subscriber.sv(41) @ 2455: uvm_test_top.env.sb [sb] INPUT COVERAGE = 83.33 %
UVM_INFO axi4_lite_inp_monitor.sv(44) @ 2455: uvm_test_top.env.aa.inp_mon [INPUT MONITOR]  WRITE awaddr=42625594 wdata=0379ffa1 wstrb=1000 
UVM_INFO axi4_lite_out_monitor.sv(28) @ 2475: uvm_test_top.env.pa.out_mon [OUTPUT MONITOR] BRESP = 3 RRESP = 0 RDATA = 00000000
UVM_INFO axi4_lite_scoreboard.sv(52) @ 2475: uvm_test_top.env.scb [BRESP] Matched : exp_bresp= 3 actual_bresp=3 write = 1 read = 0
UVM_INFO axi4_lite_subscriber.sv(41) @ 2485: uvm_test_top.env.sb [sb] INPUT COVERAGE = 83.33 %
UVM_INFO axi4_lite_inp_monitor.sv(38) @ 2485: uvm_test_top.env.aa.inp_mon [INPUT MONITOR] READ araddr=00000004
UVM_INFO axi4_lite_out_monitor.sv(28) @ 2495: uvm_test_top.env.pa.out_mon [OUTPUT MONITOR] BRESP = 0 RRESP = 0 RDATA = 00000000
UVM_INFO axi4_lite_driver.sv(34) @ 2495: uvm_test_top.env.aa.drv [DRV] awaddr = 42625594 wdata = 0379ffa1 wstrb = 8 araddr = 00000004
UVM_INFO axi4_lite_scoreboard.sv(68) @ 2495: uvm_test_top.env.scb [RRESP] Matched : exp_rresp=0 actual_rresp =0 write = 0 read = 1
UVM_INFO axi4_lite_scoreboard.sv(72) @ 2495: uvm_test_top.env.scb [RDATA] Matched : exp_rdata=00000000 actual_rdata =00000000
UVM_INFO axi4_lite_subscriber.sv(41) @ 2535: uvm_test_top.env.sb [sb] INPUT COVERAGE = 83.33 %
UVM_INFO axi4_lite_inp_monitor.sv(44) @ 2535: uvm_test_top.env.aa.inp_mon [INPUT MONITOR]  WRITE awaddr=6d8c2734 wdata=812f8f82 wstrb=1101 
UVM_INFO axi4_lite_out_monitor.sv(28) @ 2555: uvm_test_top.env.pa.out_mon [OUTPUT MONITOR] BRESP = 3 RRESP = 0 RDATA = 00000000
UVM_INFO axi4_lite_scoreboard.sv(52) @ 2555: uvm_test_top.env.scb [BRESP] Matched : exp_bresp= 3 actual_bresp=3 write = 1 read = 0
UVM_INFO axi4_lite_subscriber.sv(41) @ 2565: uvm_test_top.env.sb [sb] INPUT COVERAGE = 83.33 %
UVM_INFO axi4_lite_inp_monitor.sv(38) @ 2565: uvm_test_top.env.aa.inp_mon [INPUT MONITOR] READ araddr=0000002c
UVM_INFO axi4_lite_out_monitor.sv(28) @ 2575: uvm_test_top.env.pa.out_mon [OUTPUT MONITOR] BRESP = 0 RRESP = 0 RDATA = 00000000
UVM_INFO axi4_lite_driver.sv(34) @ 2575: uvm_test_top.env.aa.drv [DRV] awaddr = 6d8c2734 wdata = 812f8f82 wstrb = d araddr = 0000002c
UVM_INFO axi4_lite_scoreboard.sv(68) @ 2575: uvm_test_top.env.scb [RRESP] Matched : exp_rresp=0 actual_rresp =0 write = 0 read = 1
UVM_INFO axi4_lite_scoreboard.sv(72) @ 2575: uvm_test_top.env.scb [RDATA] Matched : exp_rdata=00000000 actual_rdata =00000000
UVM_INFO axi4_lite_subscriber.sv(41) @ 2605: uvm_test_top.env.sb [sb] INPUT COVERAGE = 83.33 %
UVM_INFO axi4_lite_inp_monitor.sv(44) @ 2605: uvm_test_top.env.aa.inp_mon [INPUT MONITOR]  WRITE awaddr=3897f790 wdata=f8746ab1 wstrb=0101 
UVM_INFO axi4_lite_out_monitor.sv(28) @ 2625: uvm_test_top.env.pa.out_mon [OUTPUT MONITOR] BRESP = 3 RRESP = 0 RDATA = 00000000
UVM_INFO axi4_lite_scoreboard.sv(52) @ 2625: uvm_test_top.env.scb [BRESP] Matched : exp_bresp= 3 actual_bresp=3 write = 1 read = 0
UVM_INFO axi4_lite_subscriber.sv(41) @ 2635: uvm_test_top.env.sb [sb] INPUT COVERAGE = 83.33 %
UVM_INFO axi4_lite_inp_monitor.sv(38) @ 2635: uvm_test_top.env.aa.inp_mon [INPUT MONITOR] READ araddr=00000008
UVM_INFO axi4_lite_out_monitor.sv(28) @ 2645: uvm_test_top.env.pa.out_mon [OUTPUT MONITOR] BRESP = 0 RRESP = 0 RDATA = 00000000
UVM_INFO axi4_lite_driver.sv(34) @ 2645: uvm_test_top.env.aa.drv [DRV] awaddr = 3897f790 wdata = f8746ab1 wstrb = 5 araddr = 00000008
UVM_INFO axi4_lite_scoreboard.sv(68) @ 2645: uvm_test_top.env.scb [RRESP] Matched : exp_rresp=0 actual_rresp =0 write = 0 read = 1
UVM_INFO axi4_lite_scoreboard.sv(72) @ 2645: uvm_test_top.env.scb [RDATA] Matched : exp_rdata=00000000 actual_rdata =00000000
UVM_INFO axi4_lite_subscriber.sv(41) @ 2665: uvm_test_top.env.sb [sb] INPUT COVERAGE = 83.33 %
UVM_INFO axi4_lite_inp_monitor.sv(44) @ 2665: uvm_test_top.env.aa.inp_mon [INPUT MONITOR]  WRITE awaddr=3ced67e8 wdata=008aed79 wstrb=1000 
UVM_INFO axi4_lite_out_monitor.sv(28) @ 2685: uvm_test_top.env.pa.out_mon [OUTPUT MONITOR] BRESP = 3 RRESP = 0 RDATA = 00000000
UVM_INFO axi4_lite_scoreboard.sv(52) @ 2685: uvm_test_top.env.scb [BRESP] Matched : exp_bresp= 3 actual_bresp=3 write = 1 read = 0
UVM_INFO axi4_lite_subscriber.sv(41) @ 2695: uvm_test_top.env.sb [sb] INPUT COVERAGE = 83.33 %
UVM_INFO axi4_lite_inp_monitor.sv(38) @ 2695: uvm_test_top.env.aa.inp_mon [INPUT MONITOR] READ araddr=00000028
UVM_INFO axi4_lite_out_monitor.sv(28) @ 2705: uvm_test_top.env.pa.out_mon [OUTPUT MONITOR] BRESP = 0 RRESP = 0 RDATA = 00000000
UVM_INFO axi4_lite_driver.sv(34) @ 2705: uvm_test_top.env.aa.drv [DRV] awaddr = 3ced67e8 wdata = 008aed79 wstrb = 8 araddr = 00000028
UVM_INFO axi4_lite_scoreboard.sv(68) @ 2705: uvm_test_top.env.scb [RRESP] Matched : exp_rresp=0 actual_rresp =0 write = 0 read = 1
UVM_INFO axi4_lite_scoreboard.sv(72) @ 2705: uvm_test_top.env.scb [RDATA] Matched : exp_rdata=00000000 actual_rdata =00000000
UVM_INFO axi4_lite_subscriber.sv(41) @ 2755: uvm_test_top.env.sb [sb] INPUT COVERAGE = 83.33 %
UVM_INFO axi4_lite_inp_monitor.sv(44) @ 2755: uvm_test_top.env.aa.inp_mon [INPUT MONITOR]  WRITE awaddr=0949201c wdata=b0da0792 wstrb=0000 
UVM_INFO axi4_lite_out_monitor.sv(28) @ 2775: uvm_test_top.env.pa.out_mon [OUTPUT MONITOR] BRESP = 3 RRESP = 0 RDATA = 00000000
UVM_INFO axi4_lite_scoreboard.sv(52) @ 2775: uvm_test_top.env.scb [BRESP] Matched : exp_bresp= 3 actual_bresp=3 write = 1 read = 0
UVM_INFO axi4_lite_subscriber.sv(41) @ 2785: uvm_test_top.env.sb [sb] INPUT COVERAGE = 83.33 %
UVM_INFO axi4_lite_inp_monitor.sv(38) @ 2785: uvm_test_top.env.aa.inp_mon [INPUT MONITOR] READ araddr=0000000c
UVM_INFO axi4_lite_out_monitor.sv(28) @ 2795: uvm_test_top.env.pa.out_mon [OUTPUT MONITOR] BRESP = 0 RRESP = 0 RDATA = 00000000
UVM_INFO axi4_lite_driver.sv(34) @ 2795: uvm_test_top.env.aa.drv [DRV] awaddr = 0949201c wdata = b0da0792 wstrb = 0 araddr = 0000000c
UVM_INFO axi4_lite_scoreboard.sv(68) @ 2795: uvm_test_top.env.scb [RRESP] Matched : exp_rresp=0 actual_rresp =0 write = 0 read = 1
UVM_INFO axi4_lite_scoreboard.sv(72) @ 2795: uvm_test_top.env.scb [RDATA] Matched : exp_rdata=00000000 actual_rdata =00000000
UVM_INFO axi4_lite_subscriber.sv(41) @ 2815: uvm_test_top.env.sb [sb] INPUT COVERAGE = 83.33 %
UVM_INFO axi4_lite_inp_monitor.sv(44) @ 2815: uvm_test_top.env.aa.inp_mon [INPUT MONITOR]  WRITE awaddr=ed6fd5ec wdata=39239a4c wstrb=0011 
UVM_INFO axi4_lite_out_monitor.sv(28) @ 2835: uvm_test_top.env.pa.out_mon [OUTPUT MONITOR] BRESP = 3 RRESP = 0 RDATA = 00000000
UVM_INFO axi4_lite_scoreboard.sv(52) @ 2835: uvm_test_top.env.scb [BRESP] Matched : exp_bresp= 3 actual_bresp=3 write = 1 read = 0
UVM_INFO axi4_lite_subscriber.sv(41) @ 2845: uvm_test_top.env.sb [sb] INPUT COVERAGE = 83.33 %
UVM_INFO axi4_lite_inp_monitor.sv(38) @ 2845: uvm_test_top.env.aa.inp_mon [INPUT MONITOR] READ araddr=00000000
UVM_INFO axi4_lite_out_monitor.sv(28) @ 2855: uvm_test_top.env.pa.out_mon [OUTPUT MONITOR] BRESP = 0 RRESP = 0 RDATA = 00000000
UVM_INFO axi4_lite_driver.sv(34) @ 2855: uvm_test_top.env.aa.drv [DRV] awaddr = ed6fd5ec wdata = 39239a4c wstrb = 3 araddr = 00000000
UVM_INFO axi4_lite_scoreboard.sv(68) @ 2855: uvm_test_top.env.scb [RRESP] Matched : exp_rresp=0 actual_rresp =0 write = 0 read = 1
UVM_INFO axi4_lite_scoreboard.sv(72) @ 2855: uvm_test_top.env.scb [RDATA] Matched : exp_rdata=00000000 actual_rdata =00000000
UVM_INFO axi4_lite_subscriber.sv(41) @ 2875: uvm_test_top.env.sb [sb] INPUT COVERAGE = 83.33 %
UVM_INFO axi4_lite_inp_monitor.sv(44) @ 2875: uvm_test_top.env.aa.inp_mon [INPUT MONITOR]  WRITE awaddr=67672718 wdata=b05f4e17 wstrb=1011 
UVM_INFO axi4_lite_out_monitor.sv(28) @ 2895: uvm_test_top.env.pa.out_mon [OUTPUT MONITOR] BRESP = 3 RRESP = 0 RDATA = 00000000
UVM_INFO axi4_lite_scoreboard.sv(52) @ 2895: uvm_test_top.env.scb [BRESP] Matched : exp_bresp= 3 actual_bresp=3 write = 1 read = 0
UVM_INFO axi4_lite_subscriber.sv(41) @ 2905: uvm_test_top.env.sb [sb] INPUT COVERAGE = 83.33 %
UVM_INFO axi4_lite_inp_monitor.sv(38) @ 2905: uvm_test_top.env.aa.inp_mon [INPUT MONITOR] READ araddr=00000014
UVM_INFO axi4_lite_out_monitor.sv(28) @ 2915: uvm_test_top.env.pa.out_mon [OUTPUT MONITOR] BRESP = 0 RRESP = 0 RDATA = 00000000
UVM_INFO axi4_lite_driver.sv(34) @ 2915: uvm_test_top.env.aa.drv [DRV] awaddr = 67672718 wdata = b05f4e17 wstrb = b araddr = 00000014
UVM_INFO axi4_lite_scoreboard.sv(68) @ 2915: uvm_test_top.env.scb [RRESP] Matched : exp_rresp=0 actual_rresp =0 write = 0 read = 1
UVM_INFO axi4_lite_scoreboard.sv(72) @ 2915: uvm_test_top.env.scb [RDATA] Matched : exp_rdata=00000000 actual_rdata =00000000
UVM_INFO axi4_lite_subscriber.sv(41) @ 2935: uvm_test_top.env.sb [sb] INPUT COVERAGE = 83.33 %
UVM_INFO axi4_lite_inp_monitor.sv(44) @ 2935: uvm_test_top.env.aa.inp_mon [INPUT MONITOR]  WRITE awaddr=e031fac8 wdata=35dbcd74 wstrb=0111 
UVM_INFO axi4_lite_out_monitor.sv(28) @ 2955: uvm_test_top.env.pa.out_mon [OUTPUT MONITOR] BRESP = 3 RRESP = 0 RDATA = 00000000
UVM_INFO axi4_lite_scoreboard.sv(52) @ 2955: uvm_test_top.env.scb [BRESP] Matched : exp_bresp= 3 actual_bresp=3 write = 1 read = 0
UVM_INFO axi4_lite_subscriber.sv(41) @ 2965: uvm_test_top.env.sb [sb] INPUT COVERAGE = 83.33 %
UVM_INFO axi4_lite_inp_monitor.sv(38) @ 2965: uvm_test_top.env.aa.inp_mon [INPUT MONITOR] READ araddr=00000034
UVM_INFO axi4_lite_out_monitor.sv(28) @ 2975: uvm_test_top.env.pa.out_mon [OUTPUT MONITOR] BRESP = 0 RRESP = 2 RDATA = 00000000
UVM_INFO axi4_lite_driver.sv(34) @ 2975: uvm_test_top.env.aa.drv [DRV] awaddr = e031fac8 wdata = 35dbcd74 wstrb = 7 araddr = 00000034
UVM_INFO axi4_lite_scoreboard.sv(68) @ 2975: uvm_test_top.env.scb [RRESP] Matched : exp_rresp=2 actual_rresp =2 write = 0 read = 1
UVM_INFO axi4_lite_scoreboard.sv(72) @ 2975: uvm_test_top.env.scb [RDATA] Matched : exp_rdata=00000000 actual_rdata =00000000
UVM_INFO axi4_lite_subscriber.sv(41) @ 3015: uvm_test_top.env.sb [sb] INPUT COVERAGE = 83.33 %
UVM_INFO axi4_lite_inp_monitor.sv(44) @ 3015: uvm_test_top.env.aa.inp_mon [INPUT MONITOR]  WRITE awaddr=068b2a30 wdata=8dd770dd wstrb=0010 
UVM_INFO axi4_lite_out_monitor.sv(28) @ 3035: uvm_test_top.env.pa.out_mon [OUTPUT MONITOR] BRESP = 3 RRESP = 0 RDATA = 00000000
UVM_INFO axi4_lite_scoreboard.sv(52) @ 3035: uvm_test_top.env.scb [BRESP] Matched : exp_bresp= 3 actual_bresp=3 write = 1 read = 0
UVM_INFO axi4_lite_subscriber.sv(41) @ 3045: uvm_test_top.env.sb [sb] INPUT COVERAGE = 83.33 %
UVM_INFO axi4_lite_inp_monitor.sv(38) @ 3045: uvm_test_top.env.aa.inp_mon [INPUT MONITOR] READ araddr=00000020
UVM_INFO axi4_lite_out_monitor.sv(28) @ 3055: uvm_test_top.env.pa.out_mon [OUTPUT MONITOR] BRESP = 0 RRESP = 0 RDATA = 00000000
UVM_INFO axi4_lite_driver.sv(34) @ 3055: uvm_test_top.env.aa.drv [DRV] awaddr = 068b2a30 wdata = 8dd770dd wstrb = 2 araddr = 00000020
UVM_INFO axi4_lite_scoreboard.sv(68) @ 3055: uvm_test_top.env.scb [RRESP] Matched : exp_rresp=0 actual_rresp =0 write = 0 read = 1
UVM_INFO axi4_lite_scoreboard.sv(72) @ 3055: uvm_test_top.env.scb [RDATA] Matched : exp_rdata=00000000 actual_rdata =00000000
UVM_INFO axi4_lite_subscriber.sv(41) @ 3085: uvm_test_top.env.sb [sb] INPUT COVERAGE = 83.33 %
UVM_INFO axi4_lite_inp_monitor.sv(44) @ 3085: uvm_test_top.env.aa.inp_mon [INPUT MONITOR]  WRITE awaddr=0edab9bc wdata=19081896 wstrb=0001 
UVM_INFO axi4_lite_out_monitor.sv(28) @ 3105: uvm_test_top.env.pa.out_mon [OUTPUT MONITOR] BRESP = 3 RRESP = 0 RDATA = 00000000
UVM_INFO axi4_lite_scoreboard.sv(52) @ 3105: uvm_test_top.env.scb [BRESP] Matched : exp_bresp= 3 actual_bresp=3 write = 1 read = 0
UVM_INFO axi4_lite_subscriber.sv(41) @ 3115: uvm_test_top.env.sb [sb] INPUT COVERAGE = 83.33 %
UVM_INFO axi4_lite_inp_monitor.sv(38) @ 3115: uvm_test_top.env.aa.inp_mon [INPUT MONITOR] READ araddr=00000030
UVM_INFO axi4_lite_out_monitor.sv(28) @ 3125: uvm_test_top.env.pa.out_mon [OUTPUT MONITOR] BRESP = 0 RRESP = 0 RDATA = 00000000
UVM_INFO axi4_lite_driver.sv(34) @ 3125: uvm_test_top.env.aa.drv [DRV] awaddr = 0edab9bc wdata = 19081896 wstrb = 1 araddr = 00000030
UVM_INFO axi4_lite_scoreboard.sv(68) @ 3125: uvm_test_top.env.scb [RRESP] Matched : exp_rresp=0 actual_rresp =0 write = 0 read = 1
UVM_INFO axi4_lite_scoreboard.sv(72) @ 3125: uvm_test_top.env.scb [RDATA] Matched : exp_rdata=00000000 actual_rdata =00000000
UVM_INFO axi4_lite_subscriber.sv(41) @ 3165: uvm_test_top.env.sb [sb] INPUT COVERAGE = 83.33 %
UVM_INFO axi4_lite_inp_monitor.sv(44) @ 3165: uvm_test_top.env.aa.inp_mon [INPUT MONITOR]  WRITE awaddr=fd2aeffc wdata=9f727172 wstrb=0101 
UVM_INFO axi4_lite_out_monitor.sv(28) @ 3185: uvm_test_top.env.pa.out_mon [OUTPUT MONITOR] BRESP = 3 RRESP = 0 RDATA = 00000000
UVM_INFO axi4_lite_scoreboard.sv(52) @ 3185: uvm_test_top.env.scb [BRESP] Matched : exp_bresp= 3 actual_bresp=3 write = 1 read = 0
UVM_INFO axi4_lite_subscriber.sv(41) @ 3195: uvm_test_top.env.sb [sb] INPUT COVERAGE = 83.33 %
UVM_INFO axi4_lite_inp_monitor.sv(38) @ 3195: uvm_test_top.env.aa.inp_mon [INPUT MONITOR] READ araddr=00000020
UVM_INFO axi4_lite_out_monitor.sv(28) @ 3205: uvm_test_top.env.pa.out_mon [OUTPUT MONITOR] BRESP = 0 RRESP = 0 RDATA = 00000000
UVM_INFO axi4_lite_driver.sv(34) @ 3205: uvm_test_top.env.aa.drv [DRV] awaddr = fd2aeffc wdata = 9f727172 wstrb = 5 araddr = 00000020
UVM_INFO axi4_lite_scoreboard.sv(68) @ 3205: uvm_test_top.env.scb [RRESP] Matched : exp_rresp=0 actual_rresp =0 write = 0 read = 1
UVM_INFO axi4_lite_scoreboard.sv(72) @ 3205: uvm_test_top.env.scb [RDATA] Matched : exp_rdata=00000000 actual_rdata =00000000
UVM_INFO axi4_lite_subscriber.sv(41) @ 3235: uvm_test_top.env.sb [sb] INPUT COVERAGE = 83.33 %
UVM_INFO axi4_lite_inp_monitor.sv(44) @ 3235: uvm_test_top.env.aa.inp_mon [INPUT MONITOR]  WRITE awaddr=f882cea8 wdata=3eb97f7c wstrb=1000 
UVM_INFO axi4_lite_out_monitor.sv(28) @ 3255: uvm_test_top.env.pa.out_mon [OUTPUT MONITOR] BRESP = 3 RRESP = 0 RDATA = 00000000
UVM_INFO axi4_lite_scoreboard.sv(52) @ 3255: uvm_test_top.env.scb [BRESP] Matched : exp_bresp= 3 actual_bresp=3 write = 1 read = 0
UVM_INFO axi4_lite_subscriber.sv(41) @ 3265: uvm_test_top.env.sb [sb] INPUT COVERAGE = 83.33 %
UVM_INFO axi4_lite_inp_monitor.sv(38) @ 3265: uvm_test_top.env.aa.inp_mon [INPUT MONITOR] READ araddr=00000004
UVM_INFO axi4_lite_out_monitor.sv(28) @ 3275: uvm_test_top.env.pa.out_mon [OUTPUT MONITOR] BRESP = 0 RRESP = 0 RDATA = 00000000
UVM_INFO axi4_lite_driver.sv(34) @ 3275: uvm_test_top.env.aa.drv [DRV] awaddr = f882cea8 wdata = 3eb97f7c wstrb = 8 araddr = 00000004
UVM_INFO axi4_lite_scoreboard.sv(68) @ 3275: uvm_test_top.env.scb [RRESP] Matched : exp_rresp=0 actual_rresp =0 write = 0 read = 1
UVM_INFO axi4_lite_scoreboard.sv(72) @ 3275: uvm_test_top.env.scb [RDATA] Matched : exp_rdata=00000000 actual_rdata =00000000
UVM_INFO axi4_lite_subscriber.sv(41) @ 3305: uvm_test_top.env.sb [sb] INPUT COVERAGE = 83.33 %
UVM_INFO axi4_lite_inp_monitor.sv(44) @ 3305: uvm_test_top.env.aa.inp_mon [INPUT MONITOR]  WRITE awaddr=a4ccbb64 wdata=966d8a30 wstrb=0100 
UVM_INFO axi4_lite_out_monitor.sv(28) @ 3325: uvm_test_top.env.pa.out_mon [OUTPUT MONITOR] BRESP = 3 RRESP = 0 RDATA = 00000000
UVM_INFO axi4_lite_scoreboard.sv(52) @ 3325: uvm_test_top.env.scb [BRESP] Matched : exp_bresp= 3 actual_bresp=3 write = 1 read = 0
UVM_INFO axi4_lite_subscriber.sv(41) @ 3335: uvm_test_top.env.sb [sb] INPUT COVERAGE = 83.33 %
UVM_INFO axi4_lite_inp_monitor.sv(38) @ 3335: uvm_test_top.env.aa.inp_mon [INPUT MONITOR] READ araddr=00000028
UVM_INFO axi4_lite_out_monitor.sv(28) @ 3345: uvm_test_top.env.pa.out_mon [OUTPUT MONITOR] BRESP = 0 RRESP = 0 RDATA = 00000000
UVM_INFO axi4_lite_driver.sv(34) @ 3345: uvm_test_top.env.aa.drv [DRV] awaddr = a4ccbb64 wdata = 966d8a30 wstrb = 4 araddr = 00000028
UVM_INFO axi4_lite_scoreboard.sv(68) @ 3345: uvm_test_top.env.scb [RRESP] Matched : exp_rresp=0 actual_rresp =0 write = 0 read = 1
UVM_INFO axi4_lite_scoreboard.sv(72) @ 3345: uvm_test_top.env.scb [RDATA] Matched : exp_rdata=00000000 actual_rdata =00000000
UVM_INFO axi4_lite_subscriber.sv(41) @ 3365: uvm_test_top.env.sb [sb] INPUT COVERAGE = 83.33 %
UVM_INFO axi4_lite_inp_monitor.sv(44) @ 3365: uvm_test_top.env.aa.inp_mon [INPUT MONITOR]  WRITE awaddr=f303356c wdata=2ba040cd wstrb=0000 
UVM_INFO axi4_lite_out_monitor.sv(28) @ 3385: uvm_test_top.env.pa.out_mon [OUTPUT MONITOR] BRESP = 3 RRESP = 0 RDATA = 00000000
UVM_INFO axi4_lite_scoreboard.sv(52) @ 3385: uvm_test_top.env.scb [BRESP] Matched : exp_bresp= 3 actual_bresp=3 write = 1 read = 0
UVM_INFO axi4_lite_subscriber.sv(41) @ 3395: uvm_test_top.env.sb [sb] INPUT COVERAGE = 83.33 %
UVM_INFO axi4_lite_inp_monitor.sv(38) @ 3395: uvm_test_top.env.aa.inp_mon [INPUT MONITOR] READ araddr=00000028
UVM_INFO axi4_lite_out_monitor.sv(28) @ 3405: uvm_test_top.env.pa.out_mon [OUTPUT MONITOR] BRESP = 0 RRESP = 0 RDATA = 00000000
UVM_INFO axi4_lite_driver.sv(34) @ 3405: uvm_test_top.env.aa.drv [DRV] awaddr = f303356c wdata = 2ba040cd wstrb = 0 araddr = 00000028
UVM_INFO axi4_lite_scoreboard.sv(68) @ 3405: uvm_test_top.env.scb [RRESP] Matched : exp_rresp=0 actual_rresp =0 write = 0 read = 1
UVM_INFO axi4_lite_scoreboard.sv(72) @ 3405: uvm_test_top.env.scb [RDATA] Matched : exp_rdata=00000000 actual_rdata =00000000
UVM_INFO axi4_lite_subscriber.sv(41) @ 3435: uvm_test_top.env.sb [sb] INPUT COVERAGE = 83.33 %
UVM_INFO axi4_lite_inp_monitor.sv(44) @ 3435: uvm_test_top.env.aa.inp_mon [INPUT MONITOR]  WRITE awaddr=32a98ba0 wdata=06c4db29 wstrb=0111 
UVM_INFO axi4_lite_out_monitor.sv(28) @ 3455: uvm_test_top.env.pa.out_mon [OUTPUT MONITOR] BRESP = 3 RRESP = 0 RDATA = 00000000
UVM_INFO axi4_lite_scoreboard.sv(52) @ 3455: uvm_test_top.env.scb [BRESP] Matched : exp_bresp= 3 actual_bresp=3 write = 1 read = 0
UVM_INFO axi4_lite_subscriber.sv(41) @ 3465: uvm_test_top.env.sb [sb] INPUT COVERAGE = 83.33 %
UVM_INFO axi4_lite_inp_monitor.sv(38) @ 3465: uvm_test_top.env.aa.inp_mon [INPUT MONITOR] READ araddr=0000001c
UVM_INFO axi4_lite_out_monitor.sv(28) @ 3475: uvm_test_top.env.pa.out_mon [OUTPUT MONITOR] BRESP = 0 RRESP = 0 RDATA = 00000000
UVM_INFO axi4_lite_driver.sv(34) @ 3475: uvm_test_top.env.aa.drv [DRV] awaddr = 32a98ba0 wdata = 06c4db29 wstrb = 7 araddr = 0000001c
UVM_INFO axi4_lite_scoreboard.sv(68) @ 3475: uvm_test_top.env.scb [RRESP] Matched : exp_rresp=0 actual_rresp =0 write = 0 read = 1
UVM_INFO axi4_lite_scoreboard.sv(72) @ 3475: uvm_test_top.env.scb [RDATA] Matched : exp_rdata=00000000 actual_rdata =00000000
UVM_INFO axi4_lite_subscriber.sv(41) @ 3515: uvm_test_top.env.sb [sb] INPUT COVERAGE = 83.33 %
UVM_INFO axi4_lite_inp_monitor.sv(44) @ 3515: uvm_test_top.env.aa.inp_mon [INPUT MONITOR]  WRITE awaddr=e3ed440c wdata=172492e0 wstrb=1111 
UVM_INFO axi4_lite_out_monitor.sv(28) @ 3535: uvm_test_top.env.pa.out_mon [OUTPUT MONITOR] BRESP = 3 RRESP = 0 RDATA = 00000000
UVM_INFO axi4_lite_scoreboard.sv(52) @ 3535: uvm_test_top.env.scb [BRESP] Matched : exp_bresp= 3 actual_bresp=3 write = 1 read = 0
UVM_INFO axi4_lite_subscriber.sv(41) @ 3545: uvm_test_top.env.sb [sb] INPUT COVERAGE = 83.33 %
UVM_INFO axi4_lite_inp_monitor.sv(38) @ 3545: uvm_test_top.env.aa.inp_mon [INPUT MONITOR] READ araddr=00000034
UVM_INFO axi4_lite_out_monitor.sv(28) @ 3555: uvm_test_top.env.pa.out_mon [OUTPUT MONITOR] BRESP = 0 RRESP = 2 RDATA = 00000000
UVM_INFO axi4_lite_driver.sv(34) @ 3555: uvm_test_top.env.aa.drv [DRV] awaddr = e3ed440c wdata = 172492e0 wstrb = f araddr = 00000034
UVM_INFO axi4_lite_scoreboard.sv(68) @ 3555: uvm_test_top.env.scb [RRESP] Matched : exp_rresp=2 actual_rresp =2 write = 0 read = 1
UVM_INFO axi4_lite_scoreboard.sv(72) @ 3555: uvm_test_top.env.scb [RDATA] Matched : exp_rdata=00000000 actual_rdata =00000000
UVM_INFO axi4_lite_subscriber.sv(41) @ 3585: uvm_test_top.env.sb [sb] INPUT COVERAGE = 83.33 %
UVM_INFO axi4_lite_inp_monitor.sv(44) @ 3585: uvm_test_top.env.aa.inp_mon [INPUT MONITOR]  WRITE awaddr=380b1ef4 wdata=50f91dd0 wstrb=1100 
UVM_INFO axi4_lite_out_monitor.sv(28) @ 3605: uvm_test_top.env.pa.out_mon [OUTPUT MONITOR] BRESP = 3 RRESP = 0 RDATA = 00000000
UVM_INFO axi4_lite_scoreboard.sv(52) @ 3605: uvm_test_top.env.scb [BRESP] Matched : exp_bresp= 3 actual_bresp=3 write = 1 read = 0
UVM_INFO axi4_lite_subscriber.sv(41) @ 3615: uvm_test_top.env.sb [sb] INPUT COVERAGE = 83.33 %
UVM_INFO axi4_lite_inp_monitor.sv(38) @ 3615: uvm_test_top.env.aa.inp_mon [INPUT MONITOR] READ araddr=00000034
UVM_INFO axi4_lite_out_monitor.sv(28) @ 3625: uvm_test_top.env.pa.out_mon [OUTPUT MONITOR] BRESP = 0 RRESP = 2 RDATA = 00000000
UVM_INFO axi4_lite_driver.sv(34) @ 3625: uvm_test_top.env.aa.drv [DRV] awaddr = 380b1ef4 wdata = 50f91dd0 wstrb = c araddr = 00000034
UVM_INFO axi4_lite_scoreboard.sv(68) @ 3625: uvm_test_top.env.scb [RRESP] Matched : exp_rresp=2 actual_rresp =2 write = 0 read = 1
UVM_INFO axi4_lite_scoreboard.sv(72) @ 3625: uvm_test_top.env.scb [RDATA] Matched : exp_rdata=00000000 actual_rdata =00000000
UVM_INFO axi4_lite_subscriber.sv(41) @ 3675: uvm_test_top.env.sb [sb] INPUT COVERAGE = 83.33 %
UVM_INFO axi4_lite_inp_monitor.sv(44) @ 3675: uvm_test_top.env.aa.inp_mon [INPUT MONITOR]  WRITE awaddr=a87a5014 wdata=69fa45fe wstrb=0010 
UVM_INFO axi4_lite_out_monitor.sv(28) @ 3695: uvm_test_top.env.pa.out_mon [OUTPUT MONITOR] BRESP = 3 RRESP = 0 RDATA = 00000000
UVM_INFO axi4_lite_scoreboard.sv(52) @ 3695: uvm_test_top.env.scb [BRESP] Matched : exp_bresp= 3 actual_bresp=3 write = 1 read = 0
UVM_INFO axi4_lite_subscriber.sv(41) @ 3705: uvm_test_top.env.sb [sb] INPUT COVERAGE = 83.33 %
UVM_INFO axi4_lite_inp_monitor.sv(38) @ 3705: uvm_test_top.env.aa.inp_mon [INPUT MONITOR] READ araddr=00000024
UVM_INFO axi4_lite_out_monitor.sv(28) @ 3715: uvm_test_top.env.pa.out_mon [OUTPUT MONITOR] BRESP = 0 RRESP = 0 RDATA = 00000000
UVM_INFO axi4_lite_driver.sv(34) @ 3715: uvm_test_top.env.aa.drv [DRV] awaddr = a87a5014 wdata = 69fa45fe wstrb = 2 araddr = 00000024
UVM_INFO axi4_lite_scoreboard.sv(68) @ 3715: uvm_test_top.env.scb [RRESP] Matched : exp_rresp=0 actual_rresp =0 write = 0 read = 1
UVM_INFO axi4_lite_scoreboard.sv(72) @ 3715: uvm_test_top.env.scb [RDATA] Matched : exp_rdata=00000000 actual_rdata =00000000
UVM_INFO axi4_lite_subscriber.sv(41) @ 3765: uvm_test_top.env.sb [sb] INPUT COVERAGE = 83.33 %
UVM_INFO axi4_lite_inp_monitor.sv(44) @ 3765: uvm_test_top.env.aa.inp_mon [INPUT MONITOR]  WRITE awaddr=307fcfb0 wdata=32ab54c7 wstrb=1011 
UVM_INFO axi4_lite_out_monitor.sv(28) @ 3785: uvm_test_top.env.pa.out_mon [OUTPUT MONITOR] BRESP = 3 RRESP = 0 RDATA = 00000000
UVM_INFO axi4_lite_scoreboard.sv(52) @ 3785: uvm_test_top.env.scb [BRESP] Matched : exp_bresp= 3 actual_bresp=3 write = 1 read = 0
UVM_INFO axi4_lite_subscriber.sv(41) @ 3795: uvm_test_top.env.sb [sb] INPUT COVERAGE = 83.33 %
UVM_INFO axi4_lite_inp_monitor.sv(38) @ 3795: uvm_test_top.env.aa.inp_mon [INPUT MONITOR] READ araddr=00000000
UVM_INFO axi4_lite_out_monitor.sv(28) @ 3805: uvm_test_top.env.pa.out_mon [OUTPUT MONITOR] BRESP = 0 RRESP = 0 RDATA = 00000000
UVM_INFO axi4_lite_driver.sv(34) @ 3805: uvm_test_top.env.aa.drv [DRV] awaddr = 307fcfb0 wdata = 32ab54c7 wstrb = b araddr = 00000000
UVM_INFO axi4_lite_scoreboard.sv(68) @ 3805: uvm_test_top.env.scb [RRESP] Matched : exp_rresp=0 actual_rresp =0 write = 0 read = 1
UVM_INFO axi4_lite_scoreboard.sv(72) @ 3805: uvm_test_top.env.scb [RDATA] Matched : exp_rdata=00000000 actual_rdata =00000000
UVM_INFO axi4_lite_subscriber.sv(41) @ 3835: uvm_test_top.env.sb [sb] INPUT COVERAGE = 83.33 %
UVM_INFO axi4_lite_inp_monitor.sv(44) @ 3835: uvm_test_top.env.aa.inp_mon [INPUT MONITOR]  WRITE awaddr=203c61d4 wdata=3d5a95ac wstrb=1110 
UVM_INFO axi4_lite_out_monitor.sv(28) @ 3855: uvm_test_top.env.pa.out_mon [OUTPUT MONITOR] BRESP = 3 RRESP = 0 RDATA = 00000000
UVM_INFO axi4_lite_scoreboard.sv(52) @ 3855: uvm_test_top.env.scb [BRESP] Matched : exp_bresp= 3 actual_bresp=3 write = 1 read = 0
UVM_INFO axi4_lite_subscriber.sv(41) @ 3865: uvm_test_top.env.sb [sb] INPUT COVERAGE = 83.33 %
UVM_INFO axi4_lite_inp_monitor.sv(38) @ 3865: uvm_test_top.env.aa.inp_mon [INPUT MONITOR] READ araddr=00000020
UVM_INFO axi4_lite_out_monitor.sv(28) @ 3875: uvm_test_top.env.pa.out_mon [OUTPUT MONITOR] BRESP = 0 RRESP = 0 RDATA = 00000000
UVM_INFO axi4_lite_driver.sv(34) @ 3875: uvm_test_top.env.aa.drv [DRV] awaddr = 203c61d4 wdata = 3d5a95ac wstrb = e araddr = 00000020
UVM_INFO axi4_lite_scoreboard.sv(68) @ 3875: uvm_test_top.env.scb [RRESP] Matched : exp_rresp=0 actual_rresp =0 write = 0 read = 1
UVM_INFO axi4_lite_scoreboard.sv(72) @ 3875: uvm_test_top.env.scb [RDATA] Matched : exp_rdata=00000000 actual_rdata =00000000
UVM_INFO axi4_lite_subscriber.sv(41) @ 3915: uvm_test_top.env.sb [sb] INPUT COVERAGE = 83.33 %
UVM_INFO axi4_lite_inp_monitor.sv(44) @ 3915: uvm_test_top.env.aa.inp_mon [INPUT MONITOR]  WRITE awaddr=e0d865f0 wdata=c15b3c2d wstrb=1111 
UVM_INFO axi4_lite_out_monitor.sv(28) @ 3935: uvm_test_top.env.pa.out_mon [OUTPUT MONITOR] BRESP = 3 RRESP = 0 RDATA = 00000000
UVM_INFO axi4_lite_scoreboard.sv(52) @ 3935: uvm_test_top.env.scb [BRESP] Matched : exp_bresp= 3 actual_bresp=3 write = 1 read = 0
UVM_INFO axi4_lite_subscriber.sv(41) @ 3945: uvm_test_top.env.sb [sb] INPUT COVERAGE = 83.33 %
UVM_INFO axi4_lite_inp_monitor.sv(38) @ 3945: uvm_test_top.env.aa.inp_mon [INPUT MONITOR] READ araddr=0000002c
UVM_INFO axi4_lite_out_monitor.sv(28) @ 3955: uvm_test_top.env.pa.out_mon [OUTPUT MONITOR] BRESP = 0 RRESP = 0 RDATA = 00000000
UVM_INFO axi4_lite_driver.sv(34) @ 3955: uvm_test_top.env.aa.drv [DRV] awaddr = e0d865f0 wdata = c15b3c2d wstrb = f araddr = 0000002c
UVM_INFO axi4_lite_scoreboard.sv(68) @ 3955: uvm_test_top.env.scb [RRESP] Matched : exp_rresp=0 actual_rresp =0 write = 0 read = 1
UVM_INFO axi4_lite_scoreboard.sv(72) @ 3955: uvm_test_top.env.scb [RDATA] Matched : exp_rdata=00000000 actual_rdata =00000000
UVM_INFO axi4_lite_subscriber.sv(41) @ 3975: uvm_test_top.env.sb [sb] INPUT COVERAGE = 83.33 %
UVM_INFO axi4_lite_inp_monitor.sv(44) @ 3975: uvm_test_top.env.aa.inp_mon [INPUT MONITOR]  WRITE awaddr=530e3b04 wdata=0060aac1 wstrb=1100 
UVM_INFO axi4_lite_out_monitor.sv(28) @ 3995: uvm_test_top.env.pa.out_mon [OUTPUT MONITOR] BRESP = 3 RRESP = 0 RDATA = 00000000
UVM_INFO axi4_lite_scoreboard.sv(52) @ 3995: uvm_test_top.env.scb [BRESP] Matched : exp_bresp= 3 actual_bresp=3 write = 1 read = 0
UVM_INFO axi4_lite_subscriber.sv(41) @ 4005: uvm_test_top.env.sb [sb] INPUT COVERAGE = 83.33 %
UVM_INFO axi4_lite_inp_monitor.sv(38) @ 4005: uvm_test_top.env.aa.inp_mon [INPUT MONITOR] READ araddr=00000038
UVM_INFO axi4_lite_out_monitor.sv(28) @ 4015: uvm_test_top.env.pa.out_mon [OUTPUT MONITOR] BRESP = 0 RRESP = 2 RDATA = 00000000
UVM_INFO axi4_lite_driver.sv(34) @ 4015: uvm_test_top.env.aa.drv [DRV] awaddr = 530e3b04 wdata = 0060aac1 wstrb = c araddr = 00000038
UVM_INFO axi4_lite_scoreboard.sv(68) @ 4015: uvm_test_top.env.scb [RRESP] Matched : exp_rresp=2 actual_rresp =2 write = 0 read = 1
UVM_INFO axi4_lite_scoreboard.sv(72) @ 4015: uvm_test_top.env.scb [RDATA] Matched : exp_rdata=00000000 actual_rdata =00000000
UVM_INFO axi4_lite_subscriber.sv(41) @ 4055: uvm_test_top.env.sb [sb] INPUT COVERAGE = 83.33 %
UVM_INFO axi4_lite_inp_monitor.sv(44) @ 4055: uvm_test_top.env.aa.inp_mon [INPUT MONITOR]  WRITE awaddr=cbfd9de4 wdata=21d5de25 wstrb=0001 
UVM_INFO axi4_lite_out_monitor.sv(28) @ 4075: uvm_test_top.env.pa.out_mon [OUTPUT MONITOR] BRESP = 3 RRESP = 0 RDATA = 00000000
UVM_INFO axi4_lite_scoreboard.sv(52) @ 4075: uvm_test_top.env.scb [BRESP] Matched : exp_bresp= 3 actual_bresp=3 write = 1 read = 0
UVM_INFO axi4_lite_subscriber.sv(41) @ 4085: uvm_test_top.env.sb [sb] INPUT COVERAGE = 83.33 %
UVM_INFO axi4_lite_inp_monitor.sv(38) @ 4085: uvm_test_top.env.aa.inp_mon [INPUT MONITOR] READ araddr=00000028
UVM_INFO axi4_lite_out_monitor.sv(28) @ 4095: uvm_test_top.env.pa.out_mon [OUTPUT MONITOR] BRESP = 0 RRESP = 0 RDATA = 00000000
UVM_INFO axi4_lite_driver.sv(34) @ 4095: uvm_test_top.env.aa.drv [DRV] awaddr = cbfd9de4 wdata = 21d5de25 wstrb = 1 araddr = 00000028
UVM_INFO axi4_lite_scoreboard.sv(68) @ 4095: uvm_test_top.env.scb [RRESP] Matched : exp_rresp=0 actual_rresp =0 write = 0 read = 1
UVM_INFO axi4_lite_scoreboard.sv(72) @ 4095: uvm_test_top.env.scb [RDATA] Matched : exp_rdata=00000000 actual_rdata =00000000
UVM_INFO axi4_lite_subscriber.sv(41) @ 4125: uvm_test_top.env.sb [sb] INPUT COVERAGE = 83.33 %
UVM_INFO axi4_lite_inp_monitor.sv(44) @ 4125: uvm_test_top.env.aa.inp_mon [INPUT MONITOR]  WRITE awaddr=4c712e54 wdata=aa9ac52e wstrb=1000 
UVM_INFO axi4_lite_out_monitor.sv(28) @ 4145: uvm_test_top.env.pa.out_mon [OUTPUT MONITOR] BRESP = 3 RRESP = 0 RDATA = 00000000
UVM_INFO axi4_lite_scoreboard.sv(52) @ 4145: uvm_test_top.env.scb [BRESP] Matched : exp_bresp= 3 actual_bresp=3 write = 1 read = 0
UVM_INFO axi4_lite_subscriber.sv(41) @ 4155: uvm_test_top.env.sb [sb] INPUT COVERAGE = 83.33 %
UVM_INFO axi4_lite_inp_monitor.sv(38) @ 4155: uvm_test_top.env.aa.inp_mon [INPUT MONITOR] READ araddr=00000018
UVM_INFO axi4_lite_out_monitor.sv(28) @ 4165: uvm_test_top.env.pa.out_mon [OUTPUT MONITOR] BRESP = 0 RRESP = 0 RDATA = 00000000
UVM_INFO axi4_lite_driver.sv(34) @ 4165: uvm_test_top.env.aa.drv [DRV] awaddr = 4c712e54 wdata = aa9ac52e wstrb = 8 araddr = 00000018
UVM_INFO axi4_lite_scoreboard.sv(68) @ 4165: uvm_test_top.env.scb [RRESP] Matched : exp_rresp=0 actual_rresp =0 write = 0 read = 1
UVM_INFO axi4_lite_scoreboard.sv(72) @ 4165: uvm_test_top.env.scb [RDATA] Matched : exp_rdata=00000000 actual_rdata =00000000
UVM_INFO axi4_lite_subscriber.sv(41) @ 4185: uvm_test_top.env.sb [sb] INPUT COVERAGE = 83.33 %
UVM_INFO axi4_lite_inp_monitor.sv(44) @ 4185: uvm_test_top.env.aa.inp_mon [INPUT MONITOR]  WRITE awaddr=e1c11a50 wdata=7f753dba wstrb=1111 
UVM_INFO axi4_lite_out_monitor.sv(28) @ 4205: uvm_test_top.env.pa.out_mon [OUTPUT MONITOR] BRESP = 3 RRESP = 0 RDATA = 00000000
UVM_INFO axi4_lite_scoreboard.sv(52) @ 4205: uvm_test_top.env.scb [BRESP] Matched : exp_bresp= 3 actual_bresp=3 write = 1 read = 0
UVM_INFO axi4_lite_subscriber.sv(41) @ 4215: uvm_test_top.env.sb [sb] INPUT COVERAGE = 83.33 %
UVM_INFO axi4_lite_inp_monitor.sv(38) @ 4215: uvm_test_top.env.aa.inp_mon [INPUT MONITOR] READ araddr=0000000c
UVM_INFO axi4_lite_out_monitor.sv(28) @ 4225: uvm_test_top.env.pa.out_mon [OUTPUT MONITOR] BRESP = 0 RRESP = 0 RDATA = 00000000
UVM_INFO axi4_lite_driver.sv(34) @ 4225: uvm_test_top.env.aa.drv [DRV] awaddr = e1c11a50 wdata = 7f753dba wstrb = f araddr = 0000000c
UVM_INFO axi4_lite_scoreboard.sv(68) @ 4225: uvm_test_top.env.scb [RRESP] Matched : exp_rresp=0 actual_rresp =0 write = 0 read = 1
UVM_INFO axi4_lite_scoreboard.sv(72) @ 4225: uvm_test_top.env.scb [RDATA] Matched : exp_rdata=00000000 actual_rdata =00000000
UVM_INFO axi4_lite_subscriber.sv(41) @ 4275: uvm_test_top.env.sb [sb] INPUT COVERAGE = 83.33 %
UVM_INFO axi4_lite_inp_monitor.sv(44) @ 4275: uvm_test_top.env.aa.inp_mon [INPUT MONITOR]  WRITE awaddr=bcaae034 wdata=85221647 wstrb=1100 
UVM_INFO axi4_lite_out_monitor.sv(28) @ 4295: uvm_test_top.env.pa.out_mon [OUTPUT MONITOR] BRESP = 3 RRESP = 0 RDATA = 00000000
UVM_INFO axi4_lite_scoreboard.sv(52) @ 4295: uvm_test_top.env.scb [BRESP] Matched : exp_bresp= 3 actual_bresp=3 write = 1 read = 0
UVM_INFO axi4_lite_subscriber.sv(41) @ 4305: uvm_test_top.env.sb [sb] INPUT COVERAGE = 83.33 %
UVM_INFO axi4_lite_inp_monitor.sv(38) @ 4305: uvm_test_top.env.aa.inp_mon [INPUT MONITOR] READ araddr=00000034
UVM_INFO axi4_lite_out_monitor.sv(28) @ 4315: uvm_test_top.env.pa.out_mon [OUTPUT MONITOR] BRESP = 0 RRESP = 2 RDATA = 00000000
UVM_INFO axi4_lite_driver.sv(34) @ 4315: uvm_test_top.env.aa.drv [DRV] awaddr = bcaae034 wdata = 85221647 wstrb = c araddr = 00000034
UVM_INFO axi4_lite_scoreboard.sv(68) @ 4315: uvm_test_top.env.scb [RRESP] Matched : exp_rresp=2 actual_rresp =2 write = 0 read = 1
UVM_INFO axi4_lite_scoreboard.sv(72) @ 4315: uvm_test_top.env.scb [RDATA] Matched : exp_rdata=00000000 actual_rdata =00000000
UVM_INFO axi4_lite_subscriber.sv(41) @ 4355: uvm_test_top.env.sb [sb] INPUT COVERAGE = 83.33 %
UVM_INFO axi4_lite_inp_monitor.sv(44) @ 4355: uvm_test_top.env.aa.inp_mon [INPUT MONITOR]  WRITE awaddr=d748db28 wdata=dc7ea47b wstrb=1100 
UVM_INFO axi4_lite_out_monitor.sv(28) @ 4375: uvm_test_top.env.pa.out_mon [OUTPUT MONITOR] BRESP = 3 RRESP = 0 RDATA = 00000000
UVM_INFO axi4_lite_scoreboard.sv(52) @ 4375: uvm_test_top.env.scb [BRESP] Matched : exp_bresp= 3 actual_bresp=3 write = 1 read = 0
UVM_INFO axi4_lite_subscriber.sv(41) @ 4385: uvm_test_top.env.sb [sb] INPUT COVERAGE = 83.33 %
UVM_INFO axi4_lite_inp_monitor.sv(38) @ 4385: uvm_test_top.env.aa.inp_mon [INPUT MONITOR] READ araddr=00000014
UVM_INFO axi4_lite_out_monitor.sv(28) @ 4395: uvm_test_top.env.pa.out_mon [OUTPUT MONITOR] BRESP = 0 RRESP = 0 RDATA = 00000000
UVM_INFO axi4_lite_driver.sv(34) @ 4395: uvm_test_top.env.aa.drv [DRV] awaddr = d748db28 wdata = dc7ea47b wstrb = c araddr = 00000014
UVM_INFO axi4_lite_scoreboard.sv(68) @ 4395: uvm_test_top.env.scb [RRESP] Matched : exp_rresp=0 actual_rresp =0 write = 0 read = 1
UVM_INFO axi4_lite_scoreboard.sv(72) @ 4395: uvm_test_top.env.scb [RDATA] Matched : exp_rdata=00000000 actual_rdata =00000000
UVM_INFO axi4_lite_subscriber.sv(41) @ 4435: uvm_test_top.env.sb [sb] INPUT COVERAGE = 83.33 %
UVM_INFO axi4_lite_inp_monitor.sv(44) @ 4435: uvm_test_top.env.aa.inp_mon [INPUT MONITOR]  WRITE awaddr=88f1d9bc wdata=5f3a6f42 wstrb=1110 
UVM_INFO axi4_lite_out_monitor.sv(28) @ 4455: uvm_test_top.env.pa.out_mon [OUTPUT MONITOR] BRESP = 3 RRESP = 0 RDATA = 00000000
UVM_INFO axi4_lite_scoreboard.sv(52) @ 4455: uvm_test_top.env.scb [BRESP] Matched : exp_bresp= 3 actual_bresp=3 write = 1 read = 0
UVM_INFO axi4_lite_subscriber.sv(41) @ 4465: uvm_test_top.env.sb [sb] INPUT COVERAGE = 83.33 %
UVM_INFO axi4_lite_inp_monitor.sv(38) @ 4465: uvm_test_top.env.aa.inp_mon [INPUT MONITOR] READ araddr=0000001c
UVM_INFO axi4_lite_out_monitor.sv(28) @ 4475: uvm_test_top.env.pa.out_mon [OUTPUT MONITOR] BRESP = 0 RRESP = 0 RDATA = 00000000
UVM_INFO axi4_lite_driver.sv(34) @ 4475: uvm_test_top.env.aa.drv [DRV] awaddr = 88f1d9bc wdata = 5f3a6f42 wstrb = e araddr = 0000001c
UVM_INFO axi4_lite_scoreboard.sv(68) @ 4475: uvm_test_top.env.scb [RRESP] Matched : exp_rresp=0 actual_rresp =0 write = 0 read = 1
UVM_INFO axi4_lite_scoreboard.sv(72) @ 4475: uvm_test_top.env.scb [RDATA] Matched : exp_rdata=00000000 actual_rdata =00000000
UVM_INFO axi4_lite_subscriber.sv(41) @ 4505: uvm_test_top.env.sb [sb] INPUT COVERAGE = 83.33 %
UVM_INFO axi4_lite_inp_monitor.sv(44) @ 4505: uvm_test_top.env.aa.inp_mon [INPUT MONITOR]  WRITE awaddr=50ee75ec wdata=a0af1205 wstrb=0101 
UVM_INFO axi4_lite_out_monitor.sv(28) @ 4525: uvm_test_top.env.pa.out_mon [OUTPUT MONITOR] BRESP = 3 RRESP = 0 RDATA = 00000000
UVM_INFO axi4_lite_scoreboard.sv(52) @ 4525: uvm_test_top.env.scb [BRESP] Matched : exp_bresp= 3 actual_bresp=3 write = 1 read = 0
UVM_INFO axi4_lite_subscriber.sv(41) @ 4535: uvm_test_top.env.sb [sb] INPUT COVERAGE = 83.33 %
UVM_INFO axi4_lite_inp_monitor.sv(38) @ 4535: uvm_test_top.env.aa.inp_mon [INPUT MONITOR] READ araddr=00000010
UVM_INFO axi4_lite_out_monitor.sv(28) @ 4545: uvm_test_top.env.pa.out_mon [OUTPUT MONITOR] BRESP = 0 RRESP = 0 RDATA = 00000000
UVM_INFO axi4_lite_driver.sv(34) @ 4545: uvm_test_top.env.aa.drv [DRV] awaddr = 50ee75ec wdata = a0af1205 wstrb = 5 araddr = 00000010
UVM_INFO axi4_lite_scoreboard.sv(68) @ 4545: uvm_test_top.env.scb [RRESP] Matched : exp_rresp=0 actual_rresp =0 write = 0 read = 1
UVM_INFO axi4_lite_scoreboard.sv(72) @ 4545: uvm_test_top.env.scb [RDATA] Matched : exp_rdata=00000000 actual_rdata =00000000
UVM_INFO axi4_lite_subscriber.sv(41) @ 4575: uvm_test_top.env.sb [sb] INPUT COVERAGE = 83.33 %
UVM_INFO axi4_lite_inp_monitor.sv(44) @ 4575: uvm_test_top.env.aa.inp_mon [INPUT MONITOR]  WRITE awaddr=a37d92f4 wdata=b09fba35 wstrb=1000 
UVM_INFO axi4_lite_out_monitor.sv(28) @ 4595: uvm_test_top.env.pa.out_mon [OUTPUT MONITOR] BRESP = 3 RRESP = 0 RDATA = 00000000
UVM_INFO axi4_lite_scoreboard.sv(52) @ 4595: uvm_test_top.env.scb [BRESP] Matched : exp_bresp= 3 actual_bresp=3 write = 1 read = 0
UVM_INFO axi4_lite_subscriber.sv(41) @ 4605: uvm_test_top.env.sb [sb] INPUT COVERAGE = 83.33 %
UVM_INFO axi4_lite_inp_monitor.sv(38) @ 4605: uvm_test_top.env.aa.inp_mon [INPUT MONITOR] READ araddr=0000002c
UVM_INFO axi4_lite_out_monitor.sv(28) @ 4615: uvm_test_top.env.pa.out_mon [OUTPUT MONITOR] BRESP = 0 RRESP = 0 RDATA = 00000000
UVM_INFO axi4_lite_driver.sv(34) @ 4615: uvm_test_top.env.aa.drv [DRV] awaddr = a37d92f4 wdata = b09fba35 wstrb = 8 araddr = 0000002c
UVM_INFO axi4_lite_scoreboard.sv(68) @ 4615: uvm_test_top.env.scb [RRESP] Matched : exp_rresp=0 actual_rresp =0 write = 0 read = 1
UVM_INFO axi4_lite_scoreboard.sv(72) @ 4615: uvm_test_top.env.scb [RDATA] Matched : exp_rdata=00000000 actual_rdata =00000000
UVM_INFO axi4_lite_subscriber.sv(41) @ 4665: uvm_test_top.env.sb [sb] INPUT COVERAGE = 83.33 %
UVM_INFO axi4_lite_inp_monitor.sv(44) @ 4665: uvm_test_top.env.aa.inp_mon [INPUT MONITOR]  WRITE awaddr=1d1e5a68 wdata=7e2f0bf3 wstrb=0111 
UVM_INFO axi4_lite_out_monitor.sv(28) @ 4685: uvm_test_top.env.pa.out_mon [OUTPUT MONITOR] BRESP = 3 RRESP = 0 RDATA = 00000000
UVM_INFO axi4_lite_scoreboard.sv(52) @ 4685: uvm_test_top.env.scb [BRESP] Matched : exp_bresp= 3 actual_bresp=3 write = 1 read = 0
UVM_INFO axi4_lite_subscriber.sv(41) @ 4695: uvm_test_top.env.sb [sb] INPUT COVERAGE = 83.33 %
UVM_INFO axi4_lite_inp_monitor.sv(38) @ 4695: uvm_test_top.env.aa.inp_mon [INPUT MONITOR] READ araddr=00000008
UVM_INFO axi4_lite_out_monitor.sv(28) @ 4705: uvm_test_top.env.pa.out_mon [OUTPUT MONITOR] BRESP = 0 RRESP = 0 RDATA = 00000000
UVM_INFO axi4_lite_driver.sv(34) @ 4705: uvm_test_top.env.aa.drv [DRV] awaddr = 1d1e5a68 wdata = 7e2f0bf3 wstrb = 7 araddr = 00000008
UVM_INFO axi4_lite_scoreboard.sv(68) @ 4705: uvm_test_top.env.scb [RRESP] Matched : exp_rresp=0 actual_rresp =0 write = 0 read = 1
UVM_INFO axi4_lite_scoreboard.sv(72) @ 4705: uvm_test_top.env.scb [RDATA] Matched : exp_rdata=00000000 actual_rdata =00000000
UVM_INFO axi4_lite_subscriber.sv(41) @ 4735: uvm_test_top.env.sb [sb] INPUT COVERAGE = 83.33 %
UVM_INFO axi4_lite_inp_monitor.sv(44) @ 4735: uvm_test_top.env.aa.inp_mon [INPUT MONITOR]  WRITE awaddr=0af231e0 wdata=f6e3ed2d wstrb=1001 
UVM_INFO axi4_lite_out_monitor.sv(28) @ 4755: uvm_test_top.env.pa.out_mon [OUTPUT MONITOR] BRESP = 3 RRESP = 0 RDATA = 00000000
UVM_INFO axi4_lite_scoreboard.sv(52) @ 4755: uvm_test_top.env.scb [BRESP] Matched : exp_bresp= 3 actual_bresp=3 write = 1 read = 0
UVM_INFO axi4_lite_subscriber.sv(41) @ 4765: uvm_test_top.env.sb [sb] INPUT COVERAGE = 83.33 %
UVM_INFO axi4_lite_inp_monitor.sv(38) @ 4765: uvm_test_top.env.aa.inp_mon [INPUT MONITOR] READ araddr=00000030
UVM_INFO axi4_lite_out_monitor.sv(28) @ 4775: uvm_test_top.env.pa.out_mon [OUTPUT MONITOR] BRESP = 0 RRESP = 0 RDATA = 00000000
UVM_INFO axi4_lite_driver.sv(34) @ 4775: uvm_test_top.env.aa.drv [DRV] awaddr = 0af231e0 wdata = f6e3ed2d wstrb = 9 araddr = 00000030
UVM_INFO axi4_lite_scoreboard.sv(68) @ 4775: uvm_test_top.env.scb [RRESP] Matched : exp_rresp=0 actual_rresp =0 write = 0 read = 1
UVM_INFO axi4_lite_scoreboard.sv(72) @ 4775: uvm_test_top.env.scb [RDATA] Matched : exp_rdata=00000000 actual_rdata =00000000
UVM_INFO axi4_lite_subscriber.sv(41) @ 4815: uvm_test_top.env.sb [sb] INPUT COVERAGE = 83.33 %
UVM_INFO axi4_lite_inp_monitor.sv(44) @ 4815: uvm_test_top.env.aa.inp_mon [INPUT MONITOR]  WRITE awaddr=ce48f9e0 wdata=dd7bc7ae wstrb=1000 
UVM_INFO axi4_lite_out_monitor.sv(28) @ 4835: uvm_test_top.env.pa.out_mon [OUTPUT MONITOR] BRESP = 3 RRESP = 0 RDATA = 00000000
UVM_INFO axi4_lite_scoreboard.sv(52) @ 4835: uvm_test_top.env.scb [BRESP] Matched : exp_bresp= 3 actual_bresp=3 write = 1 read = 0
UVM_INFO axi4_lite_subscriber.sv(41) @ 4845: uvm_test_top.env.sb [sb] INPUT COVERAGE = 83.33 %
UVM_INFO axi4_lite_inp_monitor.sv(38) @ 4845: uvm_test_top.env.aa.inp_mon [INPUT MONITOR] READ araddr=00000004
UVM_INFO axi4_lite_out_monitor.sv(28) @ 4855: uvm_test_top.env.pa.out_mon [OUTPUT MONITOR] BRESP = 0 RRESP = 0 RDATA = 00000000
UVM_INFO axi4_lite_driver.sv(34) @ 4855: uvm_test_top.env.aa.drv [DRV] awaddr = ce48f9e0 wdata = dd7bc7ae wstrb = 8 araddr = 00000004
UVM_INFO axi4_lite_scoreboard.sv(68) @ 4855: uvm_test_top.env.scb [RRESP] Matched : exp_rresp=0 actual_rresp =0 write = 0 read = 1
UVM_INFO axi4_lite_scoreboard.sv(72) @ 4855: uvm_test_top.env.scb [RDATA] Matched : exp_rdata=00000000 actual_rdata =00000000
UVM_INFO axi4_lite_subscriber.sv(41) @ 4905: uvm_test_top.env.sb [sb] INPUT COVERAGE = 83.33 %
UVM_INFO axi4_lite_inp_monitor.sv(44) @ 4905: uvm_test_top.env.aa.inp_mon [INPUT MONITOR]  WRITE awaddr=f5a78a98 wdata=35896280 wstrb=0001 
UVM_INFO axi4_lite_out_monitor.sv(28) @ 4925: uvm_test_top.env.pa.out_mon [OUTPUT MONITOR] BRESP = 3 RRESP = 0 RDATA = 00000000
UVM_INFO axi4_lite_scoreboard.sv(52) @ 4925: uvm_test_top.env.scb [BRESP] Matched : exp_bresp= 3 actual_bresp=3 write = 1 read = 0
UVM_INFO axi4_lite_subscriber.sv(41) @ 4935: uvm_test_top.env.sb [sb] INPUT COVERAGE = 83.33 %
UVM_INFO axi4_lite_inp_monitor.sv(38) @ 4935: uvm_test_top.env.aa.inp_mon [INPUT MONITOR] READ araddr=00000024
UVM_INFO axi4_lite_out_monitor.sv(28) @ 4945: uvm_test_top.env.pa.out_mon [OUTPUT MONITOR] BRESP = 0 RRESP = 0 RDATA = 00000000
UVM_INFO axi4_lite_driver.sv(34) @ 4945: uvm_test_top.env.aa.drv [DRV] awaddr = f5a78a98 wdata = 35896280 wstrb = 1 araddr = 00000024
UVM_INFO axi4_lite_scoreboard.sv(68) @ 4945: uvm_test_top.env.scb [RRESP] Matched : exp_rresp=0 actual_rresp =0 write = 0 read = 1
UVM_INFO axi4_lite_scoreboard.sv(72) @ 4945: uvm_test_top.env.scb [RDATA] Matched : exp_rdata=00000000 actual_rdata =00000000
UVM_INFO axi4_lite_subscriber.sv(41) @ 4995: uvm_test_top.env.sb [sb] INPUT COVERAGE = 83.33 %
UVM_INFO axi4_lite_inp_monitor.sv(44) @ 4995: uvm_test_top.env.aa.inp_mon [INPUT MONITOR]  WRITE awaddr=682e73ac wdata=86c44939 wstrb=0010 
UVM_INFO axi4_lite_out_monitor.sv(28) @ 5015: uvm_test_top.env.pa.out_mon [OUTPUT MONITOR] BRESP = 3 RRESP = 0 RDATA = 00000000
UVM_INFO axi4_lite_scoreboard.sv(52) @ 5015: uvm_test_top.env.scb [BRESP] Matched : exp_bresp= 3 actual_bresp=3 write = 1 read = 0
UVM_INFO axi4_lite_subscriber.sv(41) @ 5025: uvm_test_top.env.sb [sb] INPUT COVERAGE = 83.33 %
UVM_INFO axi4_lite_inp_monitor.sv(38) @ 5025: uvm_test_top.env.aa.inp_mon [INPUT MONITOR] READ araddr=0000001c
UVM_INFO axi4_lite_out_monitor.sv(28) @ 5035: uvm_test_top.env.pa.out_mon [OUTPUT MONITOR] BRESP = 0 RRESP = 0 RDATA = 00000000
UVM_INFO axi4_lite_driver.sv(34) @ 5035: uvm_test_top.env.aa.drv [DRV] awaddr = 682e73ac wdata = 86c44939 wstrb = 2 araddr = 0000001c
UVM_INFO axi4_lite_scoreboard.sv(68) @ 5035: uvm_test_top.env.scb [RRESP] Matched : exp_rresp=0 actual_rresp =0 write = 0 read = 1
UVM_INFO axi4_lite_scoreboard.sv(72) @ 5035: uvm_test_top.env.scb [RDATA] Matched : exp_rdata=00000000 actual_rdata =00000000
UVM_INFO axi4_lite_subscriber.sv(41) @ 5065: uvm_test_top.env.sb [sb] INPUT COVERAGE = 83.33 %
UVM_INFO axi4_lite_inp_monitor.sv(44) @ 5065: uvm_test_top.env.aa.inp_mon [INPUT MONITOR]  WRITE awaddr=bf262b9c wdata=f68094b1 wstrb=1111 
UVM_INFO axi4_lite_out_monitor.sv(28) @ 5085: uvm_test_top.env.pa.out_mon [OUTPUT MONITOR] BRESP = 3 RRESP = 0 RDATA = 00000000
UVM_INFO axi4_lite_scoreboard.sv(52) @ 5085: uvm_test_top.env.scb [BRESP] Matched : exp_bresp= 3 actual_bresp=3 write = 1 read = 0
UVM_INFO axi4_lite_subscriber.sv(41) @ 5095: uvm_test_top.env.sb [sb] INPUT COVERAGE = 83.33 %
UVM_INFO axi4_lite_inp_monitor.sv(38) @ 5095: uvm_test_top.env.aa.inp_mon [INPUT MONITOR] READ araddr=00000000
UVM_INFO axi4_lite_out_monitor.sv(28) @ 5105: uvm_test_top.env.pa.out_mon [OUTPUT MONITOR] BRESP = 0 RRESP = 0 RDATA = 00000000
UVM_INFO axi4_lite_driver.sv(34) @ 5105: uvm_test_top.env.aa.drv [DRV] awaddr = bf262b9c wdata = f68094b1 wstrb = f araddr = 00000000
UVM_INFO axi4_lite_scoreboard.sv(68) @ 5105: uvm_test_top.env.scb [RRESP] Matched : exp_rresp=0 actual_rresp =0 write = 0 read = 1
UVM_INFO axi4_lite_scoreboard.sv(72) @ 5105: uvm_test_top.env.scb [RDATA] Matched : exp_rdata=00000000 actual_rdata =00000000
UVM_INFO axi4_lite_subscriber.sv(41) @ 5155: uvm_test_top.env.sb [sb] INPUT COVERAGE = 83.33 %
UVM_INFO axi4_lite_inp_monitor.sv(44) @ 5155: uvm_test_top.env.aa.inp_mon [INPUT MONITOR]  WRITE awaddr=0e7b9c68 wdata=355d2a28 wstrb=1000 
UVM_INFO axi4_lite_out_monitor.sv(28) @ 5175: uvm_test_top.env.pa.out_mon [OUTPUT MONITOR] BRESP = 3 RRESP = 0 RDATA = 00000000
UVM_INFO axi4_lite_scoreboard.sv(52) @ 5175: uvm_test_top.env.scb [BRESP] Matched : exp_bresp= 3 actual_bresp=3 write = 1 read = 0
UVM_INFO axi4_lite_subscriber.sv(41) @ 5185: uvm_test_top.env.sb [sb] INPUT COVERAGE = 83.33 %
UVM_INFO axi4_lite_inp_monitor.sv(38) @ 5185: uvm_test_top.env.aa.inp_mon [INPUT MONITOR] READ araddr=00000008
UVM_INFO axi4_lite_out_monitor.sv(28) @ 5195: uvm_test_top.env.pa.out_mon [OUTPUT MONITOR] BRESP = 0 RRESP = 0 RDATA = 00000000
UVM_INFO axi4_lite_driver.sv(34) @ 5195: uvm_test_top.env.aa.drv [DRV] awaddr = 0e7b9c68 wdata = 355d2a28 wstrb = 8 araddr = 00000008
UVM_INFO axi4_lite_scoreboard.sv(68) @ 5195: uvm_test_top.env.scb [RRESP] Matched : exp_rresp=0 actual_rresp =0 write = 0 read = 1
UVM_INFO axi4_lite_scoreboard.sv(72) @ 5195: uvm_test_top.env.scb [RDATA] Matched : exp_rdata=00000000 actual_rdata =00000000
UVM_INFO axi4_lite_subscriber.sv(41) @ 5235: uvm_test_top.env.sb [sb] INPUT COVERAGE = 83.33 %
UVM_INFO axi4_lite_inp_monitor.sv(44) @ 5235: uvm_test_top.env.aa.inp_mon [INPUT MONITOR]  WRITE awaddr=b0cb5dc4 wdata=ac858d63 wstrb=0100 
UVM_INFO axi4_lite_out_monitor.sv(28) @ 5255: uvm_test_top.env.pa.out_mon [OUTPUT MONITOR] BRESP = 3 RRESP = 0 RDATA = 00000000
UVM_INFO axi4_lite_scoreboard.sv(52) @ 5255: uvm_test_top.env.scb [BRESP] Matched : exp_bresp= 3 actual_bresp=3 write = 1 read = 0
UVM_INFO axi4_lite_subscriber.sv(41) @ 5265: uvm_test_top.env.sb [sb] INPUT COVERAGE = 83.33 %
UVM_INFO axi4_lite_inp_monitor.sv(38) @ 5265: uvm_test_top.env.aa.inp_mon [INPUT MONITOR] READ araddr=00000008
UVM_INFO axi4_lite_out_monitor.sv(28) @ 5275: uvm_test_top.env.pa.out_mon [OUTPUT MONITOR] BRESP = 0 RRESP = 0 RDATA = 00000000
UVM_INFO axi4_lite_driver.sv(34) @ 5275: uvm_test_top.env.aa.drv [DRV] awaddr = b0cb5dc4 wdata = ac858d63 wstrb = 4 araddr = 00000008
UVM_INFO axi4_lite_scoreboard.sv(68) @ 5275: uvm_test_top.env.scb [RRESP] Matched : exp_rresp=0 actual_rresp =0 write = 0 read = 1
UVM_INFO axi4_lite_scoreboard.sv(72) @ 5275: uvm_test_top.env.scb [RDATA] Matched : exp_rdata=00000000 actual_rdata =00000000
UVM_INFO axi4_lite_subscriber.sv(41) @ 5325: uvm_test_top.env.sb [sb] INPUT COVERAGE = 83.33 %
UVM_INFO axi4_lite_inp_monitor.sv(44) @ 5325: uvm_test_top.env.aa.inp_mon [INPUT MONITOR]  WRITE awaddr=65f63808 wdata=a69feca3 wstrb=0000 
UVM_INFO axi4_lite_out_monitor.sv(28) @ 5345: uvm_test_top.env.pa.out_mon [OUTPUT MONITOR] BRESP = 3 RRESP = 0 RDATA = 00000000
UVM_INFO axi4_lite_scoreboard.sv(52) @ 5345: uvm_test_top.env.scb [BRESP] Matched : exp_bresp= 3 actual_bresp=3 write = 1 read = 0
UVM_INFO axi4_lite_subscriber.sv(41) @ 5355: uvm_test_top.env.sb [sb] INPUT COVERAGE = 83.33 %
UVM_INFO axi4_lite_inp_monitor.sv(38) @ 5355: uvm_test_top.env.aa.inp_mon [INPUT MONITOR] READ araddr=0000002c
UVM_INFO axi4_lite_out_monitor.sv(28) @ 5365: uvm_test_top.env.pa.out_mon [OUTPUT MONITOR] BRESP = 0 RRESP = 0 RDATA = 00000000
UVM_INFO axi4_lite_driver.sv(34) @ 5365: uvm_test_top.env.aa.drv [DRV] awaddr = 65f63808 wdata = a69feca3 wstrb = 0 araddr = 0000002c
UVM_INFO axi4_lite_scoreboard.sv(68) @ 5365: uvm_test_top.env.scb [RRESP] Matched : exp_rresp=0 actual_rresp =0 write = 0 read = 1
UVM_INFO axi4_lite_scoreboard.sv(72) @ 5365: uvm_test_top.env.scb [RDATA] Matched : exp_rdata=00000000 actual_rdata =00000000
UVM_INFO axi4_lite_subscriber.sv(41) @ 5415: uvm_test_top.env.sb [sb] INPUT COVERAGE = 83.33 %
UVM_INFO axi4_lite_inp_monitor.sv(44) @ 5415: uvm_test_top.env.aa.inp_mon [INPUT MONITOR]  WRITE awaddr=2919bc70 wdata=20715b34 wstrb=0100 
UVM_INFO axi4_lite_out_monitor.sv(28) @ 5435: uvm_test_top.env.pa.out_mon [OUTPUT MONITOR] BRESP = 3 RRESP = 0 RDATA = 00000000
UVM_INFO axi4_lite_scoreboard.sv(52) @ 5435: uvm_test_top.env.scb [BRESP] Matched : exp_bresp= 3 actual_bresp=3 write = 1 read = 0
UVM_INFO axi4_lite_subscriber.sv(41) @ 5445: uvm_test_top.env.sb [sb] INPUT COVERAGE = 83.33 %
UVM_INFO axi4_lite_inp_monitor.sv(38) @ 5445: uvm_test_top.env.aa.inp_mon [INPUT MONITOR] READ araddr=00000008
UVM_INFO axi4_lite_out_monitor.sv(28) @ 5455: uvm_test_top.env.pa.out_mon [OUTPUT MONITOR] BRESP = 0 RRESP = 0 RDATA = 00000000
UVM_INFO axi4_lite_driver.sv(34) @ 5455: uvm_test_top.env.aa.drv [DRV] awaddr = 2919bc70 wdata = 20715b34 wstrb = 4 araddr = 00000008
UVM_INFO axi4_lite_scoreboard.sv(68) @ 5455: uvm_test_top.env.scb [RRESP] Matched : exp_rresp=0 actual_rresp =0 write = 0 read = 1
UVM_INFO axi4_lite_scoreboard.sv(72) @ 5455: uvm_test_top.env.scb [RDATA] Matched : exp_rdata=00000000 actual_rdata =00000000
UVM_INFO axi4_lite_subscriber.sv(41) @ 5475: uvm_test_top.env.sb [sb] INPUT COVERAGE = 83.33 %
UVM_INFO axi4_lite_inp_monitor.sv(44) @ 5475: uvm_test_top.env.aa.inp_mon [INPUT MONITOR]  WRITE awaddr=572c9680 wdata=6691791f wstrb=0010 
UVM_INFO axi4_lite_out_monitor.sv(28) @ 5495: uvm_test_top.env.pa.out_mon [OUTPUT MONITOR] BRESP = 3 RRESP = 0 RDATA = 00000000
UVM_INFO axi4_lite_scoreboard.sv(52) @ 5495: uvm_test_top.env.scb [BRESP] Matched : exp_bresp= 3 actual_bresp=3 write = 1 read = 0
UVM_INFO axi4_lite_subscriber.sv(41) @ 5505: uvm_test_top.env.sb [sb] INPUT COVERAGE = 83.33 %
UVM_INFO axi4_lite_inp_monitor.sv(38) @ 5505: uvm_test_top.env.aa.inp_mon [INPUT MONITOR] READ araddr=00000008
UVM_INFO axi4_lite_out_monitor.sv(28) @ 5515: uvm_test_top.env.pa.out_mon [OUTPUT MONITOR] BRESP = 0 RRESP = 0 RDATA = 00000000
UVM_INFO axi4_lite_driver.sv(34) @ 5515: uvm_test_top.env.aa.drv [DRV] awaddr = 572c9680 wdata = 6691791f wstrb = 2 araddr = 00000008
UVM_INFO axi4_lite_scoreboard.sv(68) @ 5515: uvm_test_top.env.scb [RRESP] Matched : exp_rresp=0 actual_rresp =0 write = 0 read = 1
UVM_INFO axi4_lite_scoreboard.sv(72) @ 5515: uvm_test_top.env.scb [RDATA] Matched : exp_rdata=00000000 actual_rdata =00000000
UVM_INFO axi4_lite_subscriber.sv(41) @ 5535: uvm_test_top.env.sb [sb] INPUT COVERAGE = 83.33 %
UVM_INFO axi4_lite_inp_monitor.sv(44) @ 5535: uvm_test_top.env.aa.inp_mon [INPUT MONITOR]  WRITE awaddr=c3c0015c wdata=2ed6968f wstrb=1000 
UVM_INFO axi4_lite_out_monitor.sv(28) @ 5555: uvm_test_top.env.pa.out_mon [OUTPUT MONITOR] BRESP = 3 RRESP = 0 RDATA = 00000000
UVM_INFO axi4_lite_scoreboard.sv(52) @ 5555: uvm_test_top.env.scb [BRESP] Matched : exp_bresp= 3 actual_bresp=3 write = 1 read = 0
UVM_INFO axi4_lite_subscriber.sv(41) @ 5565: uvm_test_top.env.sb [sb] INPUT COVERAGE = 83.33 %
UVM_INFO axi4_lite_inp_monitor.sv(38) @ 5565: uvm_test_top.env.aa.inp_mon [INPUT MONITOR] READ araddr=00000020
UVM_INFO axi4_lite_out_monitor.sv(28) @ 5575: uvm_test_top.env.pa.out_mon [OUTPUT MONITOR] BRESP = 0 RRESP = 0 RDATA = 00000000
UVM_INFO axi4_lite_driver.sv(34) @ 5575: uvm_test_top.env.aa.drv [DRV] awaddr = c3c0015c wdata = 2ed6968f wstrb = 8 araddr = 00000020
UVM_INFO axi4_lite_scoreboard.sv(68) @ 5575: uvm_test_top.env.scb [RRESP] Matched : exp_rresp=0 actual_rresp =0 write = 0 read = 1
UVM_INFO axi4_lite_scoreboard.sv(72) @ 5575: uvm_test_top.env.scb [RDATA] Matched : exp_rdata=00000000 actual_rdata =00000000
UVM_INFO axi4_lite_subscriber.sv(41) @ 5625: uvm_test_top.env.sb [sb] INPUT COVERAGE = 83.33 %
UVM_INFO axi4_lite_inp_monitor.sv(44) @ 5625: uvm_test_top.env.aa.inp_mon [INPUT MONITOR]  WRITE awaddr=1fde6df0 wdata=b366a074 wstrb=1101 
UVM_INFO axi4_lite_out_monitor.sv(28) @ 5645: uvm_test_top.env.pa.out_mon [OUTPUT MONITOR] BRESP = 3 RRESP = 0 RDATA = 00000000
UVM_INFO axi4_lite_scoreboard.sv(52) @ 5645: uvm_test_top.env.scb [BRESP] Matched : exp_bresp= 3 actual_bresp=3 write = 1 read = 0
UVM_INFO axi4_lite_subscriber.sv(41) @ 5655: uvm_test_top.env.sb [sb] INPUT COVERAGE = 83.33 %
UVM_INFO axi4_lite_inp_monitor.sv(38) @ 5655: uvm_test_top.env.aa.inp_mon [INPUT MONITOR] READ araddr=00000038
UVM_INFO axi4_lite_out_monitor.sv(28) @ 5665: uvm_test_top.env.pa.out_mon [OUTPUT MONITOR] BRESP = 0 RRESP = 2 RDATA = 00000000
UVM_INFO axi4_lite_driver.sv(34) @ 5665: uvm_test_top.env.aa.drv [DRV] awaddr = 1fde6df0 wdata = b366a074 wstrb = d araddr = 00000038
UVM_INFO axi4_lite_scoreboard.sv(68) @ 5665: uvm_test_top.env.scb [RRESP] Matched : exp_rresp=2 actual_rresp =2 write = 0 read = 1
UVM_INFO axi4_lite_scoreboard.sv(72) @ 5665: uvm_test_top.env.scb [RDATA] Matched : exp_rdata=00000000 actual_rdata =00000000
UVM_INFO axi4_lite_subscriber.sv(41) @ 5695: uvm_test_top.env.sb [sb] INPUT COVERAGE = 83.33 %
UVM_INFO axi4_lite_inp_monitor.sv(44) @ 5695: uvm_test_top.env.aa.inp_mon [INPUT MONITOR]  WRITE awaddr=3e3d5c4c wdata=c59dcbfd wstrb=0100 
UVM_INFO axi4_lite_out_monitor.sv(28) @ 5715: uvm_test_top.env.pa.out_mon [OUTPUT MONITOR] BRESP = 3 RRESP = 0 RDATA = 00000000
UVM_INFO axi4_lite_scoreboard.sv(52) @ 5715: uvm_test_top.env.scb [BRESP] Matched : exp_bresp= 3 actual_bresp=3 write = 1 read = 0
UVM_INFO axi4_lite_subscriber.sv(41) @ 5725: uvm_test_top.env.sb [sb] INPUT COVERAGE = 83.33 %
UVM_INFO axi4_lite_inp_monitor.sv(38) @ 5725: uvm_test_top.env.aa.inp_mon [INPUT MONITOR] READ araddr=00000038
UVM_INFO axi4_lite_out_monitor.sv(28) @ 5735: uvm_test_top.env.pa.out_mon [OUTPUT MONITOR] BRESP = 0 RRESP = 2 RDATA = 00000000
UVM_INFO axi4_lite_driver.sv(34) @ 5735: uvm_test_top.env.aa.drv [DRV] awaddr = 3e3d5c4c wdata = c59dcbfd wstrb = 4 araddr = 00000038
UVM_INFO axi4_lite_scoreboard.sv(68) @ 5735: uvm_test_top.env.scb [RRESP] Matched : exp_rresp=2 actual_rresp =2 write = 0 read = 1
UVM_INFO axi4_lite_scoreboard.sv(72) @ 5735: uvm_test_top.env.scb [RDATA] Matched : exp_rdata=00000000 actual_rdata =00000000
UVM_INFO axi4_lite_subscriber.sv(41) @ 5755: uvm_test_top.env.sb [sb] INPUT COVERAGE = 83.33 %
UVM_INFO axi4_lite_inp_monitor.sv(44) @ 5755: uvm_test_top.env.aa.inp_mon [INPUT MONITOR]  WRITE awaddr=89e0c8d4 wdata=39dc4343 wstrb=1100 
UVM_INFO axi4_lite_out_monitor.sv(28) @ 5775: uvm_test_top.env.pa.out_mon [OUTPUT MONITOR] BRESP = 3 RRESP = 0 RDATA = 00000000
UVM_INFO axi4_lite_scoreboard.sv(52) @ 5775: uvm_test_top.env.scb [BRESP] Matched : exp_bresp= 3 actual_bresp=3 write = 1 read = 0
UVM_INFO axi4_lite_subscriber.sv(41) @ 5785: uvm_test_top.env.sb [sb] INPUT COVERAGE = 83.33 %
UVM_INFO axi4_lite_inp_monitor.sv(38) @ 5785: uvm_test_top.env.aa.inp_mon [INPUT MONITOR] READ araddr=0000001c
UVM_INFO axi4_lite_out_monitor.sv(28) @ 5795: uvm_test_top.env.pa.out_mon [OUTPUT MONITOR] BRESP = 0 RRESP = 0 RDATA = 00000000
UVM_INFO axi4_lite_driver.sv(34) @ 5795: uvm_test_top.env.aa.drv [DRV] awaddr = 89e0c8d4 wdata = 39dc4343 wstrb = c araddr = 0000001c
UVM_INFO axi4_lite_scoreboard.sv(68) @ 5795: uvm_test_top.env.scb [RRESP] Matched : exp_rresp=0 actual_rresp =0 write = 0 read = 1
UVM_INFO axi4_lite_scoreboard.sv(72) @ 5795: uvm_test_top.env.scb [RDATA] Matched : exp_rdata=00000000 actual_rdata =00000000
UVM_INFO axi4_lite_subscriber.sv(41) @ 5825: uvm_test_top.env.sb [sb] INPUT COVERAGE = 83.33 %
UVM_INFO axi4_lite_inp_monitor.sv(44) @ 5825: uvm_test_top.env.aa.inp_mon [INPUT MONITOR]  WRITE awaddr=89aad534 wdata=6f716e09 wstrb=1110 
UVM_INFO axi4_lite_out_monitor.sv(28) @ 5845: uvm_test_top.env.pa.out_mon [OUTPUT MONITOR] BRESP = 3 RRESP = 0 RDATA = 00000000
UVM_INFO axi4_lite_scoreboard.sv(52) @ 5845: uvm_test_top.env.scb [BRESP] Matched : exp_bresp= 3 actual_bresp=3 write = 1 read = 0
UVM_INFO axi4_lite_subscriber.sv(41) @ 5855: uvm_test_top.env.sb [sb] INPUT COVERAGE = 83.33 %
UVM_INFO axi4_lite_inp_monitor.sv(38) @ 5855: uvm_test_top.env.aa.inp_mon [INPUT MONITOR] READ araddr=00000038
UVM_INFO axi4_lite_out_monitor.sv(28) @ 5865: uvm_test_top.env.pa.out_mon [OUTPUT MONITOR] BRESP = 0 RRESP = 2 RDATA = 00000000
UVM_INFO axi4_lite_driver.sv(34) @ 5865: uvm_test_top.env.aa.drv [DRV] awaddr = 89aad534 wdata = 6f716e09 wstrb = e araddr = 00000038
UVM_INFO axi4_lite_scoreboard.sv(68) @ 5865: uvm_test_top.env.scb [RRESP] Matched : exp_rresp=2 actual_rresp =2 write = 0 read = 1
UVM_INFO axi4_lite_scoreboard.sv(72) @ 5865: uvm_test_top.env.scb [RDATA] Matched : exp_rdata=00000000 actual_rdata =00000000
UVM_INFO axi4_lite_subscriber.sv(41) @ 5915: uvm_test_top.env.sb [sb] INPUT COVERAGE = 83.33 %
UVM_INFO axi4_lite_inp_monitor.sv(44) @ 5915: uvm_test_top.env.aa.inp_mon [INPUT MONITOR]  WRITE awaddr=b58829e8 wdata=3bc3a579 wstrb=1001 
UVM_INFO axi4_lite_out_monitor.sv(28) @ 5935: uvm_test_top.env.pa.out_mon [OUTPUT MONITOR] BRESP = 3 RRESP = 0 RDATA = 00000000
UVM_INFO axi4_lite_scoreboard.sv(52) @ 5935: uvm_test_top.env.scb [BRESP] Matched : exp_bresp= 3 actual_bresp=3 write = 1 read = 0
UVM_INFO axi4_lite_subscriber.sv(41) @ 5945: uvm_test_top.env.sb [sb] INPUT COVERAGE = 83.33 %
UVM_INFO axi4_lite_inp_monitor.sv(38) @ 5945: uvm_test_top.env.aa.inp_mon [INPUT MONITOR] READ araddr=0000001c
UVM_INFO axi4_lite_out_monitor.sv(28) @ 5955: uvm_test_top.env.pa.out_mon [OUTPUT MONITOR] BRESP = 0 RRESP = 0 RDATA = 00000000
UVM_INFO axi4_lite_driver.sv(34) @ 5955: uvm_test_top.env.aa.drv [DRV] awaddr = b58829e8 wdata = 3bc3a579 wstrb = 9 araddr = 0000001c
UVM_INFO axi4_lite_scoreboard.sv(68) @ 5955: uvm_test_top.env.scb [RRESP] Matched : exp_rresp=0 actual_rresp =0 write = 0 read = 1
UVM_INFO axi4_lite_scoreboard.sv(72) @ 5955: uvm_test_top.env.scb [RDATA] Matched : exp_rdata=00000000 actual_rdata =00000000
UVM_INFO axi4_lite_subscriber.sv(41) @ 5995: uvm_test_top.env.sb [sb] INPUT COVERAGE = 83.33 %
UVM_INFO axi4_lite_inp_monitor.sv(44) @ 5995: uvm_test_top.env.aa.inp_mon [INPUT MONITOR]  WRITE awaddr=bd559a44 wdata=b1b018c3 wstrb=0010 
UVM_INFO axi4_lite_out_monitor.sv(28) @ 6015: uvm_test_top.env.pa.out_mon [OUTPUT MONITOR] BRESP = 3 RRESP = 0 RDATA = 00000000
UVM_INFO axi4_lite_scoreboard.sv(52) @ 6015: uvm_test_top.env.scb [BRESP] Matched : exp_bresp= 3 actual_bresp=3 write = 1 read = 0
UVM_INFO axi4_lite_subscriber.sv(41) @ 6025: uvm_test_top.env.sb [sb] INPUT COVERAGE = 83.33 %
