Command: /fetools/work_area/frontend/Batch_11/ananyaganesh/system_verilog/AXI4_LITE_SLAVE/src/work/simv +UVM_TESTNAME=axi4_lite_test_write +UVM_VERBOSITY=UVM_HIGH +ntb_random_seed=12539 -cm line+cond+fsm+tgl+branch+assert -cm_dir work/regression.vdb -cm_name axi4_lite_test_write_12539 -l work/logs/axi4_lite_test_write_12539.log +UVM_NO_RELNOTES
Chronologic VCS simulator copyright 1991-2020
Contains Synopsys proprietary information.
Compiler version Q-2020.03-SP2-8_Full64; Runtime version Q-2020.03-SP2-8_Full64;  Sep 18 14:21 2026
----------------------------------------------------------------
UVM-1.1d.Synopsys
(C) 2007-2013 Mentor Graphics Corporation
(C) 2007-2013 Cadence Design Systems, Inc.
(C) 2006-2013 Synopsys, Inc.
(C) 2011-2013 Cypress Semiconductor Corp.
----------------------------------------------------------------
UVM_INFO @ 0: reporter [RNTST] Running test axi4_lite_test_write...
UVM_INFO @ 0: reporter [UVMTOP] UVM testbench topology:
---------------------------------------------------------------
Name                       Type                     Size  Value
---------------------------------------------------------------
uvm_test_top               axi4_lite_test_write     -     @469 
  env                      axi4_lite_environment    -     @477 
    aa                     axi4_lite_active_agent   -     @489 
      drv                  axi4_lite_driver         -     @569 
        rsp_port           uvm_analysis_port        -     @586 
        seq_item_port      uvm_seq_item_pull_port   -     @577 
      inp_mon              axi4_lite_inp_monitor    -     @552 
        inp_mon_port       uvm_analysis_port        -     @560 
      seqr                 axi4_lite_seqr           -     @595 
        rsp_export         uvm_analysis_export      -     @603 
        seq_item_export    uvm_seq_item_pull_imp    -     @709 
        arbitration_queue  array                    0     -    
        lock_queue         array                    0     -    
        num_last_reqs      integral                 32    'd1  
        num_last_rsps      integral                 32    'd1  
    pa                     axi4_lite_passive_agent  -     @497 
      out_mon              axi4_lite_out_monitor    -     @726 
        out_mon_port       uvm_analysis_port        -     @734 
    sb                     axi4_lite_subscriber     -     @531 
      analysis_imp         uvm_analysis_imp         -     @539 
    scb                    axi4_lite_scoreboard     -     @505 
      inp_port             uvm_analysis_imp_in      -     @513 
      out_port             uvm_analysis_imp_out     -     @522 
---------------------------------------------------------------

UVM_INFO axi4_lite_subscriber.sv(41) @ 35: uvm_test_top.env.sb [sb] INPUT COVERAGE = 25.00 %
UVM_INFO axi4_lite_inp_monitor.sv(44) @ 35: uvm_test_top.env.aa.inp_mon [INPUT MONITOR]  WRITE awaddr=00000018 wdata=32fad364 wstrb=1010 
UVM_INFO axi4_lite_out_monitor.sv(28) @ 55: uvm_test_top.env.pa.out_mon [OUTPUT MONITOR] BRESP = 0 RRESP = 0 RDATA = 00000000
UVM_INFO axi4_lite_driver.sv(34) @ 55: uvm_test_top.env.aa.drv [DRV] awaddr = 00000018 wdata = 32fad364 wstrb = a araddr = 74c8da64
UVM_INFO axi4_lite_scoreboard.sv(52) @ 55: uvm_test_top.env.scb [BRESP] Matched : exp_bresp= 0 actual_bresp=0 write = 1 read = 0
UVM_INFO axi4_lite_subscriber.sv(41) @ 95: uvm_test_top.env.sb [sb] INPUT COVERAGE = 36.46 %
UVM_INFO axi4_lite_inp_monitor.sv(44) @ 95: uvm_test_top.env.aa.inp_mon [INPUT MONITOR]  WRITE awaddr=00000020 wdata=7e77c7ba wstrb=0001 
UVM_INFO axi4_lite_out_monitor.sv(28) @ 115: uvm_test_top.env.pa.out_mon [OUTPUT MONITOR] BRESP = 0 RRESP = 0 RDATA = 00000000
UVM_INFO axi4_lite_driver.sv(34) @ 115: uvm_test_top.env.aa.drv [DRV] awaddr = 00000020 wdata = 7e77c7ba wstrb = 1 araddr = 02c8c1f4
UVM_INFO axi4_lite_scoreboard.sv(52) @ 115: uvm_test_top.env.scb [BRESP] Matched : exp_bresp= 0 actual_bresp=0 write = 1 read = 0
UVM_INFO axi4_lite_subscriber.sv(41) @ 145: uvm_test_top.env.sb [sb] INPUT COVERAGE = 44.79 %
UVM_INFO axi4_lite_inp_monitor.sv(44) @ 145: uvm_test_top.env.aa.inp_mon [INPUT MONITOR]  WRITE awaddr=0000002c wdata=02c30722 wstrb=0001 
UVM_INFO axi4_lite_out_monitor.sv(28) @ 165: uvm_test_top.env.pa.out_mon [OUTPUT MONITOR] BRESP = 2 RRESP = 0 RDATA = 00000000
UVM_INFO axi4_lite_driver.sv(34) @ 165: uvm_test_top.env.aa.drv [DRV] awaddr = 0000002c wdata = 02c30722 wstrb = 1 araddr = 0e4c2c8c
UVM_INFO axi4_lite_scoreboard.sv(52) @ 165: uvm_test_top.env.scb [BRESP] Matched : exp_bresp= 2 actual_bresp=2 write = 1 read = 0
UVM_INFO axi4_lite_subscriber.sv(41) @ 205: uvm_test_top.env.sb [sb] INPUT COVERAGE = 44.79 %
UVM_INFO axi4_lite_inp_monitor.sv(44) @ 205: uvm_test_top.env.aa.inp_mon [INPUT MONITOR]  WRITE awaddr=00000004 wdata=8b012911 wstrb=1010 
UVM_INFO axi4_lite_out_monitor.sv(28) @ 225: uvm_test_top.env.pa.out_mon [OUTPUT MONITOR] BRESP = 0 RRESP = 0 RDATA = 00000000
UVM_INFO axi4_lite_driver.sv(34) @ 225: uvm_test_top.env.aa.drv [DRV] awaddr = 00000004 wdata = 8b012911 wstrb = a araddr = e6c6f7f4
UVM_INFO axi4_lite_scoreboard.sv(52) @ 225: uvm_test_top.env.scb [BRESP] Matched : exp_bresp= 0 actual_bresp=0 write = 1 read = 0
UVM_INFO axi4_lite_subscriber.sv(41) @ 275: uvm_test_top.env.sb [sb] INPUT COVERAGE = 47.92 %
UVM_INFO axi4_lite_inp_monitor.sv(44) @ 275: uvm_test_top.env.aa.inp_mon [INPUT MONITOR]  WRITE awaddr=00000008 wdata=8c7b76ff wstrb=0000 
UVM_INFO axi4_lite_out_monitor.sv(28) @ 295: uvm_test_top.env.pa.out_mon [OUTPUT MONITOR] BRESP = 0 RRESP = 0 RDATA = 00000000
UVM_INFO axi4_lite_driver.sv(34) @ 295: uvm_test_top.env.aa.drv [DRV] awaddr = 00000008 wdata = 8c7b76ff wstrb = 0 araddr = 989b3f0c
UVM_INFO axi4_lite_scoreboard.sv(52) @ 295: uvm_test_top.env.scb [BRESP] Matched : exp_bresp= 0 actual_bresp=0 write = 1 read = 0
UVM_INFO axi4_lite_subscriber.sv(41) @ 325: uvm_test_top.env.sb [sb] INPUT COVERAGE = 47.92 %
UVM_INFO axi4_lite_inp_monitor.sv(44) @ 325: uvm_test_top.env.aa.inp_mon [INPUT MONITOR]  WRITE awaddr=0000000c wdata=85bc50c9 wstrb=0000 
UVM_INFO axi4_lite_out_monitor.sv(28) @ 345: uvm_test_top.env.pa.out_mon [OUTPUT MONITOR] BRESP = 0 RRESP = 0 RDATA = 00000000
UVM_INFO axi4_lite_driver.sv(34) @ 345: uvm_test_top.env.aa.drv [DRV] awaddr = 0000000c wdata = 85bc50c9 wstrb = 0 araddr = 0bb25910
UVM_INFO axi4_lite_scoreboard.sv(52) @ 345: uvm_test_top.env.scb [BRESP] Matched : exp_bresp= 0 actual_bresp=0 write = 1 read = 0
UVM_INFO axi4_lite_subscriber.sv(41) @ 385: uvm_test_top.env.sb [sb] INPUT COVERAGE = 47.92 %
UVM_INFO axi4_lite_inp_monitor.sv(44) @ 385: uvm_test_top.env.aa.inp_mon [INPUT MONITOR]  WRITE awaddr=00000000 wdata=444db2b2 wstrb=0101 
UVM_INFO axi4_lite_out_monitor.sv(28) @ 405: uvm_test_top.env.pa.out_mon [OUTPUT MONITOR] BRESP = 0 RRESP = 0 RDATA = 00000000
UVM_INFO axi4_lite_driver.sv(34) @ 405: uvm_test_top.env.aa.drv [DRV] awaddr = 00000000 wdata = 444db2b2 wstrb = 5 araddr = d992f0b0
UVM_INFO axi4_lite_scoreboard.sv(52) @ 405: uvm_test_top.env.scb [BRESP] Matched : exp_bresp= 0 actual_bresp=0 write = 1 read = 0
UVM_INFO axi4_lite_subscriber.sv(41) @ 455: uvm_test_top.env.sb [sb] INPUT COVERAGE = 56.25 %
UVM_INFO axi4_lite_inp_monitor.sv(44) @ 455: uvm_test_top.env.aa.inp_mon [INPUT MONITOR]  WRITE awaddr=00000028 wdata=d4db4d56 wstrb=0110 
UVM_INFO axi4_lite_out_monitor.sv(28) @ 475: uvm_test_top.env.pa.out_mon [OUTPUT MONITOR] BRESP = 2 RRESP = 0 RDATA = 00000000
UVM_INFO axi4_lite_driver.sv(34) @ 475: uvm_test_top.env.aa.drv [DRV] awaddr = 00000028 wdata = d4db4d56 wstrb = 6 araddr = 56749ac4
UVM_INFO axi4_lite_scoreboard.sv(52) @ 475: uvm_test_top.env.scb [BRESP] Matched : exp_bresp= 2 actual_bresp=2 write = 1 read = 0
UVM_INFO axi4_lite_subscriber.sv(41) @ 525: uvm_test_top.env.sb [sb] INPUT COVERAGE = 59.38 %
UVM_INFO axi4_lite_inp_monitor.sv(44) @ 525: uvm_test_top.env.aa.inp_mon [INPUT MONITOR]  WRITE awaddr=00000008 wdata=afbc6864 wstrb=0010 
UVM_INFO axi4_lite_out_monitor.sv(28) @ 545: uvm_test_top.env.pa.out_mon [OUTPUT MONITOR] BRESP = 0 RRESP = 0 RDATA = 00000000
UVM_INFO axi4_lite_driver.sv(34) @ 545: uvm_test_top.env.aa.drv [DRV] awaddr = 00000008 wdata = afbc6864 wstrb = 2 araddr = 39349dcc
UVM_INFO axi4_lite_scoreboard.sv(52) @ 545: uvm_test_top.env.scb [BRESP] Matched : exp_bresp= 0 actual_bresp=0 write = 1 read = 0
UVM_INFO axi4_lite_subscriber.sv(41) @ 595: uvm_test_top.env.sb [sb] INPUT COVERAGE = 59.38 %
UVM_INFO axi4_lite_inp_monitor.sv(44) @ 595: uvm_test_top.env.aa.inp_mon [INPUT MONITOR]  WRITE awaddr=0000001c wdata=bf2e3218 wstrb=0101 
UVM_INFO axi4_lite_out_monitor.sv(28) @ 615: uvm_test_top.env.pa.out_mon [OUTPUT MONITOR] BRESP = 0 RRESP = 0 RDATA = 00000000
UVM_INFO axi4_lite_driver.sv(34) @ 615: uvm_test_top.env.aa.drv [DRV] awaddr = 0000001c wdata = bf2e3218 wstrb = 5 araddr = fc5ed51c
UVM_INFO axi4_lite_scoreboard.sv(52) @ 615: uvm_test_top.env.scb [BRESP] Matched : exp_bresp= 0 actual_bresp=0 write = 1 read = 0
UVM_INFO axi4_lite_subscriber.sv(41) @ 655: uvm_test_top.env.sb [sb] INPUT COVERAGE = 59.38 %
UVM_INFO axi4_lite_inp_monitor.sv(44) @ 655: uvm_test_top.env.aa.inp_mon [INPUT MONITOR]  WRITE awaddr=00000030 wdata=2d3ac846 wstrb=1001 
UVM_INFO axi4_lite_out_monitor.sv(28) @ 675: uvm_test_top.env.pa.out_mon [OUTPUT MONITOR] BRESP = 2 RRESP = 0 RDATA = 00000000
UVM_INFO axi4_lite_driver.sv(34) @ 675: uvm_test_top.env.aa.drv [DRV] awaddr = 00000030 wdata = 2d3ac846 wstrb = 9 araddr = ed94fccc
UVM_INFO axi4_lite_scoreboard.sv(52) @ 675: uvm_test_top.env.scb [BRESP] Matched : exp_bresp= 2 actual_bresp=2 write = 1 read = 0
UVM_INFO axi4_lite_subscriber.sv(41) @ 695: uvm_test_top.env.sb [sb] INPUT COVERAGE = 59.38 %
UVM_INFO axi4_lite_inp_monitor.sv(44) @ 695: uvm_test_top.env.aa.inp_mon [INPUT MONITOR]  WRITE awaddr=0000001c wdata=e6254ed5 wstrb=0001 
UVM_INFO axi4_lite_out_monitor.sv(28) @ 715: uvm_test_top.env.pa.out_mon [OUTPUT MONITOR] BRESP = 0 RRESP = 0 RDATA = 00000000
UVM_INFO axi4_lite_driver.sv(34) @ 715: uvm_test_top.env.aa.drv [DRV] awaddr = 0000001c wdata = e6254ed5 wstrb = 1 araddr = 8f47ec28
UVM_INFO axi4_lite_scoreboard.sv(52) @ 715: uvm_test_top.env.scb [BRESP] Matched : exp_bresp= 0 actual_bresp=0 write = 1 read = 0
UVM_INFO axi4_lite_subscriber.sv(41) @ 755: uvm_test_top.env.sb [sb] INPUT COVERAGE = 59.38 %
UVM_INFO axi4_lite_inp_monitor.sv(44) @ 755: uvm_test_top.env.aa.inp_mon [INPUT MONITOR]  WRITE awaddr=00000008 wdata=b6c63ec2 wstrb=0110 
UVM_INFO axi4_lite_out_monitor.sv(28) @ 775: uvm_test_top.env.pa.out_mon [OUTPUT MONITOR] BRESP = 0 RRESP = 0 RDATA = 00000000
UVM_INFO axi4_lite_driver.sv(34) @ 775: uvm_test_top.env.aa.drv [DRV] awaddr = 00000008 wdata = b6c63ec2 wstrb = 6 araddr = 5095e5fc
UVM_INFO axi4_lite_scoreboard.sv(52) @ 775: uvm_test_top.env.scb [BRESP] Matched : exp_bresp= 0 actual_bresp=0 write = 1 read = 0
UVM_INFO axi4_lite_subscriber.sv(41) @ 815: uvm_test_top.env.sb [sb] INPUT COVERAGE = 59.38 %
UVM_INFO axi4_lite_inp_monitor.sv(44) @ 815: uvm_test_top.env.aa.inp_mon [INPUT MONITOR]  WRITE awaddr=00000030 wdata=b715bb2c wstrb=0001 
UVM_INFO axi4_lite_out_monitor.sv(28) @ 835: uvm_test_top.env.pa.out_mon [OUTPUT MONITOR] BRESP = 2 RRESP = 0 RDATA = 00000000
UVM_INFO axi4_lite_driver.sv(34) @ 835: uvm_test_top.env.aa.drv [DRV] awaddr = 00000030 wdata = b715bb2c wstrb = 1 araddr = 46657434
UVM_INFO axi4_lite_scoreboard.sv(52) @ 835: uvm_test_top.env.scb [BRESP] Matched : exp_bresp= 2 actual_bresp=2 write = 1 read = 0
UVM_INFO axi4_lite_subscriber.sv(41) @ 885: uvm_test_top.env.sb [sb] INPUT COVERAGE = 67.71 %
UVM_INFO axi4_lite_inp_monitor.sv(44) @ 885: uvm_test_top.env.aa.inp_mon [INPUT MONITOR]  WRITE awaddr=00000038 wdata=f789020c wstrb=1110 
UVM_INFO axi4_lite_out_monitor.sv(28) @ 905: uvm_test_top.env.pa.out_mon [OUTPUT MONITOR] BRESP = 0 RRESP = 0 RDATA = 00000000
UVM_INFO axi4_lite_driver.sv(34) @ 905: uvm_test_top.env.aa.drv [DRV] awaddr = 00000038 wdata = f789020c wstrb = e araddr = 05b626d0
UVM_INFO axi4_lite_scoreboard.sv(52) @ 905: uvm_test_top.env.scb [BRESP] Matched : exp_bresp= 0 actual_bresp=0 write = 1 read = 0
UVM_INFO axi4_lite_subscriber.sv(41) @ 935: uvm_test_top.env.sb [sb] INPUT COVERAGE = 67.71 %
UVM_INFO axi4_lite_inp_monitor.sv(44) @ 935: uvm_test_top.env.aa.inp_mon [INPUT MONITOR]  WRITE awaddr=00000030 wdata=e310d7fc wstrb=0000 
UVM_INFO axi4_lite_out_monitor.sv(28) @ 955: uvm_test_top.env.pa.out_mon [OUTPUT MONITOR] BRESP = 2 RRESP = 0 RDATA = 00000000
UVM_INFO axi4_lite_driver.sv(34) @ 955: uvm_test_top.env.aa.drv [DRV] awaddr = 00000030 wdata = e310d7fc wstrb = 0 araddr = d4561b60
UVM_INFO axi4_lite_scoreboard.sv(52) @ 955: uvm_test_top.env.scb [BRESP] Matched : exp_bresp= 2 actual_bresp=2 write = 1 read = 0
UVM_INFO axi4_lite_subscriber.sv(41) @ 1005: uvm_test_top.env.sb [sb] INPUT COVERAGE = 70.83 %
UVM_INFO axi4_lite_inp_monitor.sv(44) @ 1005: uvm_test_top.env.aa.inp_mon [INPUT MONITOR]  WRITE awaddr=00000034 wdata=09f4b1b6 wstrb=1111 
UVM_INFO axi4_lite_out_monitor.sv(28) @ 1025: uvm_test_top.env.pa.out_mon [OUTPUT MONITOR] BRESP = 0 RRESP = 0 RDATA = 00000000
UVM_INFO axi4_lite_driver.sv(34) @ 1025: uvm_test_top.env.aa.drv [DRV] awaddr = 00000034 wdata = 09f4b1b6 wstrb = f araddr = 9ed65b10
UVM_INFO axi4_lite_scoreboard.sv(52) @ 1025: uvm_test_top.env.scb [BRESP] Matched : exp_bresp= 0 actual_bresp=0 write = 1 read = 0
UVM_INFO axi4_lite_subscriber.sv(41) @ 1065: uvm_test_top.env.sb [sb] INPUT COVERAGE = 70.83 %
UVM_INFO axi4_lite_inp_monitor.sv(44) @ 1065: uvm_test_top.env.aa.inp_mon [INPUT MONITOR]  WRITE awaddr=0000001c wdata=732a380e wstrb=0001 
UVM_INFO axi4_lite_out_monitor.sv(28) @ 1085: uvm_test_top.env.pa.out_mon [OUTPUT MONITOR] BRESP = 0 RRESP = 0 RDATA = 00000000
UVM_INFO axi4_lite_driver.sv(34) @ 1085: uvm_test_top.env.aa.drv [DRV] awaddr = 0000001c wdata = 732a380e wstrb = 1 araddr = ffdc2fec
UVM_INFO axi4_lite_scoreboard.sv(52) @ 1085: uvm_test_top.env.scb [BRESP] Matched : exp_bresp= 0 actual_bresp=0 write = 1 read = 0
UVM_INFO axi4_lite_subscriber.sv(41) @ 1135: uvm_test_top.env.sb [sb] INPUT COVERAGE = 70.83 %
UVM_INFO axi4_lite_inp_monitor.sv(44) @ 1135: uvm_test_top.env.aa.inp_mon [INPUT MONITOR]  WRITE awaddr=00000024 wdata=4a7287fd wstrb=0001 
UVM_INFO axi4_lite_out_monitor.sv(28) @ 1155: uvm_test_top.env.pa.out_mon [OUTPUT MONITOR] BRESP = 0 RRESP = 0 RDATA = 00000000
UVM_INFO axi4_lite_driver.sv(34) @ 1155: uvm_test_top.env.aa.drv [DRV] awaddr = 00000024 wdata = 4a7287fd wstrb = 1 araddr = 1068fc44
UVM_INFO axi4_lite_scoreboard.sv(52) @ 1155: uvm_test_top.env.scb [BRESP] Matched : exp_bresp= 0 actual_bresp=0 write = 1 read = 0
UVM_INFO axi4_lite_subscriber.sv(41) @ 1185: uvm_test_top.env.sb [sb] INPUT COVERAGE = 73.96 %
UVM_INFO axi4_lite_inp_monitor.sv(44) @ 1185: uvm_test_top.env.aa.inp_mon [INPUT MONITOR]  WRITE awaddr=00000024 wdata=1aede107 wstrb=1100 
UVM_INFO axi4_lite_out_monitor.sv(28) @ 1205: uvm_test_top.env.pa.out_mon [OUTPUT MONITOR] BRESP = 0 RRESP = 0 RDATA = 00000000
UVM_INFO axi4_lite_driver.sv(34) @ 1205: uvm_test_top.env.aa.drv [DRV] awaddr = 00000024 wdata = 1aede107 wstrb = c araddr = 5593de08
UVM_INFO axi4_lite_scoreboard.sv(52) @ 1205: uvm_test_top.env.scb [BRESP] Matched : exp_bresp= 0 actual_bresp=0 write = 1 read = 0
UVM_INFO axi4_lite_subscriber.sv(41) @ 1235: uvm_test_top.env.sb [sb] INPUT COVERAGE = 73.96 %
UVM_INFO axi4_lite_inp_monitor.sv(44) @ 1235: uvm_test_top.env.aa.inp_mon [INPUT MONITOR]  WRITE awaddr=00000024 wdata=c9237753 wstrb=1100 
UVM_INFO axi4_lite_out_monitor.sv(28) @ 1255: uvm_test_top.env.pa.out_mon [OUTPUT MONITOR] BRESP = 0 RRESP = 0 RDATA = 00000000
UVM_INFO axi4_lite_driver.sv(34) @ 1255: uvm_test_top.env.aa.drv [DRV] awaddr = 00000024 wdata = c9237753 wstrb = c araddr = be226098
UVM_INFO axi4_lite_scoreboard.sv(52) @ 1255: uvm_test_top.env.scb [BRESP] Matched : exp_bresp= 0 actual_bresp=0 write = 1 read = 0
UVM_INFO axi4_lite_subscriber.sv(41) @ 1295: uvm_test_top.env.sb [sb] INPUT COVERAGE = 73.96 %
UVM_INFO axi4_lite_inp_monitor.sv(44) @ 1295: uvm_test_top.env.aa.inp_mon [INPUT MONITOR]  WRITE awaddr=0000001c wdata=b0c877c7 wstrb=1111 
UVM_INFO axi4_lite_out_monitor.sv(28) @ 1315: uvm_test_top.env.pa.out_mon [OUTPUT MONITOR] BRESP = 0 RRESP = 0 RDATA = 00000000
UVM_INFO axi4_lite_driver.sv(34) @ 1315: uvm_test_top.env.aa.drv [DRV] awaddr = 0000001c wdata = b0c877c7 wstrb = f araddr = 60bdc0c0
UVM_INFO axi4_lite_scoreboard.sv(52) @ 1315: uvm_test_top.env.scb [BRESP] Matched : exp_bresp= 0 actual_bresp=0 write = 1 read = 0
UVM_INFO axi4_lite_subscriber.sv(41) @ 1345: uvm_test_top.env.sb [sb] INPUT COVERAGE = 73.96 %
UVM_INFO axi4_lite_inp_monitor.sv(44) @ 1345: uvm_test_top.env.aa.inp_mon [INPUT MONITOR]  WRITE awaddr=00000020 wdata=53336641 wstrb=1100 
UVM_INFO axi4_lite_out_monitor.sv(28) @ 1365: uvm_test_top.env.pa.out_mon [OUTPUT MONITOR] BRESP = 0 RRESP = 0 RDATA = 00000000
UVM_INFO axi4_lite_driver.sv(34) @ 1365: uvm_test_top.env.aa.drv [DRV] awaddr = 00000020 wdata = 53336641 wstrb = c araddr = 6ccfa294
UVM_INFO axi4_lite_scoreboard.sv(52) @ 1365: uvm_test_top.env.scb [BRESP] Matched : exp_bresp= 0 actual_bresp=0 write = 1 read = 0
UVM_INFO axi4_lite_subscriber.sv(41) @ 1395: uvm_test_top.env.sb [sb] INPUT COVERAGE = 73.96 %
UVM_INFO axi4_lite_inp_monitor.sv(44) @ 1395: uvm_test_top.env.aa.inp_mon [INPUT MONITOR]  WRITE awaddr=0000000c wdata=3673ca99 wstrb=1011 
UVM_INFO axi4_lite_out_monitor.sv(28) @ 1415: uvm_test_top.env.pa.out_mon [OUTPUT MONITOR] BRESP = 0 RRESP = 0 RDATA = 00000000
UVM_INFO axi4_lite_driver.sv(34) @ 1415: uvm_test_top.env.aa.drv [DRV] awaddr = 0000000c wdata = 3673ca99 wstrb = b araddr = e341e61c
UVM_INFO axi4_lite_scoreboard.sv(52) @ 1415: uvm_test_top.env.scb [BRESP] Matched : exp_bresp= 0 actual_bresp=0 write = 1 read = 0
UVM_INFO axi4_lite_subscriber.sv(41) @ 1455: uvm_test_top.env.sb [sb] INPUT COVERAGE = 73.96 %
UVM_INFO axi4_lite_inp_monitor.sv(44) @ 1455: uvm_test_top.env.aa.inp_mon [INPUT MONITOR]  WRITE awaddr=0000002c wdata=e1f7dc1a wstrb=1001 
UVM_INFO axi4_lite_out_monitor.sv(28) @ 1475: uvm_test_top.env.pa.out_mon [OUTPUT MONITOR] BRESP = 2 RRESP = 0 RDATA = 00000000
UVM_INFO axi4_lite_driver.sv(34) @ 1475: uvm_test_top.env.aa.drv [DRV] awaddr = 0000002c wdata = e1f7dc1a wstrb = 9 araddr = df45bff8
UVM_INFO axi4_lite_scoreboard.sv(52) @ 1475: uvm_test_top.env.scb [BRESP] Matched : exp_bresp= 2 actual_bresp=2 write = 1 read = 0
UVM_INFO axi4_lite_subscriber.sv(41) @ 1505: uvm_test_top.env.sb [sb] INPUT COVERAGE = 73.96 %
UVM_INFO axi4_lite_inp_monitor.sv(44) @ 1505: uvm_test_top.env.aa.inp_mon [INPUT MONITOR]  WRITE awaddr=00000000 wdata=bfc06a7e wstrb=1001 
UVM_INFO axi4_lite_out_monitor.sv(28) @ 1525: uvm_test_top.env.pa.out_mon [OUTPUT MONITOR] BRESP = 0 RRESP = 0 RDATA = 00000000
UVM_INFO axi4_lite_driver.sv(34) @ 1525: uvm_test_top.env.aa.drv [DRV] awaddr = 00000000 wdata = bfc06a7e wstrb = 9 araddr = 1b2992d4
UVM_INFO axi4_lite_scoreboard.sv(52) @ 1525: uvm_test_top.env.scb [BRESP] Matched : exp_bresp= 0 actual_bresp=0 write = 1 read = 0
UVM_INFO axi4_lite_subscriber.sv(41) @ 1575: uvm_test_top.env.sb [sb] INPUT COVERAGE = 73.96 %
UVM_INFO axi4_lite_inp_monitor.sv(44) @ 1575: uvm_test_top.env.aa.inp_mon [INPUT MONITOR]  WRITE awaddr=00000004 wdata=8735fb95 wstrb=1001 
UVM_INFO axi4_lite_out_monitor.sv(28) @ 1595: uvm_test_top.env.pa.out_mon [OUTPUT MONITOR] BRESP = 0 RRESP = 0 RDATA = 00000000
UVM_INFO axi4_lite_driver.sv(34) @ 1595: uvm_test_top.env.aa.drv [DRV] awaddr = 00000004 wdata = 8735fb95 wstrb = 9 araddr = d6fc7660
UVM_INFO axi4_lite_scoreboard.sv(52) @ 1595: uvm_test_top.env.scb [BRESP] Matched : exp_bresp= 0 actual_bresp=0 write = 1 read = 0
UVM_INFO axi4_lite_subscriber.sv(41) @ 1635: uvm_test_top.env.sb [sb] INPUT COVERAGE = 73.96 %
UVM_INFO axi4_lite_inp_monitor.sv(44) @ 1635: uvm_test_top.env.aa.inp_mon [INPUT MONITOR]  WRITE awaddr=00000008 wdata=551eed82 wstrb=1100 
UVM_INFO axi4_lite_out_monitor.sv(28) @ 1655: uvm_test_top.env.pa.out_mon [OUTPUT MONITOR] BRESP = 0 RRESP = 0 RDATA = 00000000
UVM_INFO axi4_lite_driver.sv(34) @ 1655: uvm_test_top.env.aa.drv [DRV] awaddr = 00000008 wdata = 551eed82 wstrb = c araddr = da57b4a8
UVM_INFO axi4_lite_scoreboard.sv(52) @ 1655: uvm_test_top.env.scb [BRESP] Matched : exp_bresp= 0 actual_bresp=0 write = 1 read = 0
UVM_INFO axi4_lite_subscriber.sv(41) @ 1695: uvm_test_top.env.sb [sb] INPUT COVERAGE = 73.96 %
UVM_INFO axi4_lite_inp_monitor.sv(44) @ 1695: uvm_test_top.env.aa.inp_mon [INPUT MONITOR]  WRITE awaddr=00000020 wdata=bb80b194 wstrb=0110 
UVM_INFO axi4_lite_out_monitor.sv(28) @ 1715: uvm_test_top.env.pa.out_mon [OUTPUT MONITOR] BRESP = 0 RRESP = 0 RDATA = 00000000
UVM_INFO axi4_lite_driver.sv(34) @ 1715: uvm_test_top.env.aa.drv [DRV] awaddr = 00000020 wdata = bb80b194 wstrb = 6 araddr = 236e6860
UVM_INFO axi4_lite_scoreboard.sv(52) @ 1715: uvm_test_top.env.scb [BRESP] Matched : exp_bresp= 0 actual_bresp=0 write = 1 read = 0
UVM_INFO axi4_lite_subscriber.sv(41) @ 1745: uvm_test_top.env.sb [sb] INPUT COVERAGE = 77.08 %
UVM_INFO axi4_lite_inp_monitor.sv(44) @ 1745: uvm_test_top.env.aa.inp_mon [INPUT MONITOR]  WRITE awaddr=00000020 wdata=09a3fc8f wstrb=0011 
UVM_INFO axi4_lite_out_monitor.sv(28) @ 1765: uvm_test_top.env.pa.out_mon [OUTPUT MONITOR] BRESP = 0 RRESP = 0 RDATA = 00000000
UVM_INFO axi4_lite_driver.sv(34) @ 1765: uvm_test_top.env.aa.drv [DRV] awaddr = 00000020 wdata = 09a3fc8f wstrb = 3 araddr = 4e5d9d60
UVM_INFO axi4_lite_scoreboard.sv(52) @ 1765: uvm_test_top.env.scb [BRESP] Matched : exp_bresp= 0 actual_bresp=0 write = 1 read = 0
UVM_INFO axi4_lite_subscriber.sv(41) @ 1805: uvm_test_top.env.sb [sb] INPUT COVERAGE = 80.21 %
UVM_INFO axi4_lite_inp_monitor.sv(44) @ 1805: uvm_test_top.env.aa.inp_mon [INPUT MONITOR]  WRITE awaddr=00000014 wdata=4e1750ff wstrb=1000 
UVM_INFO axi4_lite_out_monitor.sv(28) @ 1825: uvm_test_top.env.pa.out_mon [OUTPUT MONITOR] BRESP = 0 RRESP = 0 RDATA = 00000000
UVM_INFO axi4_lite_driver.sv(34) @ 1825: uvm_test_top.env.aa.drv [DRV] awaddr = 00000014 wdata = 4e1750ff wstrb = 8 araddr = 50d4f748
UVM_INFO axi4_lite_scoreboard.sv(52) @ 1825: uvm_test_top.env.scb [BRESP] Matched : exp_bresp= 0 actual_bresp=0 write = 1 read = 0
UVM_INFO axi4_lite_subscriber.sv(41) @ 1865: uvm_test_top.env.sb [sb] INPUT COVERAGE = 80.21 %
UVM_INFO axi4_lite_inp_monitor.sv(44) @ 1865: uvm_test_top.env.aa.inp_mon [INPUT MONITOR]  WRITE awaddr=00000038 wdata=9db9e95d wstrb=1101 
UVM_INFO axi4_lite_out_monitor.sv(28) @ 1885: uvm_test_top.env.pa.out_mon [OUTPUT MONITOR] BRESP = 0 RRESP = 0 RDATA = 00000000
UVM_INFO axi4_lite_driver.sv(34) @ 1885: uvm_test_top.env.aa.drv [DRV] awaddr = 00000038 wdata = 9db9e95d wstrb = d araddr = 88f0ac28
UVM_INFO axi4_lite_scoreboard.sv(52) @ 1885: uvm_test_top.env.scb [BRESP] Matched : exp_bresp= 0 actual_bresp=0 write = 1 read = 0
UVM_INFO axi4_lite_subscriber.sv(41) @ 1925: uvm_test_top.env.sb [sb] INPUT COVERAGE = 80.21 %
UVM_INFO axi4_lite_inp_monitor.sv(44) @ 1925: uvm_test_top.env.aa.inp_mon [INPUT MONITOR]  WRITE awaddr=00000018 wdata=70d5a558 wstrb=0000 
UVM_INFO axi4_lite_out_monitor.sv(28) @ 1945: uvm_test_top.env.pa.out_mon [OUTPUT MONITOR] BRESP = 0 RRESP = 0 RDATA = 00000000
UVM_INFO axi4_lite_driver.sv(34) @ 1945: uvm_test_top.env.aa.drv [DRV] awaddr = 00000018 wdata = 70d5a558 wstrb = 0 araddr = 5cf49670
UVM_INFO axi4_lite_scoreboard.sv(52) @ 1945: uvm_test_top.env.scb [BRESP] Matched : exp_bresp= 0 actual_bresp=0 write = 1 read = 0
UVM_INFO axi4_lite_subscriber.sv(41) @ 1975: uvm_test_top.env.sb [sb] INPUT COVERAGE = 80.21 %
UVM_INFO axi4_lite_inp_monitor.sv(44) @ 1975: uvm_test_top.env.aa.inp_mon [INPUT MONITOR]  WRITE awaddr=00000010 wdata=c3fb7753 wstrb=1010 
UVM_INFO axi4_lite_out_monitor.sv(28) @ 1995: uvm_test_top.env.pa.out_mon [OUTPUT MONITOR] BRESP = 0 RRESP = 0 RDATA = 00000000
UVM_INFO axi4_lite_driver.sv(34) @ 1995: uvm_test_top.env.aa.drv [DRV] awaddr = 00000010 wdata = c3fb7753 wstrb = a araddr = 293f4878
UVM_INFO axi4_lite_scoreboard.sv(52) @ 1995: uvm_test_top.env.scb [BRESP] Matched : exp_bresp= 0 actual_bresp=0 write = 1 read = 0
UVM_INFO axi4_lite_subscriber.sv(41) @ 2045: uvm_test_top.env.sb [sb] INPUT COVERAGE = 80.21 %
UVM_INFO axi4_lite_inp_monitor.sv(44) @ 2045: uvm_test_top.env.aa.inp_mon [INPUT MONITOR]  WRITE awaddr=00000014 wdata=8cabae80 wstrb=0101 
UVM_INFO axi4_lite_out_monitor.sv(28) @ 2065: uvm_test_top.env.pa.out_mon [OUTPUT MONITOR] BRESP = 0 RRESP = 0 RDATA = 00000000
UVM_INFO axi4_lite_driver.sv(34) @ 2065: uvm_test_top.env.aa.drv [DRV] awaddr = 00000014 wdata = 8cabae80 wstrb = 5 araddr = f5671db8
UVM_INFO axi4_lite_scoreboard.sv(52) @ 2065: uvm_test_top.env.scb [BRESP] Matched : exp_bresp= 0 actual_bresp=0 write = 1 read = 0
UVM_INFO axi4_lite_subscriber.sv(41) @ 2095: uvm_test_top.env.sb [sb] INPUT COVERAGE = 80.21 %
UVM_INFO axi4_lite_inp_monitor.sv(44) @ 2095: uvm_test_top.env.aa.inp_mon [INPUT MONITOR]  WRITE awaddr=00000000 wdata=51a0c09a wstrb=1111 
UVM_INFO axi4_lite_out_monitor.sv(28) @ 2115: uvm_test_top.env.pa.out_mon [OUTPUT MONITOR] BRESP = 0 RRESP = 0 RDATA = 00000000
UVM_INFO axi4_lite_driver.sv(34) @ 2115: uvm_test_top.env.aa.drv [DRV] awaddr = 00000000 wdata = 51a0c09a wstrb = f araddr = dd0f2b68
UVM_INFO axi4_lite_scoreboard.sv(52) @ 2115: uvm_test_top.env.scb [BRESP] Matched : exp_bresp= 0 actual_bresp=0 write = 1 read = 0
UVM_INFO axi4_lite_subscriber.sv(41) @ 2155: uvm_test_top.env.sb [sb] INPUT COVERAGE = 80.21 %
UVM_INFO axi4_lite_inp_monitor.sv(44) @ 2155: uvm_test_top.env.aa.inp_mon [INPUT MONITOR]  WRITE awaddr=0000001c wdata=a19fef07 wstrb=0101 
UVM_INFO axi4_lite_out_monitor.sv(28) @ 2175: uvm_test_top.env.pa.out_mon [OUTPUT MONITOR] BRESP = 0 RRESP = 0 RDATA = 00000000
UVM_INFO axi4_lite_driver.sv(34) @ 2175: uvm_test_top.env.aa.drv [DRV] awaddr = 0000001c wdata = a19fef07 wstrb = 5 araddr = 23687e64
UVM_INFO axi4_lite_scoreboard.sv(52) @ 2175: uvm_test_top.env.scb [BRESP] Matched : exp_bresp= 0 actual_bresp=0 write = 1 read = 0
UVM_INFO axi4_lite_subscriber.sv(41) @ 2215: uvm_test_top.env.sb [sb] INPUT COVERAGE = 83.33 %
UVM_INFO axi4_lite_inp_monitor.sv(44) @ 2215: uvm_test_top.env.aa.inp_mon [INPUT MONITOR]  WRITE awaddr=00000034 wdata=ae594e9d wstrb=0100 
UVM_INFO axi4_lite_out_monitor.sv(28) @ 2235: uvm_test_top.env.pa.out_mon [OUTPUT MONITOR] BRESP = 0 RRESP = 0 RDATA = 00000000
UVM_INFO axi4_lite_driver.sv(34) @ 2235: uvm_test_top.env.aa.drv [DRV] awaddr = 00000034 wdata = ae594e9d wstrb = 4 araddr = 35be2710
UVM_INFO axi4_lite_scoreboard.sv(52) @ 2235: uvm_test_top.env.scb [BRESP] Matched : exp_bresp= 0 actual_bresp=0 write = 1 read = 0
UVM_INFO axi4_lite_subscriber.sv(41) @ 2255: uvm_test_top.env.sb [sb] INPUT COVERAGE = 83.33 %
UVM_INFO axi4_lite_inp_monitor.sv(44) @ 2255: uvm_test_top.env.aa.inp_mon [INPUT MONITOR]  WRITE awaddr=0000001c wdata=ac537032 wstrb=1101 
UVM_INFO axi4_lite_out_monitor.sv(28) @ 2275: uvm_test_top.env.pa.out_mon [OUTPUT MONITOR] BRESP = 0 RRESP = 0 RDATA = 00000000
UVM_INFO axi4_lite_driver.sv(34) @ 2275: uvm_test_top.env.aa.drv [DRV] awaddr = 0000001c wdata = ac537032 wstrb = d araddr = f3906dd8
UVM_INFO axi4_lite_scoreboard.sv(52) @ 2275: uvm_test_top.env.scb [BRESP] Matched : exp_bresp= 0 actual_bresp=0 write = 1 read = 0
UVM_INFO axi4_lite_subscriber.sv(41) @ 2305: uvm_test_top.env.sb [sb] INPUT COVERAGE = 83.33 %
UVM_INFO axi4_lite_inp_monitor.sv(44) @ 2305: uvm_test_top.env.aa.inp_mon [INPUT MONITOR]  WRITE awaddr=00000020 wdata=944ca376 wstrb=0100 
UVM_INFO axi4_lite_out_monitor.sv(28) @ 2325: uvm_test_top.env.pa.out_mon [OUTPUT MONITOR] BRESP = 0 RRESP = 0 RDATA = 00000000
UVM_INFO axi4_lite_driver.sv(34) @ 2325: uvm_test_top.env.aa.drv [DRV] awaddr = 00000020 wdata = 944ca376 wstrb = 4 araddr = c284c2a8
UVM_INFO axi4_lite_scoreboard.sv(52) @ 2325: uvm_test_top.env.scb [BRESP] Matched : exp_bresp= 0 actual_bresp=0 write = 1 read = 0
UVM_INFO axi4_lite_subscriber.sv(41) @ 2365: uvm_test_top.env.sb [sb] INPUT COVERAGE = 83.33 %
UVM_INFO axi4_lite_inp_monitor.sv(44) @ 2365: uvm_test_top.env.aa.inp_mon [INPUT MONITOR]  WRITE awaddr=00000004 wdata=b97500e6 wstrb=0000 
UVM_INFO axi4_lite_out_monitor.sv(28) @ 2385: uvm_test_top.env.pa.out_mon [OUTPUT MONITOR] BRESP = 0 RRESP = 0 RDATA = 00000000
UVM_INFO axi4_lite_driver.sv(34) @ 2385: uvm_test_top.env.aa.drv [DRV] awaddr = 00000004 wdata = b97500e6 wstrb = 0 araddr = 69c7b28c
UVM_INFO axi4_lite_scoreboard.sv(52) @ 2385: uvm_test_top.env.scb [BRESP] Matched : exp_bresp= 0 actual_bresp=0 write = 1 read = 0
UVM_INFO axi4_lite_subscriber.sv(41) @ 2415: uvm_test_top.env.sb [sb] INPUT COVERAGE = 83.33 %
UVM_INFO axi4_lite_inp_monitor.sv(44) @ 2415: uvm_test_top.env.aa.inp_mon [INPUT MONITOR]  WRITE awaddr=00000004 wdata=e588693a wstrb=1001 
UVM_INFO axi4_lite_out_monitor.sv(28) @ 2435: uvm_test_top.env.pa.out_mon [OUTPUT MONITOR] BRESP = 0 RRESP = 0 RDATA = 00000000
UVM_INFO axi4_lite_driver.sv(34) @ 2435: uvm_test_top.env.aa.drv [DRV] awaddr = 00000004 wdata = e588693a wstrb = 9 araddr = b9dfec9c
UVM_INFO axi4_lite_scoreboard.sv(52) @ 2435: uvm_test_top.env.scb [BRESP] Matched : exp_bresp= 0 actual_bresp=0 write = 1 read = 0
UVM_INFO axi4_lite_subscriber.sv(41) @ 2455: uvm_test_top.env.sb [sb] INPUT COVERAGE = 83.33 %
UVM_INFO axi4_lite_inp_monitor.sv(44) @ 2455: uvm_test_top.env.aa.inp_mon [INPUT MONITOR]  WRITE awaddr=0000001c wdata=3722ce0d wstrb=1001 
UVM_INFO axi4_lite_out_monitor.sv(28) @ 2475: uvm_test_top.env.pa.out_mon [OUTPUT MONITOR] BRESP = 0 RRESP = 0 RDATA = 00000000
UVM_INFO axi4_lite_driver.sv(34) @ 2475: uvm_test_top.env.aa.drv [DRV] awaddr = 0000001c wdata = 3722ce0d wstrb = 9 araddr = 24704898
UVM_INFO axi4_lite_scoreboard.sv(52) @ 2475: uvm_test_top.env.scb [BRESP] Matched : exp_bresp= 0 actual_bresp=0 write = 1 read = 0
UVM_INFO axi4_lite_subscriber.sv(41) @ 2525: uvm_test_top.env.sb [sb] INPUT COVERAGE = 83.33 %
UVM_INFO axi4_lite_inp_monitor.sv(44) @ 2525: uvm_test_top.env.aa.inp_mon [INPUT MONITOR]  WRITE awaddr=00000008 wdata=5af4a729 wstrb=1001 
UVM_INFO axi4_lite_out_monitor.sv(28) @ 2545: uvm_test_top.env.pa.out_mon [OUTPUT MONITOR] BRESP = 0 RRESP = 0 RDATA = 00000000
UVM_INFO axi4_lite_driver.sv(34) @ 2545: uvm_test_top.env.aa.drv [DRV] awaddr = 00000008 wdata = 5af4a729 wstrb = 9 araddr = 36536000
UVM_INFO axi4_lite_scoreboard.sv(52) @ 2545: uvm_test_top.env.scb [BRESP] Matched : exp_bresp= 0 actual_bresp=0 write = 1 read = 0
UVM_INFO axi4_lite_subscriber.sv(41) @ 2585: uvm_test_top.env.sb [sb] INPUT COVERAGE = 83.33 %
UVM_INFO axi4_lite_inp_monitor.sv(44) @ 2585: uvm_test_top.env.aa.inp_mon [INPUT MONITOR]  WRITE awaddr=00000028 wdata=73a0480d wstrb=0001 
UVM_INFO axi4_lite_out_monitor.sv(28) @ 2605: uvm_test_top.env.pa.out_mon [OUTPUT MONITOR] BRESP = 2 RRESP = 0 RDATA = 00000000
UVM_INFO axi4_lite_driver.sv(34) @ 2605: uvm_test_top.env.aa.drv [DRV] awaddr = 00000028 wdata = 73a0480d wstrb = 1 araddr = da179654
UVM_INFO axi4_lite_scoreboard.sv(52) @ 2605: uvm_test_top.env.scb [BRESP] Matched : exp_bresp= 2 actual_bresp=2 write = 1 read = 0
UVM_INFO axi4_lite_subscriber.sv(41) @ 2625: uvm_test_top.env.sb [sb] INPUT COVERAGE = 83.33 %
UVM_INFO axi4_lite_inp_monitor.sv(44) @ 2625: uvm_test_top.env.aa.inp_mon [INPUT MONITOR]  WRITE awaddr=0000002c wdata=07015e6a wstrb=0110 
UVM_INFO axi4_lite_out_monitor.sv(28) @ 2645: uvm_test_top.env.pa.out_mon [OUTPUT MONITOR] BRESP = 2 RRESP = 0 RDATA = 00000000
UVM_INFO axi4_lite_driver.sv(34) @ 2645: uvm_test_top.env.aa.drv [DRV] awaddr = 0000002c wdata = 07015e6a wstrb = 6 araddr = f045fce0
UVM_INFO axi4_lite_scoreboard.sv(52) @ 2645: uvm_test_top.env.scb [BRESP] Matched : exp_bresp= 2 actual_bresp=2 write = 1 read = 0
UVM_INFO axi4_lite_subscriber.sv(41) @ 2675: uvm_test_top.env.sb [sb] INPUT COVERAGE = 83.33 %
UVM_INFO axi4_lite_inp_monitor.sv(44) @ 2675: uvm_test_top.env.aa.inp_mon [INPUT MONITOR]  WRITE awaddr=00000028 wdata=585b7de5 wstrb=0011 
UVM_INFO axi4_lite_out_monitor.sv(28) @ 2695: uvm_test_top.env.pa.out_mon [OUTPUT MONITOR] BRESP = 2 RRESP = 0 RDATA = 00000000
UVM_INFO axi4_lite_driver.sv(34) @ 2695: uvm_test_top.env.aa.drv [DRV] awaddr = 00000028 wdata = 585b7de5 wstrb = 3 araddr = 3257b6d8
UVM_INFO axi4_lite_scoreboard.sv(52) @ 2695: uvm_test_top.env.scb [BRESP] Matched : exp_bresp= 2 actual_bresp=2 write = 1 read = 0
UVM_INFO axi4_lite_subscriber.sv(41) @ 2735: uvm_test_top.env.sb [sb] INPUT COVERAGE = 83.33 %
UVM_INFO axi4_lite_inp_monitor.sv(44) @ 2735: uvm_test_top.env.aa.inp_mon [INPUT MONITOR]  WRITE awaddr=00000020 wdata=d364522c wstrb=1010 
UVM_INFO axi4_lite_out_monitor.sv(28) @ 2755: uvm_test_top.env.pa.out_mon [OUTPUT MONITOR] BRESP = 0 RRESP = 0 RDATA = 00000000
UVM_INFO axi4_lite_driver.sv(34) @ 2755: uvm_test_top.env.aa.drv [DRV] awaddr = 00000020 wdata = d364522c wstrb = a araddr = e75e3c20
UVM_INFO axi4_lite_scoreboard.sv(52) @ 2755: uvm_test_top.env.scb [BRESP] Matched : exp_bresp= 0 actual_bresp=0 write = 1 read = 0
UVM_INFO axi4_lite_subscriber.sv(41) @ 2795: uvm_test_top.env.sb [sb] INPUT COVERAGE = 83.33 %
UVM_INFO axi4_lite_inp_monitor.sv(44) @ 2795: uvm_test_top.env.aa.inp_mon [INPUT MONITOR]  WRITE awaddr=00000024 wdata=ccfc29b8 wstrb=1010 
UVM_INFO axi4_lite_out_monitor.sv(28) @ 2815: uvm_test_top.env.pa.out_mon [OUTPUT MONITOR] BRESP = 0 RRESP = 0 RDATA = 00000000
UVM_INFO axi4_lite_driver.sv(34) @ 2815: uvm_test_top.env.aa.drv [DRV] awaddr = 00000024 wdata = ccfc29b8 wstrb = a araddr = 8e95a7dc
UVM_INFO axi4_lite_scoreboard.sv(52) @ 2815: uvm_test_top.env.scb [BRESP] Matched : exp_bresp= 0 actual_bresp=0 write = 1 read = 0
UVM_INFO axi4_lite_subscriber.sv(41) @ 2845: uvm_test_top.env.sb [sb] INPUT COVERAGE = 83.33 %
UVM_INFO axi4_lite_inp_monitor.sv(44) @ 2845: uvm_test_top.env.aa.inp_mon [INPUT MONITOR]  WRITE awaddr=00000010 wdata=ec28119e wstrb=0100 
UVM_INFO axi4_lite_out_monitor.sv(28) @ 2865: uvm_test_top.env.pa.out_mon [OUTPUT MONITOR] BRESP = 0 RRESP = 0 RDATA = 00000000
UVM_INFO axi4_lite_driver.sv(34) @ 2865: uvm_test_top.env.aa.drv [DRV] awaddr = 00000010 wdata = ec28119e wstrb = 4 araddr = 2ef89f1c
UVM_INFO axi4_lite_scoreboard.sv(52) @ 2865: uvm_test_top.env.scb [BRESP] Matched : exp_bresp= 0 actual_bresp=0 write = 1 read = 0
UVM_INFO axi4_lite_subscriber.sv(41) @ 2895: uvm_test_top.env.sb [sb] INPUT COVERAGE = 83.33 %
UVM_INFO axi4_lite_inp_monitor.sv(44) @ 2895: uvm_test_top.env.aa.inp_mon [INPUT MONITOR]  WRITE awaddr=0000000c wdata=905fa379 wstrb=0001 
UVM_INFO axi4_lite_out_monitor.sv(28) @ 2915: uvm_test_top.env.pa.out_mon [OUTPUT MONITOR] BRESP = 0 RRESP = 0 RDATA = 00000000
UVM_INFO axi4_lite_driver.sv(34) @ 2915: uvm_test_top.env.aa.drv [DRV] awaddr = 0000000c wdata = 905fa379 wstrb = 1 araddr = 6d50ddf0
UVM_INFO axi4_lite_scoreboard.sv(52) @ 2915: uvm_test_top.env.scb [BRESP] Matched : exp_bresp= 0 actual_bresp=0 write = 1 read = 0
UVM_INFO axi4_lite_subscriber.sv(41) @ 2935: uvm_test_top.env.sb [sb] INPUT COVERAGE = 83.33 %
UVM_INFO axi4_lite_inp_monitor.sv(44) @ 2935: uvm_test_top.env.aa.inp_mon [INPUT MONITOR]  WRITE awaddr=00000010 wdata=c8ff41a5 wstrb=1101 
UVM_INFO axi4_lite_out_monitor.sv(28) @ 2955: uvm_test_top.env.pa.out_mon [OUTPUT MONITOR] BRESP = 0 RRESP = 0 RDATA = 00000000
UVM_INFO axi4_lite_driver.sv(34) @ 2955: uvm_test_top.env.aa.drv [DRV] awaddr = 00000010 wdata = c8ff41a5 wstrb = d araddr = beb15ce0
UVM_INFO axi4_lite_scoreboard.sv(52) @ 2955: uvm_test_top.env.scb [BRESP] Matched : exp_bresp= 0 actual_bresp=0 write = 1 read = 0
UVM_INFO axi4_lite_subscriber.sv(41) @ 3005: uvm_test_top.env.sb [sb] INPUT COVERAGE = 83.33 %
UVM_INFO axi4_lite_inp_monitor.sv(44) @ 3005: uvm_test_top.env.aa.inp_mon [INPUT MONITOR]  WRITE awaddr=00000010 wdata=20390fc9 wstrb=0010 
UVM_INFO axi4_lite_out_monitor.sv(28) @ 3025: uvm_test_top.env.pa.out_mon [OUTPUT MONITOR] BRESP = 0 RRESP = 0 RDATA = 00000000
UVM_INFO axi4_lite_driver.sv(34) @ 3025: uvm_test_top.env.aa.drv [DRV] awaddr = 00000010 wdata = 20390fc9 wstrb = 2 araddr = f87bf9f0
UVM_INFO axi4_lite_scoreboard.sv(52) @ 3025: uvm_test_top.env.scb [BRESP] Matched : exp_bresp= 0 actual_bresp=0 write = 1 read = 0
UVM_INFO axi4_lite_subscriber.sv(41) @ 3065: uvm_test_top.env.sb [sb] INPUT COVERAGE = 83.33 %
UVM_INFO axi4_lite_inp_monitor.sv(44) @ 3065: uvm_test_top.env.aa.inp_mon [INPUT MONITOR]  WRITE awaddr=00000018 wdata=afd68df7 wstrb=0001 
UVM_INFO axi4_lite_out_monitor.sv(28) @ 3085: uvm_test_top.env.pa.out_mon [OUTPUT MONITOR] BRESP = 0 RRESP = 0 RDATA = 00000000
UVM_INFO axi4_lite_driver.sv(34) @ 3085: uvm_test_top.env.aa.drv [DRV] awaddr = 00000018 wdata = afd68df7 wstrb = 1 araddr = d15e68ec
UVM_INFO axi4_lite_scoreboard.sv(52) @ 3085: uvm_test_top.env.scb [BRESP] Matched : exp_bresp= 0 actual_bresp=0 write = 1 read = 0
UVM_INFO axi4_lite_subscriber.sv(41) @ 3105: uvm_test_top.env.sb [sb] INPUT COVERAGE = 83.33 %
UVM_INFO axi4_lite_inp_monitor.sv(44) @ 3105: uvm_test_top.env.aa.inp_mon [INPUT MONITOR]  WRITE awaddr=00000028 wdata=ab1c254a wstrb=0100 
UVM_INFO axi4_lite_out_monitor.sv(28) @ 3125: uvm_test_top.env.pa.out_mon [OUTPUT MONITOR] BRESP = 2 RRESP = 0 RDATA = 00000000
UVM_INFO axi4_lite_driver.sv(34) @ 3125: uvm_test_top.env.aa.drv [DRV] awaddr = 00000028 wdata = ab1c254a wstrb = 4 araddr = 6974b884
UVM_INFO axi4_lite_scoreboard.sv(52) @ 3125: uvm_test_top.env.scb [BRESP] Matched : exp_bresp= 2 actual_bresp=2 write = 1 read = 0
UVM_INFO axi4_lite_subscriber.sv(41) @ 3145: uvm_test_top.env.sb [sb] INPUT COVERAGE = 83.33 %
UVM_INFO axi4_lite_inp_monitor.sv(44) @ 3145: uvm_test_top.env.aa.inp_mon [INPUT MONITOR]  WRITE awaddr=00000010 wdata=caf92d8e wstrb=1111 
UVM_INFO axi4_lite_out_monitor.sv(28) @ 3165: uvm_test_top.env.pa.out_mon [OUTPUT MONITOR] BRESP = 0 RRESP = 0 RDATA = 00000000
UVM_INFO axi4_lite_driver.sv(34) @ 3165: uvm_test_top.env.aa.drv [DRV] awaddr = 00000010 wdata = caf92d8e wstrb = f araddr = f346da6c
UVM_INFO axi4_lite_scoreboard.sv(52) @ 3165: uvm_test_top.env.scb [BRESP] Matched : exp_bresp= 0 actual_bresp=0 write = 1 read = 0
UVM_INFO axi4_lite_subscriber.sv(41) @ 3205: uvm_test_top.env.sb [sb] INPUT COVERAGE = 83.33 %
UVM_INFO axi4_lite_inp_monitor.sv(44) @ 3205: uvm_test_top.env.aa.inp_mon [INPUT MONITOR]  WRITE awaddr=00000014 wdata=cbc70bc3 wstrb=0111 
UVM_INFO axi4_lite_out_monitor.sv(28) @ 3225: uvm_test_top.env.pa.out_mon [OUTPUT MONITOR] BRESP = 0 RRESP = 0 RDATA = 00000000
UVM_INFO axi4_lite_driver.sv(34) @ 3225: uvm_test_top.env.aa.drv [DRV] awaddr = 00000014 wdata = cbc70bc3 wstrb = 7 araddr = a49b5fe8
UVM_INFO axi4_lite_scoreboard.sv(52) @ 3225: uvm_test_top.env.scb [BRESP] Matched : exp_bresp= 0 actual_bresp=0 write = 1 read = 0
UVM_INFO axi4_lite_subscriber.sv(41) @ 3275: uvm_test_top.env.sb [sb] INPUT COVERAGE = 83.33 %
UVM_INFO axi4_lite_inp_monitor.sv(44) @ 3275: uvm_test_top.env.aa.inp_mon [INPUT MONITOR]  WRITE awaddr=00000018 wdata=b1a39d4f wstrb=0110 
UVM_INFO axi4_lite_out_monitor.sv(28) @ 3295: uvm_test_top.env.pa.out_mon [OUTPUT MONITOR] BRESP = 0 RRESP = 0 RDATA = 00000000
UVM_INFO axi4_lite_driver.sv(34) @ 3295: uvm_test_top.env.aa.drv [DRV] awaddr = 00000018 wdata = b1a39d4f wstrb = 6 araddr = c857959c
UVM_INFO axi4_lite_scoreboard.sv(52) @ 3295: uvm_test_top.env.scb [BRESP] Matched : exp_bresp= 0 actual_bresp=0 write = 1 read = 0
UVM_INFO axi4_lite_subscriber.sv(41) @ 3325: uvm_test_top.env.sb [sb] INPUT COVERAGE = 83.33 %
UVM_INFO axi4_lite_inp_monitor.sv(44) @ 3325: uvm_test_top.env.aa.inp_mon [INPUT MONITOR]  WRITE awaddr=00000010 wdata=19e48646 wstrb=1101 
UVM_INFO axi4_lite_out_monitor.sv(28) @ 3345: uvm_test_top.env.pa.out_mon [OUTPUT MONITOR] BRESP = 0 RRESP = 0 RDATA = 00000000
UVM_INFO axi4_lite_driver.sv(34) @ 3345: uvm_test_top.env.aa.drv [DRV] awaddr = 00000010 wdata = 19e48646 wstrb = d araddr = 0deb5c00
UVM_INFO axi4_lite_scoreboard.sv(52) @ 3345: uvm_test_top.env.scb [BRESP] Matched : exp_bresp= 0 actual_bresp=0 write = 1 read = 0
UVM_INFO axi4_lite_subscriber.sv(41) @ 3395: uvm_test_top.env.sb [sb] INPUT COVERAGE = 83.33 %
UVM_INFO axi4_lite_inp_monitor.sv(44) @ 3395: uvm_test_top.env.aa.inp_mon [INPUT MONITOR]  WRITE awaddr=00000030 wdata=6df5dc5b wstrb=0011 
UVM_INFO axi4_lite_out_monitor.sv(28) @ 3415: uvm_test_top.env.pa.out_mon [OUTPUT MONITOR] BRESP = 2 RRESP = 0 RDATA = 00000000
UVM_INFO axi4_lite_driver.sv(34) @ 3415: uvm_test_top.env.aa.drv [DRV] awaddr = 00000030 wdata = 6df5dc5b wstrb = 3 araddr = e511c574
UVM_INFO axi4_lite_scoreboard.sv(52) @ 3415: uvm_test_top.env.scb [BRESP] Matched : exp_bresp= 2 actual_bresp=2 write = 1 read = 0
UVM_INFO axi4_lite_subscriber.sv(41) @ 3435: uvm_test_top.env.sb [sb] INPUT COVERAGE = 83.33 %
UVM_INFO axi4_lite_inp_monitor.sv(44) @ 3435: uvm_test_top.env.aa.inp_mon [INPUT MONITOR]  WRITE awaddr=0000002c wdata=0880904f wstrb=0011 
UVM_INFO axi4_lite_out_monitor.sv(28) @ 3455: uvm_test_top.env.pa.out_mon [OUTPUT MONITOR] BRESP = 2 RRESP = 0 RDATA = 00000000
UVM_INFO axi4_lite_driver.sv(34) @ 3455: uvm_test_top.env.aa.drv [DRV] awaddr = 0000002c wdata = 0880904f wstrb = 3 araddr = 60f5d204
UVM_INFO axi4_lite_scoreboard.sv(52) @ 3455: uvm_test_top.env.scb [BRESP] Matched : exp_bresp= 2 actual_bresp=2 write = 1 read = 0
UVM_INFO axi4_lite_subscriber.sv(41) @ 3505: uvm_test_top.env.sb [sb] INPUT COVERAGE = 83.33 %
UVM_INFO axi4_lite_inp_monitor.sv(44) @ 3505: uvm_test_top.env.aa.inp_mon [INPUT MONITOR]  WRITE awaddr=00000018 wdata=05d6d6e5 wstrb=1111 
UVM_INFO axi4_lite_out_monitor.sv(28) @ 3525: uvm_test_top.env.pa.out_mon [OUTPUT MONITOR] BRESP = 0 RRESP = 0 RDATA = 00000000
UVM_INFO axi4_lite_driver.sv(34) @ 3525: uvm_test_top.env.aa.drv [DRV] awaddr = 00000018 wdata = 05d6d6e5 wstrb = f araddr = 51a12e14
UVM_INFO axi4_lite_scoreboard.sv(52) @ 3525: uvm_test_top.env.scb [BRESP] Matched : exp_bresp= 0 actual_bresp=0 write = 1 read = 0
UVM_INFO axi4_lite_subscriber.sv(41) @ 3565: uvm_test_top.env.sb [sb] INPUT COVERAGE = 83.33 %
UVM_INFO axi4_lite_inp_monitor.sv(44) @ 3565: uvm_test_top.env.aa.inp_mon [INPUT MONITOR]  WRITE awaddr=0000002c wdata=1a179d02 wstrb=0100 
UVM_INFO axi4_lite_out_monitor.sv(28) @ 3585: uvm_test_top.env.pa.out_mon [OUTPUT MONITOR] BRESP = 2 RRESP = 0 RDATA = 00000000
UVM_INFO axi4_lite_driver.sv(34) @ 3585: uvm_test_top.env.aa.drv [DRV] awaddr = 0000002c wdata = 1a179d02 wstrb = 4 araddr = 2813ac50
UVM_INFO axi4_lite_scoreboard.sv(52) @ 3585: uvm_test_top.env.scb [BRESP] Matched : exp_bresp= 2 actual_bresp=2 write = 1 read = 0
UVM_INFO axi4_lite_subscriber.sv(41) @ 3625: uvm_test_top.env.sb [sb] INPUT COVERAGE = 83.33 %
UVM_INFO axi4_lite_inp_monitor.sv(44) @ 3625: uvm_test_top.env.aa.inp_mon [INPUT MONITOR]  WRITE awaddr=00000018 wdata=ae5997b9 wstrb=1010 
UVM_INFO axi4_lite_out_monitor.sv(28) @ 3645: uvm_test_top.env.pa.out_mon [OUTPUT MONITOR] BRESP = 0 RRESP = 0 RDATA = 00000000
UVM_INFO axi4_lite_driver.sv(34) @ 3645: uvm_test_top.env.aa.drv [DRV] awaddr = 00000018 wdata = ae5997b9 wstrb = a araddr = cf2e62d0
UVM_INFO axi4_lite_scoreboard.sv(52) @ 3645: uvm_test_top.env.scb [BRESP] Matched : exp_bresp= 0 actual_bresp=0 write = 1 read = 0
UVM_INFO axi4_lite_subscriber.sv(41) @ 3685: uvm_test_top.env.sb [sb] INPUT COVERAGE = 83.33 %
UVM_INFO axi4_lite_inp_monitor.sv(44) @ 3685: uvm_test_top.env.aa.inp_mon [INPUT MONITOR]  WRITE awaddr=00000028 wdata=651e8cba wstrb=0010 
UVM_INFO axi4_lite_out_monitor.sv(28) @ 3705: uvm_test_top.env.pa.out_mon [OUTPUT MONITOR] BRESP = 2 RRESP = 0 RDATA = 00000000
UVM_INFO axi4_lite_driver.sv(34) @ 3705: uvm_test_top.env.aa.drv [DRV] awaddr = 00000028 wdata = 651e8cba wstrb = 2 araddr = aed003c8
UVM_INFO axi4_lite_scoreboard.sv(52) @ 3705: uvm_test_top.env.scb [BRESP] Matched : exp_bresp= 2 actual_bresp=2 write = 1 read = 0
UVM_INFO axi4_lite_subscriber.sv(41) @ 3745: uvm_test_top.env.sb [sb] INPUT COVERAGE = 83.33 %
UVM_INFO axi4_lite_inp_monitor.sv(44) @ 3745: uvm_test_top.env.aa.inp_mon [INPUT MONITOR]  WRITE awaddr=00000020 wdata=e8f1da3f wstrb=1010 
UVM_INFO axi4_lite_out_monitor.sv(28) @ 3765: uvm_test_top.env.pa.out_mon [OUTPUT MONITOR] BRESP = 0 RRESP = 0 RDATA = 00000000
UVM_INFO axi4_lite_driver.sv(34) @ 3765: uvm_test_top.env.aa.drv [DRV] awaddr = 00000020 wdata = e8f1da3f wstrb = a araddr = 4741fdf0
UVM_INFO axi4_lite_scoreboard.sv(52) @ 3765: uvm_test_top.env.scb [BRESP] Matched : exp_bresp= 0 actual_bresp=0 write = 1 read = 0
UVM_INFO axi4_lite_subscriber.sv(41) @ 3795: uvm_test_top.env.sb [sb] INPUT COVERAGE = 83.33 %
UVM_INFO axi4_lite_inp_monitor.sv(44) @ 3795: uvm_test_top.env.aa.inp_mon [INPUT MONITOR]  WRITE awaddr=00000038 wdata=f2510cfa wstrb=1110 
UVM_INFO axi4_lite_out_monitor.sv(28) @ 3815: uvm_test_top.env.pa.out_mon [OUTPUT MONITOR] BRESP = 0 RRESP = 0 RDATA = 00000000
UVM_INFO axi4_lite_driver.sv(34) @ 3815: uvm_test_top.env.aa.drv [DRV] awaddr = 00000038 wdata = f2510cfa wstrb = e araddr = c8ae4df0
UVM_INFO axi4_lite_scoreboard.sv(52) @ 3815: uvm_test_top.env.scb [BRESP] Matched : exp_bresp= 0 actual_bresp=0 write = 1 read = 0
UVM_INFO axi4_lite_subscriber.sv(41) @ 3855: uvm_test_top.env.sb [sb] INPUT COVERAGE = 83.33 %
UVM_INFO axi4_lite_inp_monitor.sv(44) @ 3855: uvm_test_top.env.aa.inp_mon [INPUT MONITOR]  WRITE awaddr=00000004 wdata=62864adf wstrb=0000 
UVM_INFO axi4_lite_out_monitor.sv(28) @ 3875: uvm_test_top.env.pa.out_mon [OUTPUT MONITOR] BRESP = 0 RRESP = 0 RDATA = 00000000
UVM_INFO axi4_lite_driver.sv(34) @ 3875: uvm_test_top.env.aa.drv [DRV] awaddr = 00000004 wdata = 62864adf wstrb = 0 araddr = 75c51dfc
UVM_INFO axi4_lite_scoreboard.sv(52) @ 3875: uvm_test_top.env.scb [BRESP] Matched : exp_bresp= 0 actual_bresp=0 write = 1 read = 0
UVM_INFO axi4_lite_subscriber.sv(41) @ 3915: uvm_test_top.env.sb [sb] INPUT COVERAGE = 83.33 %
UVM_INFO axi4_lite_inp_monitor.sv(44) @ 3915: uvm_test_top.env.aa.inp_mon [INPUT MONITOR]  WRITE awaddr=0000002c wdata=7f30072c wstrb=1010 
UVM_INFO axi4_lite_out_monitor.sv(28) @ 3935: uvm_test_top.env.pa.out_mon [OUTPUT MONITOR] BRESP = 2 RRESP = 0 RDATA = 00000000
UVM_INFO axi4_lite_driver.sv(34) @ 3935: uvm_test_top.env.aa.drv [DRV] awaddr = 0000002c wdata = 7f30072c wstrb = a araddr = b800c09c
UVM_INFO axi4_lite_scoreboard.sv(52) @ 3935: uvm_test_top.env.scb [BRESP] Matched : exp_bresp= 2 actual_bresp=2 write = 1 read = 0
UVM_INFO axi4_lite_subscriber.sv(41) @ 3975: uvm_test_top.env.sb [sb] INPUT COVERAGE = 83.33 %
UVM_INFO axi4_lite_inp_monitor.sv(44) @ 3975: uvm_test_top.env.aa.inp_mon [INPUT MONITOR]  WRITE awaddr=0000001c wdata=5ee685f7 wstrb=1110 
UVM_INFO axi4_lite_out_monitor.sv(28) @ 3995: uvm_test_top.env.pa.out_mon [OUTPUT MONITOR] BRESP = 0 RRESP = 0 RDATA = 00000000
UVM_INFO axi4_lite_driver.sv(34) @ 3995: uvm_test_top.env.aa.drv [DRV] awaddr = 0000001c wdata = 5ee685f7 wstrb = e araddr = 0af6e1a4
UVM_INFO axi4_lite_scoreboard.sv(52) @ 3995: uvm_test_top.env.scb [BRESP] Matched : exp_bresp= 0 actual_bresp=0 write = 1 read = 0
UVM_INFO axi4_lite_subscriber.sv(41) @ 4045: uvm_test_top.env.sb [sb] INPUT COVERAGE = 83.33 %
UVM_INFO axi4_lite_inp_monitor.sv(44) @ 4045: uvm_test_top.env.aa.inp_mon [INPUT MONITOR]  WRITE awaddr=0000001c wdata=ca55e0fc wstrb=1000 
UVM_INFO axi4_lite_out_monitor.sv(28) @ 4065: uvm_test_top.env.pa.out_mon [OUTPUT MONITOR] BRESP = 0 RRESP = 0 RDATA = 00000000
UVM_INFO axi4_lite_driver.sv(34) @ 4065: uvm_test_top.env.aa.drv [DRV] awaddr = 0000001c wdata = ca55e0fc wstrb = 8 araddr = 58972f18
UVM_INFO axi4_lite_scoreboard.sv(52) @ 4065: uvm_test_top.env.scb [BRESP] Matched : exp_bresp= 0 actual_bresp=0 write = 1 read = 0
UVM_INFO axi4_lite_subscriber.sv(41) @ 4115: uvm_test_top.env.sb [sb] INPUT COVERAGE = 83.33 %
UVM_INFO axi4_lite_inp_monitor.sv(44) @ 4115: uvm_test_top.env.aa.inp_mon [INPUT MONITOR]  WRITE awaddr=0000002c wdata=ee551d0d wstrb=0100 
UVM_INFO axi4_lite_out_monitor.sv(28) @ 4135: uvm_test_top.env.pa.out_mon [OUTPUT MONITOR] BRESP = 2 RRESP = 0 RDATA = 00000000
UVM_INFO axi4_lite_driver.sv(34) @ 4135: uvm_test_top.env.aa.drv [DRV] awaddr = 0000002c wdata = ee551d0d wstrb = 4 araddr = a6aa5e50
UVM_INFO axi4_lite_scoreboard.sv(52) @ 4135: uvm_test_top.env.scb [BRESP] Matched : exp_bresp= 2 actual_bresp=2 write = 1 read = 0
UVM_INFO axi4_lite_subscriber.sv(41) @ 4165: uvm_test_top.env.sb [sb] INPUT COVERAGE = 83.33 %
UVM_INFO axi4_lite_inp_monitor.sv(44) @ 4165: uvm_test_top.env.aa.inp_mon [INPUT MONITOR]  WRITE awaddr=0000002c wdata=f75cda29 wstrb=1000 
UVM_INFO axi4_lite_out_monitor.sv(28) @ 4185: uvm_test_top.env.pa.out_mon [OUTPUT MONITOR] BRESP = 2 RRESP = 0 RDATA = 00000000
UVM_INFO axi4_lite_driver.sv(34) @ 4185: uvm_test_top.env.aa.drv [DRV] awaddr = 0000002c wdata = f75cda29 wstrb = 8 araddr = df65b780
UVM_INFO axi4_lite_scoreboard.sv(52) @ 4185: uvm_test_top.env.scb [BRESP] Matched : exp_bresp= 2 actual_bresp=2 write = 1 read = 0
UVM_INFO axi4_lite_subscriber.sv(41) @ 4235: uvm_test_top.env.sb [sb] INPUT COVERAGE = 83.33 %
UVM_INFO axi4_lite_inp_monitor.sv(44) @ 4235: uvm_test_top.env.aa.inp_mon [INPUT MONITOR]  WRITE awaddr=00000020 wdata=58934048 wstrb=1010 
UVM_INFO axi4_lite_out_monitor.sv(28) @ 4255: uvm_test_top.env.pa.out_mon [OUTPUT MONITOR] BRESP = 0 RRESP = 0 RDATA = 00000000
UVM_INFO axi4_lite_driver.sv(34) @ 4255: uvm_test_top.env.aa.drv [DRV] awaddr = 00000020 wdata = 58934048 wstrb = a araddr = ffe56ae8
UVM_INFO axi4_lite_scoreboard.sv(52) @ 4255: uvm_test_top.env.scb [BRESP] Matched : exp_bresp= 0 actual_bresp=0 write = 1 read = 0
UVM_INFO axi4_lite_subscriber.sv(41) @ 4295: uvm_test_top.env.sb [sb] INPUT COVERAGE = 83.33 %
UVM_INFO axi4_lite_inp_monitor.sv(44) @ 4295: uvm_test_top.env.aa.inp_mon [INPUT MONITOR]  WRITE awaddr=00000014 wdata=87f180fd wstrb=0011 
UVM_INFO axi4_lite_out_monitor.sv(28) @ 4315: uvm_test_top.env.pa.out_mon [OUTPUT MONITOR] BRESP = 0 RRESP = 0 RDATA = 00000000
UVM_INFO axi4_lite_driver.sv(34) @ 4315: uvm_test_top.env.aa.drv [DRV] awaddr = 00000014 wdata = 87f180fd wstrb = 3 araddr = b8f92a20
UVM_INFO axi4_lite_scoreboard.sv(52) @ 4315: uvm_test_top.env.scb [BRESP] Matched : exp_bresp= 0 actual_bresp=0 write = 1 read = 0
UVM_INFO axi4_lite_subscriber.sv(41) @ 4355: uvm_test_top.env.sb [sb] INPUT COVERAGE = 83.33 %
UVM_INFO axi4_lite_inp_monitor.sv(44) @ 4355: uvm_test_top.env.aa.inp_mon [INPUT MONITOR]  WRITE awaddr=0000002c wdata=a7cf7753 wstrb=0000 
UVM_INFO axi4_lite_out_monitor.sv(28) @ 4375: uvm_test_top.env.pa.out_mon [OUTPUT MONITOR] BRESP = 2 RRESP = 0 RDATA = 00000000
UVM_INFO axi4_lite_driver.sv(34) @ 4375: uvm_test_top.env.aa.drv [DRV] awaddr = 0000002c wdata = a7cf7753 wstrb = 0 araddr = 5a0a0634
UVM_INFO axi4_lite_scoreboard.sv(52) @ 4375: uvm_test_top.env.scb [BRESP] Matched : exp_bresp= 2 actual_bresp=2 write = 1 read = 0
UVM_INFO axi4_lite_subscriber.sv(41) @ 4395: uvm_test_top.env.sb [sb] INPUT COVERAGE = 83.33 %
UVM_INFO axi4_lite_inp_monitor.sv(44) @ 4395: uvm_test_top.env.aa.inp_mon [INPUT MONITOR]  WRITE awaddr=00000028 wdata=38f8b0f0 wstrb=0000 
UVM_INFO axi4_lite_out_monitor.sv(28) @ 4415: uvm_test_top.env.pa.out_mon [OUTPUT MONITOR] BRESP = 2 RRESP = 0 RDATA = 00000000
UVM_INFO axi4_lite_driver.sv(34) @ 4415: uvm_test_top.env.aa.drv [DRV] awaddr = 00000028 wdata = 38f8b0f0 wstrb = 0 araddr = 3e84bee4
UVM_INFO axi4_lite_scoreboard.sv(52) @ 4415: uvm_test_top.env.scb [BRESP] Matched : exp_bresp= 2 actual_bresp=2 write = 1 read = 0
UVM_INFO axi4_lite_subscriber.sv(41) @ 4445: uvm_test_top.env.sb [sb] INPUT COVERAGE = 83.33 %
UVM_INFO axi4_lite_inp_monitor.sv(44) @ 4445: uvm_test_top.env.aa.inp_mon [INPUT MONITOR]  WRITE awaddr=0000002c wdata=b5f86fbf wstrb=1011 
UVM_INFO axi4_lite_out_monitor.sv(28) @ 4465: uvm_test_top.env.pa.out_mon [OUTPUT MONITOR] BRESP = 2 RRESP = 0 RDATA = 00000000
UVM_INFO axi4_lite_driver.sv(34) @ 4465: uvm_test_top.env.aa.drv [DRV] awaddr = 0000002c wdata = b5f86fbf wstrb = b araddr = 7c950d98
UVM_INFO axi4_lite_scoreboard.sv(52) @ 4465: uvm_test_top.env.scb [BRESP] Matched : exp_bresp= 2 actual_bresp=2 write = 1 read = 0
UVM_INFO axi4_lite_subscriber.sv(41) @ 4505: uvm_test_top.env.sb [sb] INPUT COVERAGE = 83.33 %
UVM_INFO axi4_lite_inp_monitor.sv(44) @ 4505: uvm_test_top.env.aa.inp_mon [INPUT MONITOR]  WRITE awaddr=00000024 wdata=aac42fdf wstrb=0010 
UVM_INFO axi4_lite_out_monitor.sv(28) @ 4525: uvm_test_top.env.pa.out_mon [OUTPUT MONITOR] BRESP = 0 RRESP = 0 RDATA = 00000000
UVM_INFO axi4_lite_driver.sv(34) @ 4525: uvm_test_top.env.aa.drv [DRV] awaddr = 00000024 wdata = aac42fdf wstrb = 2 araddr = ae8ffd74
UVM_INFO axi4_lite_scoreboard.sv(52) @ 4525: uvm_test_top.env.scb [BRESP] Matched : exp_bresp= 0 actual_bresp=0 write = 1 read = 0
UVM_INFO axi4_lite_subscriber.sv(41) @ 4565: uvm_test_top.env.sb [sb] INPUT COVERAGE = 83.33 %
UVM_INFO axi4_lite_inp_monitor.sv(44) @ 4565: uvm_test_top.env.aa.inp_mon [INPUT MONITOR]  WRITE awaddr=00000000 wdata=07865bf3 wstrb=1010 
UVM_INFO axi4_lite_out_monitor.sv(28) @ 4585: uvm_test_top.env.pa.out_mon [OUTPUT MONITOR] BRESP = 0 RRESP = 0 RDATA = 00000000
UVM_INFO axi4_lite_driver.sv(34) @ 4585: uvm_test_top.env.aa.drv [DRV] awaddr = 00000000 wdata = 07865bf3 wstrb = a araddr = d2fb2ef0
UVM_INFO axi4_lite_scoreboard.sv(52) @ 4585: uvm_test_top.env.scb [BRESP] Matched : exp_bresp= 0 actual_bresp=0 write = 1 read = 0
UVM_INFO axi4_lite_subscriber.sv(41) @ 4635: uvm_test_top.env.sb [sb] INPUT COVERAGE = 83.33 %
UVM_INFO axi4_lite_inp_monitor.sv(44) @ 4635: uvm_test_top.env.aa.inp_mon [INPUT MONITOR]  WRITE awaddr=00000020 wdata=381c0848 wstrb=0001 
UVM_INFO axi4_lite_out_monitor.sv(28) @ 4655: uvm_test_top.env.pa.out_mon [OUTPUT MONITOR] BRESP = 0 RRESP = 0 RDATA = 00000000
UVM_INFO axi4_lite_driver.sv(34) @ 4655: uvm_test_top.env.aa.drv [DRV] awaddr = 00000020 wdata = 381c0848 wstrb = 1 araddr = 62a08a8c
UVM_INFO axi4_lite_scoreboard.sv(52) @ 4655: uvm_test_top.env.scb [BRESP] Matched : exp_bresp= 0 actual_bresp=0 write = 1 read = 0
UVM_INFO axi4_lite_subscriber.sv(41) @ 4695: uvm_test_top.env.sb [sb] INPUT COVERAGE = 83.33 %
UVM_INFO axi4_lite_inp_monitor.sv(44) @ 4695: uvm_test_top.env.aa.inp_mon [INPUT MONITOR]  WRITE awaddr=0000002c wdata=e775c450 wstrb=0111 
UVM_INFO axi4_lite_out_monitor.sv(28) @ 4715: uvm_test_top.env.pa.out_mon [OUTPUT MONITOR] BRESP = 2 RRESP = 0 RDATA = 00000000
UVM_INFO axi4_lite_driver.sv(34) @ 4715: uvm_test_top.env.aa.drv [DRV] awaddr = 0000002c wdata = e775c450 wstrb = 7 araddr = 6464bb38
UVM_INFO axi4_lite_scoreboard.sv(52) @ 4715: uvm_test_top.env.scb [BRESP] Matched : exp_bresp= 2 actual_bresp=2 write = 1 read = 0
UVM_INFO axi4_lite_subscriber.sv(41) @ 4755: uvm_test_top.env.sb [sb] INPUT COVERAGE = 83.33 %
UVM_INFO axi4_lite_inp_monitor.sv(44) @ 4755: uvm_test_top.env.aa.inp_mon [INPUT MONITOR]  WRITE awaddr=00000034 wdata=64d4b9b5 wstrb=0101 
UVM_INFO axi4_lite_out_monitor.sv(28) @ 4775: uvm_test_top.env.pa.out_mon [OUTPUT MONITOR] BRESP = 0 RRESP = 0 RDATA = 00000000
UVM_INFO axi4_lite_driver.sv(34) @ 4775: uvm_test_top.env.aa.drv [DRV] awaddr = 00000034 wdata = 64d4b9b5 wstrb = 5 araddr = b2c5e038
UVM_INFO axi4_lite_scoreboard.sv(52) @ 4775: uvm_test_top.env.scb [BRESP] Matched : exp_bresp= 0 actual_bresp=0 write = 1 read = 0
UVM_INFO axi4_lite_subscriber.sv(41) @ 4815: uvm_test_top.env.sb [sb] INPUT COVERAGE = 83.33 %
UVM_INFO axi4_lite_inp_monitor.sv(44) @ 4815: uvm_test_top.env.aa.inp_mon [INPUT MONITOR]  WRITE awaddr=00000014 wdata=978a0187 wstrb=1111 
UVM_INFO axi4_lite_out_monitor.sv(28) @ 4835: uvm_test_top.env.pa.out_mon [OUTPUT MONITOR] BRESP = 0 RRESP = 0 RDATA = 00000000
UVM_INFO axi4_lite_driver.sv(34) @ 4835: uvm_test_top.env.aa.drv [DRV] awaddr = 00000014 wdata = 978a0187 wstrb = f araddr = 67ff7d38
UVM_INFO axi4_lite_scoreboard.sv(52) @ 4835: uvm_test_top.env.scb [BRESP] Matched : exp_bresp= 0 actual_bresp=0 write = 1 read = 0
UVM_INFO axi4_lite_subscriber.sv(41) @ 4865: uvm_test_top.env.sb [sb] INPUT COVERAGE = 83.33 %
UVM_INFO axi4_lite_inp_monitor.sv(44) @ 4865: uvm_test_top.env.aa.inp_mon [INPUT MONITOR]  WRITE awaddr=0000000c wdata=2bd5114e wstrb=1110 
UVM_INFO axi4_lite_out_monitor.sv(28) @ 4885: uvm_test_top.env.pa.out_mon [OUTPUT MONITOR] BRESP = 0 RRESP = 0 RDATA = 00000000
UVM_INFO axi4_lite_driver.sv(34) @ 4885: uvm_test_top.env.aa.drv [DRV] awaddr = 0000000c wdata = 2bd5114e wstrb = e araddr = 813dee68
UVM_INFO axi4_lite_scoreboard.sv(52) @ 4885: uvm_test_top.env.scb [BRESP] Matched : exp_bresp= 0 actual_bresp=0 write = 1 read = 0
UVM_INFO axi4_lite_subscriber.sv(41) @ 4935: uvm_test_top.env.sb [sb] INPUT COVERAGE = 83.33 %
UVM_INFO axi4_lite_inp_monitor.sv(44) @ 4935: uvm_test_top.env.aa.inp_mon [INPUT MONITOR]  WRITE awaddr=00000008 wdata=0ff1d1c9 wstrb=0011 
UVM_INFO axi4_lite_out_monitor.sv(28) @ 4955: uvm_test_top.env.pa.out_mon [OUTPUT MONITOR] BRESP = 0 RRESP = 0 RDATA = 00000000
UVM_INFO axi4_lite_driver.sv(34) @ 4955: uvm_test_top.env.aa.drv [DRV] awaddr = 00000008 wdata = 0ff1d1c9 wstrb = 3 araddr = caef4ed4
UVM_INFO axi4_lite_scoreboard.sv(52) @ 4955: uvm_test_top.env.scb [BRESP] Matched : exp_bresp= 0 actual_bresp=0 write = 1 read = 0
UVM_INFO axi4_lite_subscriber.sv(41) @ 4985: uvm_test_top.env.sb [sb] INPUT COVERAGE = 83.33 %
UVM_INFO axi4_lite_inp_monitor.sv(44) @ 4985: uvm_test_top.env.aa.inp_mon [INPUT MONITOR]  WRITE awaddr=00000030 wdata=d84fb47f wstrb=0110 
UVM_INFO axi4_lite_out_monitor.sv(28) @ 5005: uvm_test_top.env.pa.out_mon [OUTPUT MONITOR] BRESP = 2 RRESP = 0 RDATA = 00000000
UVM_INFO axi4_lite_driver.sv(34) @ 5005: uvm_test_top.env.aa.drv [DRV] awaddr = 00000030 wdata = d84fb47f wstrb = 6 araddr = 8a194334
UVM_INFO axi4_lite_scoreboard.sv(52) @ 5005: uvm_test_top.env.scb [BRESP] Matched : exp_bresp= 2 actual_bresp=2 write = 1 read = 0
UVM_INFO axi4_lite_subscriber.sv(41) @ 5035: uvm_test_top.env.sb [sb] INPUT COVERAGE = 83.33 %
UVM_INFO axi4_lite_inp_monitor.sv(44) @ 5035: uvm_test_top.env.aa.inp_mon [INPUT MONITOR]  WRITE awaddr=00000028 wdata=9974bf36 wstrb=1010 
UVM_INFO axi4_lite_out_monitor.sv(28) @ 5055: uvm_test_top.env.pa.out_mon [OUTPUT MONITOR] BRESP = 2 RRESP = 0 RDATA = 00000000
UVM_INFO axi4_lite_driver.sv(34) @ 5055: uvm_test_top.env.aa.drv [DRV] awaddr = 00000028 wdata = 9974bf36 wstrb = a araddr = 8270f074
UVM_INFO axi4_lite_scoreboard.sv(52) @ 5055: uvm_test_top.env.scb [BRESP] Matched : exp_bresp= 2 actual_bresp=2 write = 1 read = 0
UVM_INFO axi4_lite_subscriber.sv(41) @ 5095: uvm_test_top.env.sb [sb] INPUT COVERAGE = 83.33 %
UVM_INFO axi4_lite_inp_monitor.sv(44) @ 5095: uvm_test_top.env.aa.inp_mon [INPUT MONITOR]  WRITE awaddr=00000008 wdata=c0fb699b wstrb=0111 
UVM_INFO axi4_lite_out_monitor.sv(28) @ 5115: uvm_test_top.env.pa.out_mon [OUTPUT MONITOR] BRESP = 0 RRESP = 0 RDATA = 00000000
UVM_INFO axi4_lite_driver.sv(34) @ 5115: uvm_test_top.env.aa.drv [DRV] awaddr = 00000008 wdata = c0fb699b wstrb = 7 araddr = f83f53e8
UVM_INFO axi4_lite_scoreboard.sv(52) @ 5115: uvm_test_top.env.scb [BRESP] Matched : exp_bresp= 0 actual_bresp=0 write = 1 read = 0
UVM_INFO axi4_lite_subscriber.sv(41) @ 5145: uvm_test_top.env.sb [sb] INPUT COVERAGE = 83.33 %
UVM_INFO axi4_lite_inp_monitor.sv(44) @ 5145: uvm_test_top.env.aa.inp_mon [INPUT MONITOR]  WRITE awaddr=00000008 wdata=eecc138c wstrb=0010 
UVM_INFO axi4_lite_out_monitor.sv(28) @ 5165: uvm_test_top.env.pa.out_mon [OUTPUT MONITOR] BRESP = 0 RRESP = 0 RDATA = 00000000
UVM_INFO axi4_lite_driver.sv(34) @ 5165: uvm_test_top.env.aa.drv [DRV] awaddr = 00000008 wdata = eecc138c wstrb = 2 araddr = 4bdb60dc
UVM_INFO axi4_lite_scoreboard.sv(52) @ 5165: uvm_test_top.env.scb [BRESP] Matched : exp_bresp= 0 actual_bresp=0 write = 1 read = 0
UVM_INFO axi4_lite_subscriber.sv(41) @ 5205: uvm_test_top.env.sb [sb] INPUT COVERAGE = 83.33 %
UVM_INFO axi4_lite_inp_monitor.sv(44) @ 5205: uvm_test_top.env.aa.inp_mon [INPUT MONITOR]  WRITE awaddr=00000020 wdata=a8816c89 wstrb=0001 
UVM_INFO axi4_lite_out_monitor.sv(28) @ 5225: uvm_test_top.env.pa.out_mon [OUTPUT MONITOR] BRESP = 0 RRESP = 0 RDATA = 00000000
UVM_INFO axi4_lite_driver.sv(34) @ 5225: uvm_test_top.env.aa.drv [DRV] awaddr = 00000020 wdata = a8816c89 wstrb = 1 araddr = d5e28814
UVM_INFO axi4_lite_scoreboard.sv(52) @ 5225: uvm_test_top.env.scb [BRESP] Matched : exp_bresp= 0 actual_bresp=0 write = 1 read = 0
UVM_INFO axi4_lite_subscriber.sv(41) @ 5275: uvm_test_top.env.sb [sb] INPUT COVERAGE = 83.33 %
UVM_INFO axi4_lite_inp_monitor.sv(44) @ 5275: uvm_test_top.env.aa.inp_mon [INPUT MONITOR]  WRITE awaddr=0000000c wdata=98081bcf wstrb=1111 
UVM_INFO axi4_lite_out_monitor.sv(28) @ 5295: uvm_test_top.env.pa.out_mon [OUTPUT MONITOR] BRESP = 0 RRESP = 0 RDATA = 00000000
UVM_INFO axi4_lite_driver.sv(34) @ 5295: uvm_test_top.env.aa.drv [DRV] awaddr = 0000000c wdata = 98081bcf wstrb = f araddr = 04a56ffc
UVM_INFO axi4_lite_scoreboard.sv(52) @ 5295: uvm_test_top.env.scb [BRESP] Matched : exp_bresp= 0 actual_bresp=0 write = 1 read = 0
UVM_INFO axi4_lite_subscriber.sv(41) @ 5315: uvm_test_top.env.sb [sb] INPUT COVERAGE = 83.33 %
UVM_INFO axi4_lite_inp_monitor.sv(44) @ 5315: uvm_test_top.env.aa.inp_mon [INPUT MONITOR]  WRITE awaddr=0000002c wdata=e0923347 wstrb=0010 
UVM_INFO axi4_lite_out_monitor.sv(28) @ 5335: uvm_test_top.env.pa.out_mon [OUTPUT MONITOR] BRESP = 2 RRESP = 0 RDATA = 00000000
UVM_INFO axi4_lite_driver.sv(34) @ 5335: uvm_test_top.env.aa.drv [DRV] awaddr = 0000002c wdata = e0923347 wstrb = 2 araddr = 9ba62a18
UVM_INFO axi4_lite_scoreboard.sv(52) @ 5335: uvm_test_top.env.scb [BRESP] Matched : exp_bresp= 2 actual_bresp=2 write = 1 read = 0
UVM_INFO axi4_lite_subscriber.sv(41) @ 5365: uvm_test_top.env.sb [sb] INPUT COVERAGE = 83.33 %
UVM_INFO axi4_lite_inp_monitor.sv(44) @ 5365: uvm_test_top.env.aa.inp_mon [INPUT MONITOR]  WRITE awaddr=0000001c wdata=af5d2066 wstrb=0001 
UVM_INFO axi4_lite_out_monitor.sv(28) @ 5385: uvm_test_top.env.pa.out_mon [OUTPUT MONITOR] BRESP = 0 RRESP = 0 RDATA = 00000000
UVM_INFO axi4_lite_driver.sv(34) @ 5385: uvm_test_top.env.aa.drv [DRV] awaddr = 0000001c wdata = af5d2066 wstrb = 1 araddr = 71ef24a8
UVM_INFO axi4_lite_scoreboard.sv(52) @ 5385: uvm_test_top.env.scb [BRESP] Matched : exp_bresp= 0 actual_bresp=0 write = 1 read = 0
UVM_INFO axi4_lite_subscriber.sv(41) @ 5425: uvm_test_top.env.sb [sb] INPUT COVERAGE = 83.33 %
UVM_INFO axi4_lite_inp_monitor.sv(44) @ 5425: uvm_test_top.env.aa.inp_mon [INPUT MONITOR]  WRITE awaddr=0000001c wdata=6fc853d9 wstrb=0001 
UVM_INFO axi4_lite_out_monitor.sv(28) @ 5445: uvm_test_top.env.pa.out_mon [OUTPUT MONITOR] BRESP = 0 RRESP = 0 RDATA = 00000000
UVM_INFO axi4_lite_driver.sv(34) @ 5445: uvm_test_top.env.aa.drv [DRV] awaddr = 0000001c wdata = 6fc853d9 wstrb = 1 araddr = f427a890
UVM_INFO axi4_lite_scoreboard.sv(52) @ 5445: uvm_test_top.env.scb [BRESP] Matched : exp_bresp= 0 actual_bresp=0 write = 1 read = 0
UVM_INFO axi4_lite_subscriber.sv(41) @ 5475: uvm_test_top.env.sb [sb] INPUT COVERAGE = 83.33 %
UVM_INFO axi4_lite_inp_monitor.sv(44) @ 5475: uvm_test_top.env.aa.inp_mon [INPUT MONITOR]  WRITE awaddr=00000028 wdata=6081e90a wstrb=1011 
UVM_INFO axi4_lite_out_monitor.sv(28) @ 5495: uvm_test_top.env.pa.out_mon [OUTPUT MONITOR] BRESP = 2 RRESP = 0 RDATA = 00000000
UVM_INFO axi4_lite_driver.sv(34) @ 5495: uvm_test_top.env.aa.drv [DRV] awaddr = 00000028 wdata = 6081e90a wstrb = b araddr = e0f592a4
UVM_INFO axi4_lite_scoreboard.sv(52) @ 5495: uvm_test_top.env.scb [BRESP] Matched : exp_bresp= 2 actual_bresp=2 write = 1 read = 0
UVM_INFO axi4_lite_subscriber.sv(41) @ 5535: uvm_test_top.env.sb [sb] INPUT COVERAGE = 83.33 %
UVM_INFO axi4_lite_inp_monitor.sv(44) @ 5535: uvm_test_top.env.aa.inp_mon [INPUT MONITOR]  WRITE awaddr=00000028 wdata=cd3bbdb1 wstrb=0100 
UVM_INFO axi4_lite_out_monitor.sv(28) @ 5555: uvm_test_top.env.pa.out_mon [OUTPUT MONITOR] BRESP = 2 RRESP = 0 RDATA = 00000000
UVM_INFO axi4_lite_driver.sv(34) @ 5555: uvm_test_top.env.aa.drv [DRV] awaddr = 00000028 wdata = cd3bbdb1 wstrb = 4 araddr = 21f0aa7c
UVM_INFO axi4_lite_scoreboard.sv(52) @ 5555: uvm_test_top.env.scb [BRESP] Matched : exp_bresp= 2 actual_bresp=2 write = 1 read = 0
UVM_INFO axi4_lite_subscriber.sv(41) @ 5595: uvm_test_top.env.sb [sb] INPUT COVERAGE = 83.33 %
UVM_INFO axi4_lite_inp_monitor.sv(44) @ 5595: uvm_test_top.env.aa.inp_mon [INPUT MONITOR]  WRITE awaddr=00000004 wdata=b8891704 wstrb=1000 
UVM_INFO axi4_lite_out_monitor.sv(28) @ 5615: uvm_test_top.env.pa.out_mon [OUTPUT MONITOR] BRESP = 0 RRESP = 0 RDATA = 00000000
UVM_INFO axi4_lite_driver.sv(34) @ 5615: uvm_test_top.env.aa.drv [DRV] awaddr = 00000004 wdata = b8891704 wstrb = 8 araddr = 2392b36c
UVM_INFO axi4_lite_scoreboard.sv(52) @ 5615: uvm_test_top.env.scb [BRESP] Matched : exp_bresp= 0 actual_bresp=0 write = 1 read = 0
UVM_INFO axi4_lite_subscriber.sv(41) @ 5645: uvm_test_top.env.sb [sb] INPUT COVERAGE = 83.33 %
UVM_INFO axi4_lite_inp_monitor.sv(44) @ 5645: uvm_test_top.env.aa.inp_mon [INPUT MONITOR]  WRITE awaddr=00000024 wdata=fe45a6ac wstrb=1000 
UVM_INFO axi4_lite_out_monitor.sv(28) @ 5665: uvm_test_top.env.pa.out_mon [OUTPUT MONITOR] BRESP = 0 RRESP = 0 RDATA = 00000000
UVM_INFO axi4_lite_driver.sv(34) @ 5665: uvm_test_top.env.aa.drv [DRV] awaddr = 00000024 wdata = fe45a6ac wstrb = 8 araddr = dd8a8c60
UVM_INFO axi4_lite_scoreboard.sv(52) @ 5665: uvm_test_top.env.scb [BRESP] Matched : exp_bresp= 0 actual_bresp=0 write = 1 read = 0
UVM_INFO axi4_lite_subscriber.sv(41) @ 5715: uvm_test_top.env.sb [sb] INPUT COVERAGE = 83.33 %
UVM_INFO axi4_lite_inp_monitor.sv(44) @ 5715: uvm_test_top.env.aa.inp_mon [INPUT MONITOR]  WRITE awaddr=0000002c wdata=ef134cb0 wstrb=0111 
UVM_INFO axi4_lite_out_monitor.sv(28) @ 5735: uvm_test_top.env.pa.out_mon [OUTPUT MONITOR] BRESP = 2 RRESP = 0 RDATA = 00000000
UVM_INFO axi4_lite_driver.sv(34) @ 5735: uvm_test_top.env.aa.drv [DRV] awaddr = 0000002c wdata = ef134cb0 wstrb = 7 araddr = c3807f30
UVM_INFO axi4_lite_scoreboard.sv(52) @ 5735: uvm_test_top.env.scb [BRESP] Matched : exp_bresp= 2 actual_bresp=2 write = 1 read = 0
UVM_INFO axi4_lite_test.sv(27) @ 5735: uvm_test_top [TEST] Write completed
UVM_INFO /fetools/synopsys/installed_tools/vcs/vcs/Q-2020.03-SP2-8/etc/uvm/base/uvm_objection.svh(1274) @ 5735: reporter [TEST_DONE] 'run' phase is ready to proceed to the 'extract' phase

--- UVM Report Summary ---

** Report counts by severity
UVM_INFO :  504
UVM_WARNING :    0
UVM_ERROR :    0
UVM_FATAL :    0
** Report counts by id
[BRESP]   100
[DRV]   100
[INPUT MONITOR]   100
[OUTPUT MONITOR]   100
[RNTST]     1
[TEST]     1
[TEST_DONE]     1
[UVMTOP]     1
[sb]   100
$finish called from file "/fetools/synopsys/installed_tools/vcs/vcs/Q-2020.03-SP2-8/etc/uvm/base/uvm_root.svh", line 437.
$finish at simulation time                 5735

---------------------------------------------------------------------------
VCS Coverage Metrics: during simulation line, cond, FSM, branch, tgl was monitored
---------------------------------------------------------------------------
           V C S   S i m u l a t i o n   R e p o r t 
Time: 5735 ns
CPU Time:      0.650 seconds;       Data structure size:   0.4Mb
Fri Sep 18 14:21:37 2026
