Command: /fetools/work_area/frontend/Batch_11/ananyaganesh/system_verilog/AXI4_LITE_SLAVE/src/work/simv +UVM_TESTNAME=axi4_lite_test_read +UVM_VERBOSITY=UVM_HIGH +ntb_random_seed=4799 -cm line+cond+fsm+tgl+branch+assert -cm_dir work/regression.vdb -cm_name axi4_lite_test_read_4799 -l work/logs/axi4_lite_test_read_4799.log +UVM_NO_RELNOTES
Chronologic VCS simulator copyright 1991-2020
Contains Synopsys proprietary information.
Compiler version Q-2020.03-SP2-8_Full64; Runtime version Q-2020.03-SP2-8_Full64;  Sep 18 14:15 2026
----------------------------------------------------------------
UVM-1.1d.Synopsys
(C) 2007-2013 Mentor Graphics Corporation
(C) 2007-2013 Cadence Design Systems, Inc.
(C) 2006-2013 Synopsys, Inc.
(C) 2011-2013 Cypress Semiconductor Corp.
----------------------------------------------------------------
UVM_INFO @ 0: reporter [RNTST] Running test axi4_lite_test_read...
UVM_INFO @ 0: reporter [UVMTOP] UVM testbench topology:
---------------------------------------------------------------
Name                       Type                     Size  Value
---------------------------------------------------------------
uvm_test_top               axi4_lite_test_read      -     @469 
  env                      axi4_lite_environment    -     @477 
    aa                     axi4_lite_active_agent   -     @489 
      drv                  axi4_lite_driver         -     @569 
        rsp_port           uvm_analysis_port        -     @586 
        seq_item_port      uvm_seq_item_pull_port   -     @577 
      inp_mon              axi4_lite_inp_monitor    -     @552 
        inp_mon_port       uvm_analysis_port        -     @560 
      seqr                 axi4_lite_seqr           -     @595 
        rsp_export         uvm_analysis_export      -     @603 
        seq_item_export    uvm_seq_item_pull_imp    -     @709 
        arbitration_queue  array                    0     -    
        lock_queue         array                    0     -    
        num_last_reqs      integral                 32    'd1  
        num_last_rsps      integral                 32    'd1  
    pa                     axi4_lite_passive_agent  -     @497 
      out_mon              axi4_lite_out_monitor    -     @726 
        out_mon_port       uvm_analysis_port        -     @734 
    sb                     axi4_lite_subscriber     -     @531 
      analysis_imp         uvm_analysis_imp         -     @539 
    scb                    axi4_lite_scoreboard     -     @505 
      inp_port             uvm_analysis_imp_in      -     @513 
      out_port             uvm_analysis_imp_out     -     @522 
---------------------------------------------------------------

UVM_INFO axi4_lite_subscriber.sv(41) @ 15: uvm_test_top.env.sb [sb] INPUT COVERAGE = 28.12 %
UVM_INFO axi4_lite_inp_monitor.sv(38) @ 15: uvm_test_top.env.aa.inp_mon [INPUT MONITOR] READ araddr=00000008
UVM_INFO axi4_lite_out_monitor.sv(28) @ 25: uvm_test_top.env.pa.out_mon [OUTPUT MONITOR] BRESP = 0 RRESP = 0 RDATA = 00000000
UVM_INFO axi4_lite_driver.sv(34) @ 25: uvm_test_top.env.aa.drv [DRV] awaddr = 55eb6b88 wdata = db5cced6 wstrb = e araddr = 00000008
UVM_INFO axi4_lite_scoreboard.sv(68) @ 25: uvm_test_top.env.scb [RRESP] Matched : exp_rresp=0 actual_rresp =0 write = 0 read = 1
UVM_INFO axi4_lite_scoreboard.sv(72) @ 25: uvm_test_top.env.scb [RDATA] Matched : exp_rdata=00000000 actual_rdata =00000000
UVM_INFO axi4_lite_subscriber.sv(41) @ 45: uvm_test_top.env.sb [sb] INPUT COVERAGE = 36.46 %
UVM_INFO axi4_lite_inp_monitor.sv(38) @ 45: uvm_test_top.env.aa.inp_mon [INPUT MONITOR] READ araddr=0000002c
UVM_INFO axi4_lite_out_monitor.sv(28) @ 55: uvm_test_top.env.pa.out_mon [OUTPUT MONITOR] BRESP = 0 RRESP = 0 RDATA = 00000000
UVM_INFO axi4_lite_driver.sv(34) @ 55: uvm_test_top.env.aa.drv [DRV] awaddr = 7b9f1ea4 wdata = 8ab2039a wstrb = 7 araddr = 0000002c
UVM_INFO axi4_lite_scoreboard.sv(68) @ 55: uvm_test_top.env.scb [RRESP] Matched : exp_rresp=0 actual_rresp =0 write = 0 read = 1
UVM_INFO axi4_lite_scoreboard.sv(72) @ 55: uvm_test_top.env.scb [RDATA] Matched : exp_rdata=00000000 actual_rdata =00000000
UVM_INFO axi4_lite_subscriber.sv(41) @ 75: uvm_test_top.env.sb [sb] INPUT COVERAGE = 36.46 %
UVM_INFO axi4_lite_inp_monitor.sv(38) @ 75: uvm_test_top.env.aa.inp_mon [INPUT MONITOR] READ araddr=00000014
UVM_INFO axi4_lite_out_monitor.sv(28) @ 85: uvm_test_top.env.pa.out_mon [OUTPUT MONITOR] BRESP = 0 RRESP = 0 RDATA = 00000000
UVM_INFO axi4_lite_driver.sv(34) @ 85: uvm_test_top.env.aa.drv [DRV] awaddr = 1e5f0b84 wdata = 5b2b01ee wstrb = a araddr = 00000014
UVM_INFO axi4_lite_scoreboard.sv(68) @ 85: uvm_test_top.env.scb [RRESP] Matched : exp_rresp=0 actual_rresp =0 write = 0 read = 1
UVM_INFO axi4_lite_scoreboard.sv(72) @ 85: uvm_test_top.env.scb [RDATA] Matched : exp_rdata=00000000 actual_rdata =00000000
UVM_INFO axi4_lite_subscriber.sv(41) @ 105: uvm_test_top.env.sb [sb] INPUT COVERAGE = 36.46 %
UVM_INFO axi4_lite_inp_monitor.sv(38) @ 105: uvm_test_top.env.aa.inp_mon [INPUT MONITOR] READ araddr=0000001c
UVM_INFO axi4_lite_out_monitor.sv(28) @ 115: uvm_test_top.env.pa.out_mon [OUTPUT MONITOR] BRESP = 0 RRESP = 0 RDATA = 00000000
UVM_INFO axi4_lite_driver.sv(34) @ 115: uvm_test_top.env.aa.drv [DRV] awaddr = 0a7e4fa8 wdata = 1a732d44 wstrb = 3 araddr = 0000001c
UVM_INFO axi4_lite_scoreboard.sv(68) @ 115: uvm_test_top.env.scb [RRESP] Matched : exp_rresp=0 actual_rresp =0 write = 0 read = 1
UVM_INFO axi4_lite_scoreboard.sv(72) @ 115: uvm_test_top.env.scb [RDATA] Matched : exp_rdata=00000000 actual_rdata =00000000
UVM_INFO axi4_lite_subscriber.sv(41) @ 135: uvm_test_top.env.sb [sb] INPUT COVERAGE = 44.79 %
UVM_INFO axi4_lite_inp_monitor.sv(38) @ 135: uvm_test_top.env.aa.inp_mon [INPUT MONITOR] READ araddr=00000034
UVM_INFO axi4_lite_out_monitor.sv(28) @ 145: uvm_test_top.env.pa.out_mon [OUTPUT MONITOR] BRESP = 0 RRESP = 2 RDATA = 00000000
UVM_INFO axi4_lite_driver.sv(34) @ 145: uvm_test_top.env.aa.drv [DRV] awaddr = 9ae55cf0 wdata = c9bbea8a wstrb = 2 araddr = 00000034
UVM_INFO axi4_lite_scoreboard.sv(68) @ 145: uvm_test_top.env.scb [RRESP] Matched : exp_rresp=2 actual_rresp =2 write = 0 read = 1
UVM_INFO axi4_lite_scoreboard.sv(72) @ 145: uvm_test_top.env.scb [RDATA] Matched : exp_rdata=00000000 actual_rdata =00000000
UVM_INFO axi4_lite_subscriber.sv(41) @ 165: uvm_test_top.env.sb [sb] INPUT COVERAGE = 44.79 %
UVM_INFO axi4_lite_inp_monitor.sv(38) @ 165: uvm_test_top.env.aa.inp_mon [INPUT MONITOR] READ araddr=00000024
UVM_INFO axi4_lite_out_monitor.sv(28) @ 175: uvm_test_top.env.pa.out_mon [OUTPUT MONITOR] BRESP = 0 RRESP = 0 RDATA = 00000000
UVM_INFO axi4_lite_driver.sv(34) @ 175: uvm_test_top.env.aa.drv [DRV] awaddr = b8dd9eb4 wdata = 2392b8c3 wstrb = f araddr = 00000024
UVM_INFO axi4_lite_scoreboard.sv(68) @ 175: uvm_test_top.env.scb [RRESP] Matched : exp_rresp=0 actual_rresp =0 write = 0 read = 1
UVM_INFO axi4_lite_scoreboard.sv(72) @ 175: uvm_test_top.env.scb [RDATA] Matched : exp_rdata=00000000 actual_rdata =00000000
UVM_INFO axi4_lite_subscriber.sv(41) @ 195: uvm_test_top.env.sb [sb] INPUT COVERAGE = 44.79 %
UVM_INFO axi4_lite_inp_monitor.sv(38) @ 195: uvm_test_top.env.aa.inp_mon [INPUT MONITOR] READ araddr=00000004
UVM_INFO axi4_lite_out_monitor.sv(28) @ 205: uvm_test_top.env.pa.out_mon [OUTPUT MONITOR] BRESP = 0 RRESP = 0 RDATA = 00000000
UVM_INFO axi4_lite_driver.sv(34) @ 205: uvm_test_top.env.aa.drv [DRV] awaddr = d98a5ee8 wdata = 2e616af4 wstrb = 7 araddr = 00000004
UVM_INFO axi4_lite_scoreboard.sv(68) @ 205: uvm_test_top.env.scb [RRESP] Matched : exp_rresp=0 actual_rresp =0 write = 0 read = 1
UVM_INFO axi4_lite_scoreboard.sv(72) @ 205: uvm_test_top.env.scb [RDATA] Matched : exp_rdata=00000000 actual_rdata =00000000
UVM_INFO axi4_lite_subscriber.sv(41) @ 225: uvm_test_top.env.sb [sb] INPUT COVERAGE = 44.79 %
UVM_INFO axi4_lite_inp_monitor.sv(38) @ 225: uvm_test_top.env.aa.inp_mon [INPUT MONITOR] READ araddr=00000010
UVM_INFO axi4_lite_out_monitor.sv(28) @ 235: uvm_test_top.env.pa.out_mon [OUTPUT MONITOR] BRESP = 0 RRESP = 0 RDATA = 00000000
UVM_INFO axi4_lite_driver.sv(34) @ 235: uvm_test_top.env.aa.drv [DRV] awaddr = e489f44c wdata = ba09c63f wstrb = d araddr = 00000010
UVM_INFO axi4_lite_scoreboard.sv(68) @ 235: uvm_test_top.env.scb [RRESP] Matched : exp_rresp=0 actual_rresp =0 write = 0 read = 1
UVM_INFO axi4_lite_scoreboard.sv(72) @ 235: uvm_test_top.env.scb [RDATA] Matched : exp_rdata=00000000 actual_rdata =00000000
UVM_INFO axi4_lite_subscriber.sv(41) @ 255: uvm_test_top.env.sb [sb] INPUT COVERAGE = 44.79 %
UVM_INFO axi4_lite_inp_monitor.sv(38) @ 255: uvm_test_top.env.aa.inp_mon [INPUT MONITOR] READ araddr=00000024
UVM_INFO axi4_lite_out_monitor.sv(28) @ 265: uvm_test_top.env.pa.out_mon [OUTPUT MONITOR] BRESP = 0 RRESP = 0 RDATA = 00000000
UVM_INFO axi4_lite_driver.sv(34) @ 265: uvm_test_top.env.aa.drv [DRV] awaddr = 7ae658b0 wdata = 29eaa51a wstrb = 0 araddr = 00000024
UVM_INFO axi4_lite_scoreboard.sv(68) @ 265: uvm_test_top.env.scb [RRESP] Matched : exp_rresp=0 actual_rresp =0 write = 0 read = 1
UVM_INFO axi4_lite_scoreboard.sv(72) @ 265: uvm_test_top.env.scb [RDATA] Matched : exp_rdata=00000000 actual_rdata =00000000
UVM_INFO axi4_lite_subscriber.sv(41) @ 285: uvm_test_top.env.sb [sb] INPUT COVERAGE = 44.79 %
UVM_INFO axi4_lite_inp_monitor.sv(38) @ 285: uvm_test_top.env.aa.inp_mon [INPUT MONITOR] READ araddr=00000020
UVM_INFO axi4_lite_out_monitor.sv(28) @ 295: uvm_test_top.env.pa.out_mon [OUTPUT MONITOR] BRESP = 0 RRESP = 0 RDATA = 00000000
UVM_INFO axi4_lite_driver.sv(34) @ 295: uvm_test_top.env.aa.drv [DRV] awaddr = bb6aadb4 wdata = 1d4b7375 wstrb = 5 araddr = 00000020
UVM_INFO axi4_lite_scoreboard.sv(68) @ 295: uvm_test_top.env.scb [RRESP] Matched : exp_rresp=0 actual_rresp =0 write = 0 read = 1
UVM_INFO axi4_lite_scoreboard.sv(72) @ 295: uvm_test_top.env.scb [RDATA] Matched : exp_rdata=00000000 actual_rdata =00000000
UVM_INFO axi4_lite_subscriber.sv(41) @ 315: uvm_test_top.env.sb [sb] INPUT COVERAGE = 44.79 %
UVM_INFO axi4_lite_inp_monitor.sv(38) @ 315: uvm_test_top.env.aa.inp_mon [INPUT MONITOR] READ araddr=0000000c
UVM_INFO axi4_lite_out_monitor.sv(28) @ 325: uvm_test_top.env.pa.out_mon [OUTPUT MONITOR] BRESP = 0 RRESP = 0 RDATA = 00000000
UVM_INFO axi4_lite_driver.sv(34) @ 325: uvm_test_top.env.aa.drv [DRV] awaddr = 990ac448 wdata = 6f172df3 wstrb = 4 araddr = 0000000c
UVM_INFO axi4_lite_scoreboard.sv(68) @ 325: uvm_test_top.env.scb [RRESP] Matched : exp_rresp=0 actual_rresp =0 write = 0 read = 1
UVM_INFO axi4_lite_scoreboard.sv(72) @ 325: uvm_test_top.env.scb [RDATA] Matched : exp_rdata=00000000 actual_rdata =00000000
UVM_INFO axi4_lite_subscriber.sv(41) @ 345: uvm_test_top.env.sb [sb] INPUT COVERAGE = 44.79 %
UVM_INFO axi4_lite_inp_monitor.sv(38) @ 345: uvm_test_top.env.aa.inp_mon [INPUT MONITOR] READ araddr=0000000c
UVM_INFO axi4_lite_out_monitor.sv(28) @ 355: uvm_test_top.env.pa.out_mon [OUTPUT MONITOR] BRESP = 0 RRESP = 0 RDATA = 00000000
UVM_INFO axi4_lite_driver.sv(34) @ 355: uvm_test_top.env.aa.drv [DRV] awaddr = 13a5b4a0 wdata = 2427a16c wstrb = 1 araddr = 0000000c
UVM_INFO axi4_lite_scoreboard.sv(68) @ 355: uvm_test_top.env.scb [RRESP] Matched : exp_rresp=0 actual_rresp =0 write = 0 read = 1
UVM_INFO axi4_lite_scoreboard.sv(72) @ 355: uvm_test_top.env.scb [RDATA] Matched : exp_rdata=00000000 actual_rdata =00000000
UVM_INFO axi4_lite_subscriber.sv(41) @ 375: uvm_test_top.env.sb [sb] INPUT COVERAGE = 44.79 %
UVM_INFO axi4_lite_inp_monitor.sv(38) @ 375: uvm_test_top.env.aa.inp_mon [INPUT MONITOR] READ araddr=0000001c
UVM_INFO axi4_lite_out_monitor.sv(28) @ 385: uvm_test_top.env.pa.out_mon [OUTPUT MONITOR] BRESP = 0 RRESP = 0 RDATA = 00000000
UVM_INFO axi4_lite_driver.sv(34) @ 385: uvm_test_top.env.aa.drv [DRV] awaddr = 93eb3720 wdata = a8fda611 wstrb = 6 araddr = 0000001c
UVM_INFO axi4_lite_scoreboard.sv(68) @ 385: uvm_test_top.env.scb [RRESP] Matched : exp_rresp=0 actual_rresp =0 write = 0 read = 1
UVM_INFO axi4_lite_scoreboard.sv(72) @ 385: uvm_test_top.env.scb [RDATA] Matched : exp_rdata=00000000 actual_rdata =00000000
UVM_INFO axi4_lite_subscriber.sv(41) @ 405: uvm_test_top.env.sb [sb] INPUT COVERAGE = 44.79 %
UVM_INFO axi4_lite_inp_monitor.sv(38) @ 405: uvm_test_top.env.aa.inp_mon [INPUT MONITOR] READ araddr=00000008
UVM_INFO axi4_lite_out_monitor.sv(28) @ 415: uvm_test_top.env.pa.out_mon [OUTPUT MONITOR] BRESP = 0 RRESP = 0 RDATA = 00000000
UVM_INFO axi4_lite_driver.sv(34) @ 415: uvm_test_top.env.aa.drv [DRV] awaddr = 676ad404 wdata = 1c183cc8 wstrb = c araddr = 00000008
UVM_INFO axi4_lite_scoreboard.sv(68) @ 415: uvm_test_top.env.scb [RRESP] Matched : exp_rresp=0 actual_rresp =0 write = 0 read = 1
UVM_INFO axi4_lite_scoreboard.sv(72) @ 415: uvm_test_top.env.scb [RDATA] Matched : exp_rdata=00000000 actual_rdata =00000000
UVM_INFO axi4_lite_subscriber.sv(41) @ 435: uvm_test_top.env.sb [sb] INPUT COVERAGE = 44.79 %
UVM_INFO axi4_lite_inp_monitor.sv(38) @ 435: uvm_test_top.env.aa.inp_mon [INPUT MONITOR] READ araddr=0000000c
UVM_INFO axi4_lite_out_monitor.sv(28) @ 445: uvm_test_top.env.pa.out_mon [OUTPUT MONITOR] BRESP = 0 RRESP = 0 RDATA = 00000000
UVM_INFO axi4_lite_driver.sv(34) @ 445: uvm_test_top.env.aa.drv [DRV] awaddr = aaed48b0 wdata = e723bfe5 wstrb = 3 araddr = 0000000c
UVM_INFO axi4_lite_scoreboard.sv(68) @ 445: uvm_test_top.env.scb [RRESP] Matched : exp_rresp=0 actual_rresp =0 write = 0 read = 1
UVM_INFO axi4_lite_scoreboard.sv(72) @ 445: uvm_test_top.env.scb [RDATA] Matched : exp_rdata=00000000 actual_rdata =00000000
UVM_INFO axi4_lite_subscriber.sv(41) @ 465: uvm_test_top.env.sb [sb] INPUT COVERAGE = 44.79 %
UVM_INFO axi4_lite_inp_monitor.sv(38) @ 465: uvm_test_top.env.aa.inp_mon [INPUT MONITOR] READ araddr=00000010
UVM_INFO axi4_lite_out_monitor.sv(28) @ 475: uvm_test_top.env.pa.out_mon [OUTPUT MONITOR] BRESP = 0 RRESP = 0 RDATA = 00000000
UVM_INFO axi4_lite_driver.sv(34) @ 475: uvm_test_top.env.aa.drv [DRV] awaddr = 93ec8ce8 wdata = c2fa0502 wstrb = 7 araddr = 00000010
UVM_INFO axi4_lite_scoreboard.sv(68) @ 475: uvm_test_top.env.scb [RRESP] Matched : exp_rresp=0 actual_rresp =0 write = 0 read = 1
UVM_INFO axi4_lite_scoreboard.sv(72) @ 475: uvm_test_top.env.scb [RDATA] Matched : exp_rdata=00000000 actual_rdata =00000000
UVM_INFO axi4_lite_subscriber.sv(41) @ 495: uvm_test_top.env.sb [sb] INPUT COVERAGE = 44.79 %
UVM_INFO axi4_lite_inp_monitor.sv(38) @ 495: uvm_test_top.env.aa.inp_mon [INPUT MONITOR] READ araddr=00000024
UVM_INFO axi4_lite_out_monitor.sv(28) @ 505: uvm_test_top.env.pa.out_mon [OUTPUT MONITOR] BRESP = 0 RRESP = 0 RDATA = 00000000
UVM_INFO axi4_lite_driver.sv(34) @ 505: uvm_test_top.env.aa.drv [DRV] awaddr = 0ecf78f8 wdata = fe7da18d wstrb = 2 araddr = 00000024
UVM_INFO axi4_lite_scoreboard.sv(68) @ 505: uvm_test_top.env.scb [RRESP] Matched : exp_rresp=0 actual_rresp =0 write = 0 read = 1
UVM_INFO axi4_lite_scoreboard.sv(72) @ 505: uvm_test_top.env.scb [RDATA] Matched : exp_rdata=00000000 actual_rdata =00000000
UVM_INFO axi4_lite_subscriber.sv(41) @ 525: uvm_test_top.env.sb [sb] INPUT COVERAGE = 44.79 %
UVM_INFO axi4_lite_inp_monitor.sv(38) @ 525: uvm_test_top.env.aa.inp_mon [INPUT MONITOR] READ araddr=00000030
UVM_INFO axi4_lite_out_monitor.sv(28) @ 535: uvm_test_top.env.pa.out_mon [OUTPUT MONITOR] BRESP = 0 RRESP = 0 RDATA = 00000000
UVM_INFO axi4_lite_driver.sv(34) @ 535: uvm_test_top.env.aa.drv [DRV] awaddr = b5c231a0 wdata = 2851a44b wstrb = 3 araddr = 00000030
UVM_INFO axi4_lite_scoreboard.sv(68) @ 535: uvm_test_top.env.scb [RRESP] Matched : exp_rresp=0 actual_rresp =0 write = 0 read = 1
UVM_INFO axi4_lite_scoreboard.sv(72) @ 535: uvm_test_top.env.scb [RDATA] Matched : exp_rdata=00000000 actual_rdata =00000000
UVM_INFO axi4_lite_subscriber.sv(41) @ 555: uvm_test_top.env.sb [sb] INPUT COVERAGE = 44.79 %
UVM_INFO axi4_lite_inp_monitor.sv(38) @ 555: uvm_test_top.env.aa.inp_mon [INPUT MONITOR] READ araddr=00000010
UVM_INFO axi4_lite_out_monitor.sv(28) @ 565: uvm_test_top.env.pa.out_mon [OUTPUT MONITOR] BRESP = 0 RRESP = 0 RDATA = 00000000
UVM_INFO axi4_lite_driver.sv(34) @ 565: uvm_test_top.env.aa.drv [DRV] awaddr = 2f4263a4 wdata = d61fae58 wstrb = 9 araddr = 00000010
UVM_INFO axi4_lite_scoreboard.sv(68) @ 565: uvm_test_top.env.scb [RRESP] Matched : exp_rresp=0 actual_rresp =0 write = 0 read = 1
UVM_INFO axi4_lite_scoreboard.sv(72) @ 565: uvm_test_top.env.scb [RDATA] Matched : exp_rdata=00000000 actual_rdata =00000000
UVM_INFO axi4_lite_subscriber.sv(41) @ 585: uvm_test_top.env.sb [sb] INPUT COVERAGE = 44.79 %
UVM_INFO axi4_lite_inp_monitor.sv(38) @ 585: uvm_test_top.env.aa.inp_mon [INPUT MONITOR] READ araddr=00000034
UVM_INFO axi4_lite_out_monitor.sv(28) @ 595: uvm_test_top.env.pa.out_mon [OUTPUT MONITOR] BRESP = 0 RRESP = 2 RDATA = 00000000
UVM_INFO axi4_lite_driver.sv(34) @ 595: uvm_test_top.env.aa.drv [DRV] awaddr = aa3ebe40 wdata = b4e9dbde wstrb = 4 araddr = 00000034
UVM_INFO axi4_lite_scoreboard.sv(68) @ 595: uvm_test_top.env.scb [RRESP] Matched : exp_rresp=2 actual_rresp =2 write = 0 read = 1
UVM_INFO axi4_lite_scoreboard.sv(72) @ 595: uvm_test_top.env.scb [RDATA] Matched : exp_rdata=00000000 actual_rdata =00000000
UVM_INFO axi4_lite_subscriber.sv(41) @ 615: uvm_test_top.env.sb [sb] INPUT COVERAGE = 44.79 %
UVM_INFO axi4_lite_inp_monitor.sv(38) @ 615: uvm_test_top.env.aa.inp_mon [INPUT MONITOR] READ araddr=0000001c
UVM_INFO axi4_lite_out_monitor.sv(28) @ 625: uvm_test_top.env.pa.out_mon [OUTPUT MONITOR] BRESP = 0 RRESP = 0 RDATA = 00000000
UVM_INFO axi4_lite_driver.sv(34) @ 625: uvm_test_top.env.aa.drv [DRV] awaddr = 915473c8 wdata = 532f6c0a wstrb = 6 araddr = 0000001c
UVM_INFO axi4_lite_scoreboard.sv(68) @ 625: uvm_test_top.env.scb [RRESP] Matched : exp_rresp=0 actual_rresp =0 write = 0 read = 1
UVM_INFO axi4_lite_scoreboard.sv(72) @ 625: uvm_test_top.env.scb [RDATA] Matched : exp_rdata=00000000 actual_rdata =00000000
UVM_INFO axi4_lite_subscriber.sv(41) @ 645: uvm_test_top.env.sb [sb] INPUT COVERAGE = 44.79 %
UVM_INFO axi4_lite_inp_monitor.sv(38) @ 645: uvm_test_top.env.aa.inp_mon [INPUT MONITOR] READ araddr=00000038
UVM_INFO axi4_lite_out_monitor.sv(28) @ 655: uvm_test_top.env.pa.out_mon [OUTPUT MONITOR] BRESP = 0 RRESP = 2 RDATA = 00000000
UVM_INFO axi4_lite_driver.sv(34) @ 655: uvm_test_top.env.aa.drv [DRV] awaddr = da9d0558 wdata = 1bc8a4b9 wstrb = 6 araddr = 00000038
UVM_INFO axi4_lite_scoreboard.sv(68) @ 655: uvm_test_top.env.scb [RRESP] Matched : exp_rresp=2 actual_rresp =2 write = 0 read = 1
UVM_INFO axi4_lite_scoreboard.sv(72) @ 655: uvm_test_top.env.scb [RDATA] Matched : exp_rdata=00000000 actual_rdata =00000000
UVM_INFO axi4_lite_subscriber.sv(41) @ 675: uvm_test_top.env.sb [sb] INPUT COVERAGE = 44.79 %
UVM_INFO axi4_lite_inp_monitor.sv(38) @ 675: uvm_test_top.env.aa.inp_mon [INPUT MONITOR] READ araddr=00000000
UVM_INFO axi4_lite_out_monitor.sv(28) @ 685: uvm_test_top.env.pa.out_mon [OUTPUT MONITOR] BRESP = 0 RRESP = 0 RDATA = 00000000
UVM_INFO axi4_lite_driver.sv(34) @ 685: uvm_test_top.env.aa.drv [DRV] awaddr = b85bab30 wdata = e0bae5d0 wstrb = 3 araddr = 00000000
UVM_INFO axi4_lite_scoreboard.sv(68) @ 685: uvm_test_top.env.scb [RRESP] Matched : exp_rresp=0 actual_rresp =0 write = 0 read = 1
UVM_INFO axi4_lite_scoreboard.sv(72) @ 685: uvm_test_top.env.scb [RDATA] Matched : exp_rdata=00000000 actual_rdata =00000000
UVM_INFO axi4_lite_subscriber.sv(41) @ 705: uvm_test_top.env.sb [sb] INPUT COVERAGE = 44.79 %
UVM_INFO axi4_lite_inp_monitor.sv(38) @ 705: uvm_test_top.env.aa.inp_mon [INPUT MONITOR] READ araddr=00000018
UVM_INFO axi4_lite_out_monitor.sv(28) @ 715: uvm_test_top.env.pa.out_mon [OUTPUT MONITOR] BRESP = 0 RRESP = 0 RDATA = 00000000
UVM_INFO axi4_lite_driver.sv(34) @ 715: uvm_test_top.env.aa.drv [DRV] awaddr = 8c1973c0 wdata = dd29876a wstrb = 4 araddr = 00000018
UVM_INFO axi4_lite_scoreboard.sv(68) @ 715: uvm_test_top.env.scb [RRESP] Matched : exp_rresp=0 actual_rresp =0 write = 0 read = 1
UVM_INFO axi4_lite_scoreboard.sv(72) @ 715: uvm_test_top.env.scb [RDATA] Matched : exp_rdata=00000000 actual_rdata =00000000
UVM_INFO axi4_lite_subscriber.sv(41) @ 735: uvm_test_top.env.sb [sb] INPUT COVERAGE = 44.79 %
UVM_INFO axi4_lite_inp_monitor.sv(38) @ 735: uvm_test_top.env.aa.inp_mon [INPUT MONITOR] READ araddr=00000038
UVM_INFO axi4_lite_out_monitor.sv(28) @ 745: uvm_test_top.env.pa.out_mon [OUTPUT MONITOR] BRESP = 0 RRESP = 2 RDATA = 00000000
UVM_INFO axi4_lite_driver.sv(34) @ 745: uvm_test_top.env.aa.drv [DRV] awaddr = 680d9a54 wdata = 61c6662f wstrb = e araddr = 00000038
UVM_INFO axi4_lite_scoreboard.sv(68) @ 745: uvm_test_top.env.scb [RRESP] Matched : exp_rresp=2 actual_rresp =2 write = 0 read = 1
UVM_INFO axi4_lite_scoreboard.sv(72) @ 745: uvm_test_top.env.scb [RDATA] Matched : exp_rdata=00000000 actual_rdata =00000000
UVM_INFO axi4_lite_subscriber.sv(41) @ 765: uvm_test_top.env.sb [sb] INPUT COVERAGE = 44.79 %
UVM_INFO axi4_lite_inp_monitor.sv(38) @ 765: uvm_test_top.env.aa.inp_mon [INPUT MONITOR] READ araddr=0000001c
UVM_INFO axi4_lite_out_monitor.sv(28) @ 775: uvm_test_top.env.pa.out_mon [OUTPUT MONITOR] BRESP = 0 RRESP = 0 RDATA = 00000000
UVM_INFO axi4_lite_driver.sv(34) @ 775: uvm_test_top.env.aa.drv [DRV] awaddr = c91dea10 wdata = 056cedca wstrb = 6 araddr = 0000001c
UVM_INFO axi4_lite_scoreboard.sv(68) @ 775: uvm_test_top.env.scb [RRESP] Matched : exp_rresp=0 actual_rresp =0 write = 0 read = 1
UVM_INFO axi4_lite_scoreboard.sv(72) @ 775: uvm_test_top.env.scb [RDATA] Matched : exp_rdata=00000000 actual_rdata =00000000
UVM_INFO axi4_lite_subscriber.sv(41) @ 795: uvm_test_top.env.sb [sb] INPUT COVERAGE = 44.79 %
UVM_INFO axi4_lite_inp_monitor.sv(38) @ 795: uvm_test_top.env.aa.inp_mon [INPUT MONITOR] READ araddr=00000024
UVM_INFO axi4_lite_out_monitor.sv(28) @ 805: uvm_test_top.env.pa.out_mon [OUTPUT MONITOR] BRESP = 0 RRESP = 0 RDATA = 00000000
UVM_INFO axi4_lite_driver.sv(34) @ 805: uvm_test_top.env.aa.drv [DRV] awaddr = ffc15b58 wdata = 9b9b1d51 wstrb = c araddr = 00000024
UVM_INFO axi4_lite_scoreboard.sv(68) @ 805: uvm_test_top.env.scb [RRESP] Matched : exp_rresp=0 actual_rresp =0 write = 0 read = 1
UVM_INFO axi4_lite_scoreboard.sv(72) @ 805: uvm_test_top.env.scb [RDATA] Matched : exp_rdata=00000000 actual_rdata =00000000
UVM_INFO axi4_lite_subscriber.sv(41) @ 825: uvm_test_top.env.sb [sb] INPUT COVERAGE = 44.79 %
UVM_INFO axi4_lite_inp_monitor.sv(38) @ 825: uvm_test_top.env.aa.inp_mon [INPUT MONITOR] READ araddr=00000024
UVM_INFO axi4_lite_out_monitor.sv(28) @ 835: uvm_test_top.env.pa.out_mon [OUTPUT MONITOR] BRESP = 0 RRESP = 0 RDATA = 00000000
UVM_INFO axi4_lite_driver.sv(34) @ 835: uvm_test_top.env.aa.drv [DRV] awaddr = 87ae4d60 wdata = f3065864 wstrb = c araddr = 00000024
UVM_INFO axi4_lite_scoreboard.sv(68) @ 835: uvm_test_top.env.scb [RRESP] Matched : exp_rresp=0 actual_rresp =0 write = 0 read = 1
UVM_INFO axi4_lite_scoreboard.sv(72) @ 835: uvm_test_top.env.scb [RDATA] Matched : exp_rdata=00000000 actual_rdata =00000000
UVM_INFO axi4_lite_subscriber.sv(41) @ 855: uvm_test_top.env.sb [sb] INPUT COVERAGE = 44.79 %
UVM_INFO axi4_lite_inp_monitor.sv(38) @ 855: uvm_test_top.env.aa.inp_mon [INPUT MONITOR] READ araddr=00000014
UVM_INFO axi4_lite_out_monitor.sv(28) @ 865: uvm_test_top.env.pa.out_mon [OUTPUT MONITOR] BRESP = 0 RRESP = 0 RDATA = 00000000
UVM_INFO axi4_lite_driver.sv(34) @ 865: uvm_test_top.env.aa.drv [DRV] awaddr = 44bf6480 wdata = 60b96692 wstrb = 5 araddr = 00000014
UVM_INFO axi4_lite_scoreboard.sv(68) @ 865: uvm_test_top.env.scb [RRESP] Matched : exp_rresp=0 actual_rresp =0 write = 0 read = 1
UVM_INFO axi4_lite_scoreboard.sv(72) @ 865: uvm_test_top.env.scb [RDATA] Matched : exp_rdata=00000000 actual_rdata =00000000
UVM_INFO axi4_lite_subscriber.sv(41) @ 885: uvm_test_top.env.sb [sb] INPUT COVERAGE = 44.79 %
UVM_INFO axi4_lite_inp_monitor.sv(38) @ 885: uvm_test_top.env.aa.inp_mon [INPUT MONITOR] READ araddr=00000000
UVM_INFO axi4_lite_out_monitor.sv(28) @ 895: uvm_test_top.env.pa.out_mon [OUTPUT MONITOR] BRESP = 0 RRESP = 0 RDATA = 00000000
UVM_INFO axi4_lite_driver.sv(34) @ 895: uvm_test_top.env.aa.drv [DRV] awaddr = 407633b0 wdata = e37d0a66 wstrb = 8 araddr = 00000000
UVM_INFO axi4_lite_scoreboard.sv(68) @ 895: uvm_test_top.env.scb [RRESP] Matched : exp_rresp=0 actual_rresp =0 write = 0 read = 1
UVM_INFO axi4_lite_scoreboard.sv(72) @ 895: uvm_test_top.env.scb [RDATA] Matched : exp_rdata=00000000 actual_rdata =00000000
UVM_INFO axi4_lite_subscriber.sv(41) @ 915: uvm_test_top.env.sb [sb] INPUT COVERAGE = 44.79 %
UVM_INFO axi4_lite_inp_monitor.sv(38) @ 915: uvm_test_top.env.aa.inp_mon [INPUT MONITOR] READ araddr=00000008
UVM_INFO axi4_lite_out_monitor.sv(28) @ 925: uvm_test_top.env.pa.out_mon [OUTPUT MONITOR] BRESP = 0 RRESP = 0 RDATA = 00000000
UVM_INFO axi4_lite_driver.sv(34) @ 925: uvm_test_top.env.aa.drv [DRV] awaddr = 2c425464 wdata = 50c5ee5b wstrb = 4 araddr = 00000008
UVM_INFO axi4_lite_scoreboard.sv(68) @ 925: uvm_test_top.env.scb [RRESP] Matched : exp_rresp=0 actual_rresp =0 write = 0 read = 1
UVM_INFO axi4_lite_scoreboard.sv(72) @ 925: uvm_test_top.env.scb [RDATA] Matched : exp_rdata=00000000 actual_rdata =00000000
UVM_INFO axi4_lite_subscriber.sv(41) @ 945: uvm_test_top.env.sb [sb] INPUT COVERAGE = 44.79 %
UVM_INFO axi4_lite_inp_monitor.sv(38) @ 945: uvm_test_top.env.aa.inp_mon [INPUT MONITOR] READ araddr=00000018
UVM_INFO axi4_lite_out_monitor.sv(28) @ 955: uvm_test_top.env.pa.out_mon [OUTPUT MONITOR] BRESP = 0 RRESP = 0 RDATA = 00000000
UVM_INFO axi4_lite_driver.sv(34) @ 955: uvm_test_top.env.aa.drv [DRV] awaddr = 33beab2c wdata = 53e99739 wstrb = a araddr = 00000018
UVM_INFO axi4_lite_scoreboard.sv(68) @ 955: uvm_test_top.env.scb [RRESP] Matched : exp_rresp=0 actual_rresp =0 write = 0 read = 1
UVM_INFO axi4_lite_scoreboard.sv(72) @ 955: uvm_test_top.env.scb [RDATA] Matched : exp_rdata=00000000 actual_rdata =00000000
UVM_INFO axi4_lite_subscriber.sv(41) @ 975: uvm_test_top.env.sb [sb] INPUT COVERAGE = 44.79 %
UVM_INFO axi4_lite_inp_monitor.sv(38) @ 975: uvm_test_top.env.aa.inp_mon [INPUT MONITOR] READ araddr=00000030
UVM_INFO axi4_lite_out_monitor.sv(28) @ 985: uvm_test_top.env.pa.out_mon [OUTPUT MONITOR] BRESP = 0 RRESP = 0 RDATA = 00000000
UVM_INFO axi4_lite_driver.sv(34) @ 985: uvm_test_top.env.aa.drv [DRV] awaddr = 17802008 wdata = eadced97 wstrb = 4 araddr = 00000030
UVM_INFO axi4_lite_scoreboard.sv(68) @ 985: uvm_test_top.env.scb [RRESP] Matched : exp_rresp=0 actual_rresp =0 write = 0 read = 1
UVM_INFO axi4_lite_scoreboard.sv(72) @ 985: uvm_test_top.env.scb [RDATA] Matched : exp_rdata=00000000 actual_rdata =00000000
UVM_INFO axi4_lite_subscriber.sv(41) @ 1005: uvm_test_top.env.sb [sb] INPUT COVERAGE = 44.79 %
UVM_INFO axi4_lite_inp_monitor.sv(38) @ 1005: uvm_test_top.env.aa.inp_mon [INPUT MONITOR] READ araddr=00000014
UVM_INFO axi4_lite_out_monitor.sv(28) @ 1015: uvm_test_top.env.pa.out_mon [OUTPUT MONITOR] BRESP = 0 RRESP = 0 RDATA = 00000000
UVM_INFO axi4_lite_driver.sv(34) @ 1015: uvm_test_top.env.aa.drv [DRV] awaddr = 13fbc920 wdata = 17821d65 wstrb = 2 araddr = 00000014
UVM_INFO axi4_lite_scoreboard.sv(68) @ 1015: uvm_test_top.env.scb [RRESP] Matched : exp_rresp=0 actual_rresp =0 write = 0 read = 1
UVM_INFO axi4_lite_scoreboard.sv(72) @ 1015: uvm_test_top.env.scb [RDATA] Matched : exp_rdata=00000000 actual_rdata =00000000
UVM_INFO axi4_lite_subscriber.sv(41) @ 1035: uvm_test_top.env.sb [sb] INPUT COVERAGE = 44.79 %
UVM_INFO axi4_lite_inp_monitor.sv(38) @ 1035: uvm_test_top.env.aa.inp_mon [INPUT MONITOR] READ araddr=00000020
UVM_INFO axi4_lite_out_monitor.sv(28) @ 1045: uvm_test_top.env.pa.out_mon [OUTPUT MONITOR] BRESP = 0 RRESP = 0 RDATA = 00000000
UVM_INFO axi4_lite_driver.sv(34) @ 1045: uvm_test_top.env.aa.drv [DRV] awaddr = e6849f5c wdata = 1f34ba7b wstrb = c araddr = 00000020
UVM_INFO axi4_lite_scoreboard.sv(68) @ 1045: uvm_test_top.env.scb [RRESP] Matched : exp_rresp=0 actual_rresp =0 write = 0 read = 1
UVM_INFO axi4_lite_scoreboard.sv(72) @ 1045: uvm_test_top.env.scb [RDATA] Matched : exp_rdata=00000000 actual_rdata =00000000
UVM_INFO axi4_lite_subscriber.sv(41) @ 1065: uvm_test_top.env.sb [sb] INPUT COVERAGE = 44.79 %
UVM_INFO axi4_lite_inp_monitor.sv(38) @ 1065: uvm_test_top.env.aa.inp_mon [INPUT MONITOR] READ araddr=00000028
UVM_INFO axi4_lite_out_monitor.sv(28) @ 1075: uvm_test_top.env.pa.out_mon [OUTPUT MONITOR] BRESP = 0 RRESP = 0 RDATA = 00000000
UVM_INFO axi4_lite_driver.sv(34) @ 1075: uvm_test_top.env.aa.drv [DRV] awaddr = e7cf2320 wdata = c6ff4011 wstrb = c araddr = 00000028
UVM_INFO axi4_lite_scoreboard.sv(68) @ 1075: uvm_test_top.env.scb [RRESP] Matched : exp_rresp=0 actual_rresp =0 write = 0 read = 1
UVM_INFO axi4_lite_scoreboard.sv(72) @ 1075: uvm_test_top.env.scb [RDATA] Matched : exp_rdata=00000000 actual_rdata =00000000
UVM_INFO axi4_lite_subscriber.sv(41) @ 1095: uvm_test_top.env.sb [sb] INPUT COVERAGE = 44.79 %
UVM_INFO axi4_lite_inp_monitor.sv(38) @ 1095: uvm_test_top.env.aa.inp_mon [INPUT MONITOR] READ araddr=00000018
UVM_INFO axi4_lite_out_monitor.sv(28) @ 1105: uvm_test_top.env.pa.out_mon [OUTPUT MONITOR] BRESP = 0 RRESP = 0 RDATA = 00000000
UVM_INFO axi4_lite_driver.sv(34) @ 1105: uvm_test_top.env.aa.drv [DRV] awaddr = 2dcb0b64 wdata = f11c8649 wstrb = 5 araddr = 00000018
UVM_INFO axi4_lite_scoreboard.sv(68) @ 1105: uvm_test_top.env.scb [RRESP] Matched : exp_rresp=0 actual_rresp =0 write = 0 read = 1
UVM_INFO axi4_lite_scoreboard.sv(72) @ 1105: uvm_test_top.env.scb [RDATA] Matched : exp_rdata=00000000 actual_rdata =00000000
UVM_INFO axi4_lite_subscriber.sv(41) @ 1125: uvm_test_top.env.sb [sb] INPUT COVERAGE = 44.79 %
UVM_INFO axi4_lite_inp_monitor.sv(38) @ 1125: uvm_test_top.env.aa.inp_mon [INPUT MONITOR] READ araddr=00000018
UVM_INFO axi4_lite_out_monitor.sv(28) @ 1135: uvm_test_top.env.pa.out_mon [OUTPUT MONITOR] BRESP = 0 RRESP = 0 RDATA = 00000000
UVM_INFO axi4_lite_driver.sv(34) @ 1135: uvm_test_top.env.aa.drv [DRV] awaddr = 2fcffeb4 wdata = f285ae0e wstrb = a araddr = 00000018
UVM_INFO axi4_lite_scoreboard.sv(68) @ 1135: uvm_test_top.env.scb [RRESP] Matched : exp_rresp=0 actual_rresp =0 write = 0 read = 1
UVM_INFO axi4_lite_scoreboard.sv(72) @ 1135: uvm_test_top.env.scb [RDATA] Matched : exp_rdata=00000000 actual_rdata =00000000
UVM_INFO axi4_lite_subscriber.sv(41) @ 1155: uvm_test_top.env.sb [sb] INPUT COVERAGE = 44.79 %
UVM_INFO axi4_lite_inp_monitor.sv(38) @ 1155: uvm_test_top.env.aa.inp_mon [INPUT MONITOR] READ araddr=00000030
UVM_INFO axi4_lite_out_monitor.sv(28) @ 1165: uvm_test_top.env.pa.out_mon [OUTPUT MONITOR] BRESP = 0 RRESP = 0 RDATA = 00000000
UVM_INFO axi4_lite_driver.sv(34) @ 1165: uvm_test_top.env.aa.drv [DRV] awaddr = f1d70408 wdata = e46302a7 wstrb = 9 araddr = 00000030
UVM_INFO axi4_lite_scoreboard.sv(68) @ 1165: uvm_test_top.env.scb [RRESP] Matched : exp_rresp=0 actual_rresp =0 write = 0 read = 1
UVM_INFO axi4_lite_scoreboard.sv(72) @ 1165: uvm_test_top.env.scb [RDATA] Matched : exp_rdata=00000000 actual_rdata =00000000
UVM_INFO axi4_lite_subscriber.sv(41) @ 1185: uvm_test_top.env.sb [sb] INPUT COVERAGE = 44.79 %
UVM_INFO axi4_lite_inp_monitor.sv(38) @ 1185: uvm_test_top.env.aa.inp_mon [INPUT MONITOR] READ araddr=00000034
UVM_INFO axi4_lite_out_monitor.sv(28) @ 1195: uvm_test_top.env.pa.out_mon [OUTPUT MONITOR] BRESP = 0 RRESP = 2 RDATA = 00000000
UVM_INFO axi4_lite_driver.sv(34) @ 1195: uvm_test_top.env.aa.drv [DRV] awaddr = 133e4798 wdata = a5848cb9 wstrb = d araddr = 00000034
UVM_INFO axi4_lite_scoreboard.sv(68) @ 1195: uvm_test_top.env.scb [RRESP] Matched : exp_rresp=2 actual_rresp =2 write = 0 read = 1
UVM_INFO axi4_lite_scoreboard.sv(72) @ 1195: uvm_test_top.env.scb [RDATA] Matched : exp_rdata=00000000 actual_rdata =00000000
UVM_INFO axi4_lite_subscriber.sv(41) @ 1215: uvm_test_top.env.sb [sb] INPUT COVERAGE = 44.79 %
UVM_INFO axi4_lite_inp_monitor.sv(38) @ 1215: uvm_test_top.env.aa.inp_mon [INPUT MONITOR] READ araddr=00000018
UVM_INFO axi4_lite_out_monitor.sv(28) @ 1225: uvm_test_top.env.pa.out_mon [OUTPUT MONITOR] BRESP = 0 RRESP = 0 RDATA = 00000000
UVM_INFO axi4_lite_driver.sv(34) @ 1225: uvm_test_top.env.aa.drv [DRV] awaddr = 62dabd30 wdata = c49d0cf0 wstrb = 7 araddr = 00000018
UVM_INFO axi4_lite_scoreboard.sv(68) @ 1225: uvm_test_top.env.scb [RRESP] Matched : exp_rresp=0 actual_rresp =0 write = 0 read = 1
UVM_INFO axi4_lite_scoreboard.sv(72) @ 1225: uvm_test_top.env.scb [RDATA] Matched : exp_rdata=00000000 actual_rdata =00000000
UVM_INFO axi4_lite_subscriber.sv(41) @ 1245: uvm_test_top.env.sb [sb] INPUT COVERAGE = 44.79 %
UVM_INFO axi4_lite_inp_monitor.sv(38) @ 1245: uvm_test_top.env.aa.inp_mon [INPUT MONITOR] READ araddr=00000028
UVM_INFO axi4_lite_out_monitor.sv(28) @ 1255: uvm_test_top.env.pa.out_mon [OUTPUT MONITOR] BRESP = 0 RRESP = 0 RDATA = 00000000
UVM_INFO axi4_lite_driver.sv(34) @ 1255: uvm_test_top.env.aa.drv [DRV] awaddr = 4cceb0ac wdata = bc9ade69 wstrb = 6 araddr = 00000028
UVM_INFO axi4_lite_scoreboard.sv(68) @ 1255: uvm_test_top.env.scb [RRESP] Matched : exp_rresp=0 actual_rresp =0 write = 0 read = 1
UVM_INFO axi4_lite_scoreboard.sv(72) @ 1255: uvm_test_top.env.scb [RDATA] Matched : exp_rdata=00000000 actual_rdata =00000000
UVM_INFO axi4_lite_subscriber.sv(41) @ 1275: uvm_test_top.env.sb [sb] INPUT COVERAGE = 44.79 %
UVM_INFO axi4_lite_inp_monitor.sv(38) @ 1275: uvm_test_top.env.aa.inp_mon [INPUT MONITOR] READ araddr=0000000c
UVM_INFO axi4_lite_out_monitor.sv(28) @ 1285: uvm_test_top.env.pa.out_mon [OUTPUT MONITOR] BRESP = 0 RRESP = 0 RDATA = 00000000
UVM_INFO axi4_lite_driver.sv(34) @ 1285: uvm_test_top.env.aa.drv [DRV] awaddr = d247c87c wdata = a0e6a30d wstrb = 8 araddr = 0000000c
UVM_INFO axi4_lite_scoreboard.sv(68) @ 1285: uvm_test_top.env.scb [RRESP] Matched : exp_rresp=0 actual_rresp =0 write = 0 read = 1
UVM_INFO axi4_lite_scoreboard.sv(72) @ 1285: uvm_test_top.env.scb [RDATA] Matched : exp_rdata=00000000 actual_rdata =00000000
UVM_INFO axi4_lite_subscriber.sv(41) @ 1305: uvm_test_top.env.sb [sb] INPUT COVERAGE = 44.79 %
UVM_INFO axi4_lite_inp_monitor.sv(38) @ 1305: uvm_test_top.env.aa.inp_mon [INPUT MONITOR] READ araddr=00000010
UVM_INFO axi4_lite_out_monitor.sv(28) @ 1315: uvm_test_top.env.pa.out_mon [OUTPUT MONITOR] BRESP = 0 RRESP = 0 RDATA = 00000000
UVM_INFO axi4_lite_driver.sv(34) @ 1315: uvm_test_top.env.aa.drv [DRV] awaddr = 0938c0d0 wdata = dcdd314c wstrb = a araddr = 00000010
UVM_INFO axi4_lite_scoreboard.sv(68) @ 1315: uvm_test_top.env.scb [RRESP] Matched : exp_rresp=0 actual_rresp =0 write = 0 read = 1
UVM_INFO axi4_lite_scoreboard.sv(72) @ 1315: uvm_test_top.env.scb [RDATA] Matched : exp_rdata=00000000 actual_rdata =00000000
UVM_INFO axi4_lite_subscriber.sv(41) @ 1335: uvm_test_top.env.sb [sb] INPUT COVERAGE = 44.79 %
UVM_INFO axi4_lite_inp_monitor.sv(38) @ 1335: uvm_test_top.env.aa.inp_mon [INPUT MONITOR] READ araddr=0000001c
UVM_INFO axi4_lite_out_monitor.sv(28) @ 1345: uvm_test_top.env.pa.out_mon [OUTPUT MONITOR] BRESP = 0 RRESP = 0 RDATA = 00000000
UVM_INFO axi4_lite_driver.sv(34) @ 1345: uvm_test_top.env.aa.drv [DRV] awaddr = 4bd55344 wdata = d9814a3b wstrb = 9 araddr = 0000001c
UVM_INFO axi4_lite_scoreboard.sv(68) @ 1345: uvm_test_top.env.scb [RRESP] Matched : exp_rresp=0 actual_rresp =0 write = 0 read = 1
UVM_INFO axi4_lite_scoreboard.sv(72) @ 1345: uvm_test_top.env.scb [RDATA] Matched : exp_rdata=00000000 actual_rdata =00000000
UVM_INFO axi4_lite_subscriber.sv(41) @ 1365: uvm_test_top.env.sb [sb] INPUT COVERAGE = 44.79 %
UVM_INFO axi4_lite_inp_monitor.sv(38) @ 1365: uvm_test_top.env.aa.inp_mon [INPUT MONITOR] READ araddr=00000008
UVM_INFO axi4_lite_out_monitor.sv(28) @ 1375: uvm_test_top.env.pa.out_mon [OUTPUT MONITOR] BRESP = 0 RRESP = 0 RDATA = 00000000
UVM_INFO axi4_lite_driver.sv(34) @ 1375: uvm_test_top.env.aa.drv [DRV] awaddr = 0019a344 wdata = 3392a256 wstrb = 4 araddr = 00000008
UVM_INFO axi4_lite_scoreboard.sv(68) @ 1375: uvm_test_top.env.scb [RRESP] Matched : exp_rresp=0 actual_rresp =0 write = 0 read = 1
UVM_INFO axi4_lite_scoreboard.sv(72) @ 1375: uvm_test_top.env.scb [RDATA] Matched : exp_rdata=00000000 actual_rdata =00000000
UVM_INFO axi4_lite_subscriber.sv(41) @ 1395: uvm_test_top.env.sb [sb] INPUT COVERAGE = 44.79 %
UVM_INFO axi4_lite_inp_monitor.sv(38) @ 1395: uvm_test_top.env.aa.inp_mon [INPUT MONITOR] READ araddr=00000028
UVM_INFO axi4_lite_out_monitor.sv(28) @ 1405: uvm_test_top.env.pa.out_mon [OUTPUT MONITOR] BRESP = 0 RRESP = 0 RDATA = 00000000
UVM_INFO axi4_lite_driver.sv(34) @ 1405: uvm_test_top.env.aa.drv [DRV] awaddr = 946b9478 wdata = 0a724900 wstrb = 3 araddr = 00000028
UVM_INFO axi4_lite_scoreboard.sv(68) @ 1405: uvm_test_top.env.scb [RRESP] Matched : exp_rresp=0 actual_rresp =0 write = 0 read = 1
UVM_INFO axi4_lite_scoreboard.sv(72) @ 1405: uvm_test_top.env.scb [RDATA] Matched : exp_rdata=00000000 actual_rdata =00000000
UVM_INFO axi4_lite_subscriber.sv(41) @ 1425: uvm_test_top.env.sb [sb] INPUT COVERAGE = 44.79 %
UVM_INFO axi4_lite_inp_monitor.sv(38) @ 1425: uvm_test_top.env.aa.inp_mon [INPUT MONITOR] READ araddr=00000038
UVM_INFO axi4_lite_out_monitor.sv(28) @ 1435: uvm_test_top.env.pa.out_mon [OUTPUT MONITOR] BRESP = 0 RRESP = 2 RDATA = 00000000
UVM_INFO axi4_lite_driver.sv(34) @ 1435: uvm_test_top.env.aa.drv [DRV] awaddr = 1428d120 wdata = cdf0ac81 wstrb = 5 araddr = 00000038
UVM_INFO axi4_lite_scoreboard.sv(68) @ 1435: uvm_test_top.env.scb [RRESP] Matched : exp_rresp=2 actual_rresp =2 write = 0 read = 1
UVM_INFO axi4_lite_scoreboard.sv(72) @ 1435: uvm_test_top.env.scb [RDATA] Matched : exp_rdata=00000000 actual_rdata =00000000
UVM_INFO axi4_lite_subscriber.sv(41) @ 1455: uvm_test_top.env.sb [sb] INPUT COVERAGE = 44.79 %
UVM_INFO axi4_lite_inp_monitor.sv(38) @ 1455: uvm_test_top.env.aa.inp_mon [INPUT MONITOR] READ araddr=00000020
UVM_INFO axi4_lite_out_monitor.sv(28) @ 1465: uvm_test_top.env.pa.out_mon [OUTPUT MONITOR] BRESP = 0 RRESP = 0 RDATA = 00000000
UVM_INFO axi4_lite_driver.sv(34) @ 1465: uvm_test_top.env.aa.drv [DRV] awaddr = 6de93514 wdata = ecdd992f wstrb = 9 araddr = 00000020
UVM_INFO axi4_lite_scoreboard.sv(68) @ 1465: uvm_test_top.env.scb [RRESP] Matched : exp_rresp=0 actual_rresp =0 write = 0 read = 1
UVM_INFO axi4_lite_scoreboard.sv(72) @ 1465: uvm_test_top.env.scb [RDATA] Matched : exp_rdata=00000000 actual_rdata =00000000
UVM_INFO axi4_lite_subscriber.sv(41) @ 1485: uvm_test_top.env.sb [sb] INPUT COVERAGE = 44.79 %
UVM_INFO axi4_lite_inp_monitor.sv(38) @ 1485: uvm_test_top.env.aa.inp_mon [INPUT MONITOR] READ araddr=00000020
UVM_INFO axi4_lite_out_monitor.sv(28) @ 1495: uvm_test_top.env.pa.out_mon [OUTPUT MONITOR] BRESP = 0 RRESP = 0 RDATA = 00000000
UVM_INFO axi4_lite_driver.sv(34) @ 1495: uvm_test_top.env.aa.drv [DRV] awaddr = 0b8ead20 wdata = cc1907e8 wstrb = 3 araddr = 00000020
UVM_INFO axi4_lite_scoreboard.sv(68) @ 1495: uvm_test_top.env.scb [RRESP] Matched : exp_rresp=0 actual_rresp =0 write = 0 read = 1
UVM_INFO axi4_lite_scoreboard.sv(72) @ 1495: uvm_test_top.env.scb [RDATA] Matched : exp_rdata=00000000 actual_rdata =00000000
UVM_INFO axi4_lite_subscriber.sv(41) @ 1515: uvm_test_top.env.sb [sb] INPUT COVERAGE = 44.79 %
UVM_INFO axi4_lite_inp_monitor.sv(38) @ 1515: uvm_test_top.env.aa.inp_mon [INPUT MONITOR] READ araddr=00000030
UVM_INFO axi4_lite_out_monitor.sv(28) @ 1525: uvm_test_top.env.pa.out_mon [OUTPUT MONITOR] BRESP = 0 RRESP = 0 RDATA = 00000000
UVM_INFO axi4_lite_driver.sv(34) @ 1525: uvm_test_top.env.aa.drv [DRV] awaddr = c1e81db4 wdata = 18f79129 wstrb = 5 araddr = 00000030
UVM_INFO axi4_lite_scoreboard.sv(68) @ 1525: uvm_test_top.env.scb [RRESP] Matched : exp_rresp=0 actual_rresp =0 write = 0 read = 1
UVM_INFO axi4_lite_scoreboard.sv(72) @ 1525: uvm_test_top.env.scb [RDATA] Matched : exp_rdata=00000000 actual_rdata =00000000
UVM_INFO axi4_lite_subscriber.sv(41) @ 1545: uvm_test_top.env.sb [sb] INPUT COVERAGE = 44.79 %
UVM_INFO axi4_lite_inp_monitor.sv(38) @ 1545: uvm_test_top.env.aa.inp_mon [INPUT MONITOR] READ araddr=00000038
UVM_INFO axi4_lite_out_monitor.sv(28) @ 1555: uvm_test_top.env.pa.out_mon [OUTPUT MONITOR] BRESP = 0 RRESP = 2 RDATA = 00000000
UVM_INFO axi4_lite_driver.sv(34) @ 1555: uvm_test_top.env.aa.drv [DRV] awaddr = 0d73a83c wdata = 30eb1d74 wstrb = f araddr = 00000038
UVM_INFO axi4_lite_scoreboard.sv(68) @ 1555: uvm_test_top.env.scb [RRESP] Matched : exp_rresp=2 actual_rresp =2 write = 0 read = 1
UVM_INFO axi4_lite_scoreboard.sv(72) @ 1555: uvm_test_top.env.scb [RDATA] Matched : exp_rdata=00000000 actual_rdata =00000000
UVM_INFO axi4_lite_subscriber.sv(41) @ 1575: uvm_test_top.env.sb [sb] INPUT COVERAGE = 44.79 %
UVM_INFO axi4_lite_inp_monitor.sv(38) @ 1575: uvm_test_top.env.aa.inp_mon [INPUT MONITOR] READ araddr=0000001c
UVM_INFO axi4_lite_out_monitor.sv(28) @ 1585: uvm_test_top.env.pa.out_mon [OUTPUT MONITOR] BRESP = 0 RRESP = 0 RDATA = 00000000
UVM_INFO axi4_lite_driver.sv(34) @ 1585: uvm_test_top.env.aa.drv [DRV] awaddr = d738a100 wdata = e90d40b0 wstrb = 9 araddr = 0000001c
UVM_INFO axi4_lite_scoreboard.sv(68) @ 1585: uvm_test_top.env.scb [RRESP] Matched : exp_rresp=0 actual_rresp =0 write = 0 read = 1
UVM_INFO axi4_lite_scoreboard.sv(72) @ 1585: uvm_test_top.env.scb [RDATA] Matched : exp_rdata=00000000 actual_rdata =00000000
UVM_INFO axi4_lite_subscriber.sv(41) @ 1605: uvm_test_top.env.sb [sb] INPUT COVERAGE = 44.79 %
UVM_INFO axi4_lite_inp_monitor.sv(38) @ 1605: uvm_test_top.env.aa.inp_mon [INPUT MONITOR] READ araddr=00000038
UVM_INFO axi4_lite_out_monitor.sv(28) @ 1615: uvm_test_top.env.pa.out_mon [OUTPUT MONITOR] BRESP = 0 RRESP = 2 RDATA = 00000000
UVM_INFO axi4_lite_driver.sv(34) @ 1615: uvm_test_top.env.aa.drv [DRV] awaddr = 43dc1bf4 wdata = 6cef25a3 wstrb = a araddr = 00000038
UVM_INFO axi4_lite_scoreboard.sv(68) @ 1615: uvm_test_top.env.scb [RRESP] Matched : exp_rresp=2 actual_rresp =2 write = 0 read = 1
UVM_INFO axi4_lite_scoreboard.sv(72) @ 1615: uvm_test_top.env.scb [RDATA] Matched : exp_rdata=00000000 actual_rdata =00000000
UVM_INFO axi4_lite_subscriber.sv(41) @ 1635: uvm_test_top.env.sb [sb] INPUT COVERAGE = 44.79 %
UVM_INFO axi4_lite_inp_monitor.sv(38) @ 1635: uvm_test_top.env.aa.inp_mon [INPUT MONITOR] READ araddr=00000020
UVM_INFO axi4_lite_out_monitor.sv(28) @ 1645: uvm_test_top.env.pa.out_mon [OUTPUT MONITOR] BRESP = 0 RRESP = 0 RDATA = 00000000
UVM_INFO axi4_lite_driver.sv(34) @ 1645: uvm_test_top.env.aa.drv [DRV] awaddr = d5d7a468 wdata = d2d142bc wstrb = a araddr = 00000020
UVM_INFO axi4_lite_scoreboard.sv(68) @ 1645: uvm_test_top.env.scb [RRESP] Matched : exp_rresp=0 actual_rresp =0 write = 0 read = 1
UVM_INFO axi4_lite_scoreboard.sv(72) @ 1645: uvm_test_top.env.scb [RDATA] Matched : exp_rdata=00000000 actual_rdata =00000000
UVM_INFO axi4_lite_subscriber.sv(41) @ 1665: uvm_test_top.env.sb [sb] INPUT COVERAGE = 44.79 %
UVM_INFO axi4_lite_inp_monitor.sv(38) @ 1665: uvm_test_top.env.aa.inp_mon [INPUT MONITOR] READ araddr=00000000
UVM_INFO axi4_lite_out_monitor.sv(28) @ 1675: uvm_test_top.env.pa.out_mon [OUTPUT MONITOR] BRESP = 0 RRESP = 0 RDATA = 00000000
UVM_INFO axi4_lite_driver.sv(34) @ 1675: uvm_test_top.env.aa.drv [DRV] awaddr = d4a35b68 wdata = 5ef2c6b3 wstrb = 8 araddr = 00000000
UVM_INFO axi4_lite_scoreboard.sv(68) @ 1675: uvm_test_top.env.scb [RRESP] Matched : exp_rresp=0 actual_rresp =0 write = 0 read = 1
UVM_INFO axi4_lite_scoreboard.sv(72) @ 1675: uvm_test_top.env.scb [RDATA] Matched : exp_rdata=00000000 actual_rdata =00000000
UVM_INFO axi4_lite_subscriber.sv(41) @ 1695: uvm_test_top.env.sb [sb] INPUT COVERAGE = 44.79 %
UVM_INFO axi4_lite_inp_monitor.sv(38) @ 1695: uvm_test_top.env.aa.inp_mon [INPUT MONITOR] READ araddr=00000008
UVM_INFO axi4_lite_out_monitor.sv(28) @ 1705: uvm_test_top.env.pa.out_mon [OUTPUT MONITOR] BRESP = 0 RRESP = 0 RDATA = 00000000
UVM_INFO axi4_lite_driver.sv(34) @ 1705: uvm_test_top.env.aa.drv [DRV] awaddr = 8d18bcbc wdata = 1ac10052 wstrb = 3 araddr = 00000008
UVM_INFO axi4_lite_scoreboard.sv(68) @ 1705: uvm_test_top.env.scb [RRESP] Matched : exp_rresp=0 actual_rresp =0 write = 0 read = 1
UVM_INFO axi4_lite_scoreboard.sv(72) @ 1705: uvm_test_top.env.scb [RDATA] Matched : exp_rdata=00000000 actual_rdata =00000000
UVM_INFO axi4_lite_subscriber.sv(41) @ 1725: uvm_test_top.env.sb [sb] INPUT COVERAGE = 44.79 %
UVM_INFO axi4_lite_inp_monitor.sv(38) @ 1725: uvm_test_top.env.aa.inp_mon [INPUT MONITOR] READ araddr=00000034
UVM_INFO axi4_lite_out_monitor.sv(28) @ 1735: uvm_test_top.env.pa.out_mon [OUTPUT MONITOR] BRESP = 0 RRESP = 2 RDATA = 00000000
UVM_INFO axi4_lite_driver.sv(34) @ 1735: uvm_test_top.env.aa.drv [DRV] awaddr = 4129004c wdata = 16de78b0 wstrb = 9 araddr = 00000034
UVM_INFO axi4_lite_scoreboard.sv(68) @ 1735: uvm_test_top.env.scb [RRESP] Matched : exp_rresp=2 actual_rresp =2 write = 0 read = 1
UVM_INFO axi4_lite_scoreboard.sv(72) @ 1735: uvm_test_top.env.scb [RDATA] Matched : exp_rdata=00000000 actual_rdata =00000000
UVM_INFO axi4_lite_subscriber.sv(41) @ 1755: uvm_test_top.env.sb [sb] INPUT COVERAGE = 44.79 %
UVM_INFO axi4_lite_inp_monitor.sv(38) @ 1755: uvm_test_top.env.aa.inp_mon [INPUT MONITOR] READ araddr=00000038
UVM_INFO axi4_lite_out_monitor.sv(28) @ 1765: uvm_test_top.env.pa.out_mon [OUTPUT MONITOR] BRESP = 0 RRESP = 2 RDATA = 00000000
UVM_INFO axi4_lite_driver.sv(34) @ 1765: uvm_test_top.env.aa.drv [DRV] awaddr = 268e6274 wdata = 1ea2c2b6 wstrb = d araddr = 00000038
UVM_INFO axi4_lite_scoreboard.sv(68) @ 1765: uvm_test_top.env.scb [RRESP] Matched : exp_rresp=2 actual_rresp =2 write = 0 read = 1
UVM_INFO axi4_lite_scoreboard.sv(72) @ 1765: uvm_test_top.env.scb [RDATA] Matched : exp_rdata=00000000 actual_rdata =00000000
UVM_INFO axi4_lite_subscriber.sv(41) @ 1785: uvm_test_top.env.sb [sb] INPUT COVERAGE = 44.79 %
UVM_INFO axi4_lite_inp_monitor.sv(38) @ 1785: uvm_test_top.env.aa.inp_mon [INPUT MONITOR] READ araddr=0000000c
UVM_INFO axi4_lite_out_monitor.sv(28) @ 1795: uvm_test_top.env.pa.out_mon [OUTPUT MONITOR] BRESP = 0 RRESP = 0 RDATA = 00000000
UVM_INFO axi4_lite_driver.sv(34) @ 1795: uvm_test_top.env.aa.drv [DRV] awaddr = a9ff3a7c wdata = 90231b7a wstrb = 0 araddr = 0000000c
UVM_INFO axi4_lite_scoreboard.sv(68) @ 1795: uvm_test_top.env.scb [RRESP] Matched : exp_rresp=0 actual_rresp =0 write = 0 read = 1
UVM_INFO axi4_lite_scoreboard.sv(72) @ 1795: uvm_test_top.env.scb [RDATA] Matched : exp_rdata=00000000 actual_rdata =00000000
UVM_INFO axi4_lite_subscriber.sv(41) @ 1815: uvm_test_top.env.sb [sb] INPUT COVERAGE = 44.79 %
UVM_INFO axi4_lite_inp_monitor.sv(38) @ 1815: uvm_test_top.env.aa.inp_mon [INPUT MONITOR] READ araddr=00000008
UVM_INFO axi4_lite_out_monitor.sv(28) @ 1825: uvm_test_top.env.pa.out_mon [OUTPUT MONITOR] BRESP = 0 RRESP = 0 RDATA = 00000000
UVM_INFO axi4_lite_driver.sv(34) @ 1825: uvm_test_top.env.aa.drv [DRV] awaddr = 90ccad04 wdata = eedaf3e5 wstrb = 2 araddr = 00000008
UVM_INFO axi4_lite_scoreboard.sv(68) @ 1825: uvm_test_top.env.scb [RRESP] Matched : exp_rresp=0 actual_rresp =0 write = 0 read = 1
UVM_INFO axi4_lite_scoreboard.sv(72) @ 1825: uvm_test_top.env.scb [RDATA] Matched : exp_rdata=00000000 actual_rdata =00000000
UVM_INFO axi4_lite_subscriber.sv(41) @ 1845: uvm_test_top.env.sb [sb] INPUT COVERAGE = 44.79 %
UVM_INFO axi4_lite_inp_monitor.sv(38) @ 1845: uvm_test_top.env.aa.inp_mon [INPUT MONITOR] READ araddr=00000010
UVM_INFO axi4_lite_out_monitor.sv(28) @ 1855: uvm_test_top.env.pa.out_mon [OUTPUT MONITOR] BRESP = 0 RRESP = 0 RDATA = 00000000
UVM_INFO axi4_lite_driver.sv(34) @ 1855: uvm_test_top.env.aa.drv [DRV] awaddr = 2e733668 wdata = 27e1c1a2 wstrb = 7 araddr = 00000010
UVM_INFO axi4_lite_scoreboard.sv(68) @ 1855: uvm_test_top.env.scb [RRESP] Matched : exp_rresp=0 actual_rresp =0 write = 0 read = 1
UVM_INFO axi4_lite_scoreboard.sv(72) @ 1855: uvm_test_top.env.scb [RDATA] Matched : exp_rdata=00000000 actual_rdata =00000000
UVM_INFO axi4_lite_subscriber.sv(41) @ 1875: uvm_test_top.env.sb [sb] INPUT COVERAGE = 44.79 %
UVM_INFO axi4_lite_inp_monitor.sv(38) @ 1875: uvm_test_top.env.aa.inp_mon [INPUT MONITOR] READ araddr=00000034
UVM_INFO axi4_lite_out_monitor.sv(28) @ 1885: uvm_test_top.env.pa.out_mon [OUTPUT MONITOR] BRESP = 0 RRESP = 2 RDATA = 00000000
UVM_INFO axi4_lite_driver.sv(34) @ 1885: uvm_test_top.env.aa.drv [DRV] awaddr = 93ca2c10 wdata = 2534a813 wstrb = a araddr = 00000034
UVM_INFO axi4_lite_scoreboard.sv(68) @ 1885: uvm_test_top.env.scb [RRESP] Matched : exp_rresp=2 actual_rresp =2 write = 0 read = 1
UVM_INFO axi4_lite_scoreboard.sv(72) @ 1885: uvm_test_top.env.scb [RDATA] Matched : exp_rdata=00000000 actual_rdata =00000000
UVM_INFO axi4_lite_subscriber.sv(41) @ 1905: uvm_test_top.env.sb [sb] INPUT COVERAGE = 44.79 %
UVM_INFO axi4_lite_inp_monitor.sv(38) @ 1905: uvm_test_top.env.aa.inp_mon [INPUT MONITOR] READ araddr=00000014
UVM_INFO axi4_lite_out_monitor.sv(28) @ 1915: uvm_test_top.env.pa.out_mon [OUTPUT MONITOR] BRESP = 0 RRESP = 0 RDATA = 00000000
UVM_INFO axi4_lite_driver.sv(34) @ 1915: uvm_test_top.env.aa.drv [DRV] awaddr = 8d879234 wdata = 9a94d5bf wstrb = 8 araddr = 00000014
UVM_INFO axi4_lite_scoreboard.sv(68) @ 1915: uvm_test_top.env.scb [RRESP] Matched : exp_rresp=0 actual_rresp =0 write = 0 read = 1
UVM_INFO axi4_lite_scoreboard.sv(72) @ 1915: uvm_test_top.env.scb [RDATA] Matched : exp_rdata=00000000 actual_rdata =00000000
UVM_INFO axi4_lite_subscriber.sv(41) @ 1935: uvm_test_top.env.sb [sb] INPUT COVERAGE = 44.79 %
UVM_INFO axi4_lite_inp_monitor.sv(38) @ 1935: uvm_test_top.env.aa.inp_mon [INPUT MONITOR] READ araddr=00000020
UVM_INFO axi4_lite_out_monitor.sv(28) @ 1945: uvm_test_top.env.pa.out_mon [OUTPUT MONITOR] BRESP = 0 RRESP = 0 RDATA = 00000000
UVM_INFO axi4_lite_driver.sv(34) @ 1945: uvm_test_top.env.aa.drv [DRV] awaddr = 303fa3ac wdata = 10ca6f38 wstrb = 5 araddr = 00000020
UVM_INFO axi4_lite_scoreboard.sv(68) @ 1945: uvm_test_top.env.scb [RRESP] Matched : exp_rresp=0 actual_rresp =0 write = 0 read = 1
UVM_INFO axi4_lite_scoreboard.sv(72) @ 1945: uvm_test_top.env.scb [RDATA] Matched : exp_rdata=00000000 actual_rdata =00000000
UVM_INFO axi4_lite_subscriber.sv(41) @ 1965: uvm_test_top.env.sb [sb] INPUT COVERAGE = 44.79 %
UVM_INFO axi4_lite_inp_monitor.sv(38) @ 1965: uvm_test_top.env.aa.inp_mon [INPUT MONITOR] READ araddr=00000024
UVM_INFO axi4_lite_out_monitor.sv(28) @ 1975: uvm_test_top.env.pa.out_mon [OUTPUT MONITOR] BRESP = 0 RRESP = 0 RDATA = 00000000
UVM_INFO axi4_lite_driver.sv(34) @ 1975: uvm_test_top.env.aa.drv [DRV] awaddr = 78112718 wdata = 2b6674c1 wstrb = a araddr = 00000024
UVM_INFO axi4_lite_scoreboard.sv(68) @ 1975: uvm_test_top.env.scb [RRESP] Matched : exp_rresp=0 actual_rresp =0 write = 0 read = 1
UVM_INFO axi4_lite_scoreboard.sv(72) @ 1975: uvm_test_top.env.scb [RDATA] Matched : exp_rdata=00000000 actual_rdata =00000000
UVM_INFO axi4_lite_subscriber.sv(41) @ 1995: uvm_test_top.env.sb [sb] INPUT COVERAGE = 44.79 %
UVM_INFO axi4_lite_inp_monitor.sv(38) @ 1995: uvm_test_top.env.aa.inp_mon [INPUT MONITOR] READ araddr=00000010
UVM_INFO axi4_lite_out_monitor.sv(28) @ 2005: uvm_test_top.env.pa.out_mon [OUTPUT MONITOR] BRESP = 0 RRESP = 0 RDATA = 00000000
UVM_INFO axi4_lite_driver.sv(34) @ 2005: uvm_test_top.env.aa.drv [DRV] awaddr = 7121ab64 wdata = b3071cec wstrb = 6 araddr = 00000010
UVM_INFO axi4_lite_scoreboard.sv(68) @ 2005: uvm_test_top.env.scb [RRESP] Matched : exp_rresp=0 actual_rresp =0 write = 0 read = 1
UVM_INFO axi4_lite_scoreboard.sv(72) @ 2005: uvm_test_top.env.scb [RDATA] Matched : exp_rdata=00000000 actual_rdata =00000000
UVM_INFO axi4_lite_subscriber.sv(41) @ 2025: uvm_test_top.env.sb [sb] INPUT COVERAGE = 44.79 %
UVM_INFO axi4_lite_inp_monitor.sv(38) @ 2025: uvm_test_top.env.aa.inp_mon [INPUT MONITOR] READ araddr=00000000
UVM_INFO axi4_lite_out_monitor.sv(28) @ 2035: uvm_test_top.env.pa.out_mon [OUTPUT MONITOR] BRESP = 0 RRESP = 0 RDATA = 00000000
UVM_INFO axi4_lite_driver.sv(34) @ 2035: uvm_test_top.env.aa.drv [DRV] awaddr = c963df48 wdata = 8d5f5e75 wstrb = 9 araddr = 00000000
UVM_INFO axi4_lite_scoreboard.sv(68) @ 2035: uvm_test_top.env.scb [RRESP] Matched : exp_rresp=0 actual_rresp =0 write = 0 read = 1
UVM_INFO axi4_lite_scoreboard.sv(72) @ 2035: uvm_test_top.env.scb [RDATA] Matched : exp_rdata=00000000 actual_rdata =00000000
UVM_INFO axi4_lite_subscriber.sv(41) @ 2055: uvm_test_top.env.sb [sb] INPUT COVERAGE = 44.79 %
UVM_INFO axi4_lite_inp_monitor.sv(38) @ 2055: uvm_test_top.env.aa.inp_mon [INPUT MONITOR] READ araddr=00000038
UVM_INFO axi4_lite_out_monitor.sv(28) @ 2065: uvm_test_top.env.pa.out_mon [OUTPUT MONITOR] BRESP = 0 RRESP = 2 RDATA = 00000000
UVM_INFO axi4_lite_driver.sv(34) @ 2065: uvm_test_top.env.aa.drv [DRV] awaddr = 3c82ff94 wdata = 91196933 wstrb = b araddr = 00000038
UVM_INFO axi4_lite_scoreboard.sv(68) @ 2065: uvm_test_top.env.scb [RRESP] Matched : exp_rresp=2 actual_rresp =2 write = 0 read = 1
UVM_INFO axi4_lite_scoreboard.sv(72) @ 2065: uvm_test_top.env.scb [RDATA] Matched : exp_rdata=00000000 actual_rdata =00000000
UVM_INFO axi4_lite_subscriber.sv(41) @ 2085: uvm_test_top.env.sb [sb] INPUT COVERAGE = 44.79 %
UVM_INFO axi4_lite_inp_monitor.sv(38) @ 2085: uvm_test_top.env.aa.inp_mon [INPUT MONITOR] READ araddr=00000018
UVM_INFO axi4_lite_out_monitor.sv(28) @ 2095: uvm_test_top.env.pa.out_mon [OUTPUT MONITOR] BRESP = 0 RRESP = 0 RDATA = 00000000
UVM_INFO axi4_lite_driver.sv(34) @ 2095: uvm_test_top.env.aa.drv [DRV] awaddr = 7c296ac8 wdata = 9e7291d9 wstrb = 5 araddr = 00000018
UVM_INFO axi4_lite_scoreboard.sv(68) @ 2095: uvm_test_top.env.scb [RRESP] Matched : exp_rresp=0 actual_rresp =0 write = 0 read = 1
UVM_INFO axi4_lite_scoreboard.sv(72) @ 2095: uvm_test_top.env.scb [RDATA] Matched : exp_rdata=00000000 actual_rdata =00000000
UVM_INFO axi4_lite_subscriber.sv(41) @ 2115: uvm_test_top.env.sb [sb] INPUT COVERAGE = 44.79 %
UVM_INFO axi4_lite_inp_monitor.sv(38) @ 2115: uvm_test_top.env.aa.inp_mon [INPUT MONITOR] READ araddr=00000028
UVM_INFO axi4_lite_out_monitor.sv(28) @ 2125: uvm_test_top.env.pa.out_mon [OUTPUT MONITOR] BRESP = 0 RRESP = 0 RDATA = 00000000
UVM_INFO axi4_lite_driver.sv(34) @ 2125: uvm_test_top.env.aa.drv [DRV] awaddr = eb91074c wdata = cf28f9d8 wstrb = b araddr = 00000028
UVM_INFO axi4_lite_scoreboard.sv(68) @ 2125: uvm_test_top.env.scb [RRESP] Matched : exp_rresp=0 actual_rresp =0 write = 0 read = 1
UVM_INFO axi4_lite_scoreboard.sv(72) @ 2125: uvm_test_top.env.scb [RDATA] Matched : exp_rdata=00000000 actual_rdata =00000000
UVM_INFO axi4_lite_subscriber.sv(41) @ 2145: uvm_test_top.env.sb [sb] INPUT COVERAGE = 44.79 %
UVM_INFO axi4_lite_inp_monitor.sv(38) @ 2145: uvm_test_top.env.aa.inp_mon [INPUT MONITOR] READ araddr=0000001c
UVM_INFO axi4_lite_out_monitor.sv(28) @ 2155: uvm_test_top.env.pa.out_mon [OUTPUT MONITOR] BRESP = 0 RRESP = 0 RDATA = 00000000
UVM_INFO axi4_lite_driver.sv(34) @ 2155: uvm_test_top.env.aa.drv [DRV] awaddr = 9eda83d8 wdata = b5f232dd wstrb = 1 araddr = 0000001c
UVM_INFO axi4_lite_scoreboard.sv(68) @ 2155: uvm_test_top.env.scb [RRESP] Matched : exp_rresp=0 actual_rresp =0 write = 0 read = 1
UVM_INFO axi4_lite_scoreboard.sv(72) @ 2155: uvm_test_top.env.scb [RDATA] Matched : exp_rdata=00000000 actual_rdata =00000000
UVM_INFO axi4_lite_subscriber.sv(41) @ 2175: uvm_test_top.env.sb [sb] INPUT COVERAGE = 44.79 %
UVM_INFO axi4_lite_inp_monitor.sv(38) @ 2175: uvm_test_top.env.aa.inp_mon [INPUT MONITOR] READ araddr=00000004
UVM_INFO axi4_lite_out_monitor.sv(28) @ 2185: uvm_test_top.env.pa.out_mon [OUTPUT MONITOR] BRESP = 0 RRESP = 0 RDATA = 00000000
UVM_INFO axi4_lite_driver.sv(34) @ 2185: uvm_test_top.env.aa.drv [DRV] awaddr = d89e21f8 wdata = 587ea250 wstrb = 5 araddr = 00000004
UVM_INFO axi4_lite_scoreboard.sv(68) @ 2185: uvm_test_top.env.scb [RRESP] Matched : exp_rresp=0 actual_rresp =0 write = 0 read = 1
UVM_INFO axi4_lite_scoreboard.sv(72) @ 2185: uvm_test_top.env.scb [RDATA] Matched : exp_rdata=00000000 actual_rdata =00000000
UVM_INFO axi4_lite_subscriber.sv(41) @ 2205: uvm_test_top.env.sb [sb] INPUT COVERAGE = 44.79 %
UVM_INFO axi4_lite_inp_monitor.sv(38) @ 2205: uvm_test_top.env.aa.inp_mon [INPUT MONITOR] READ araddr=00000008
UVM_INFO axi4_lite_out_monitor.sv(28) @ 2215: uvm_test_top.env.pa.out_mon [OUTPUT MONITOR] BRESP = 0 RRESP = 0 RDATA = 00000000
UVM_INFO axi4_lite_driver.sv(34) @ 2215: uvm_test_top.env.aa.drv [DRV] awaddr = 5e8cba84 wdata = 976b8d43 wstrb = c araddr = 00000008
UVM_INFO axi4_lite_scoreboard.sv(68) @ 2215: uvm_test_top.env.scb [RRESP] Matched : exp_rresp=0 actual_rresp =0 write = 0 read = 1
UVM_INFO axi4_lite_scoreboard.sv(72) @ 2215: uvm_test_top.env.scb [RDATA] Matched : exp_rdata=00000000 actual_rdata =00000000
UVM_INFO axi4_lite_subscriber.sv(41) @ 2235: uvm_test_top.env.sb [sb] INPUT COVERAGE = 44.79 %
UVM_INFO axi4_lite_inp_monitor.sv(38) @ 2235: uvm_test_top.env.aa.inp_mon [INPUT MONITOR] READ araddr=00000010
UVM_INFO axi4_lite_out_monitor.sv(28) @ 2245: uvm_test_top.env.pa.out_mon [OUTPUT MONITOR] BRESP = 0 RRESP = 0 RDATA = 00000000
UVM_INFO axi4_lite_driver.sv(34) @ 2245: uvm_test_top.env.aa.drv [DRV] awaddr = 235eed90 wdata = a59f4c65 wstrb = e araddr = 00000010
UVM_INFO axi4_lite_scoreboard.sv(68) @ 2245: uvm_test_top.env.scb [RRESP] Matched : exp_rresp=0 actual_rresp =0 write = 0 read = 1
UVM_INFO axi4_lite_scoreboard.sv(72) @ 2245: uvm_test_top.env.scb [RDATA] Matched : exp_rdata=00000000 actual_rdata =00000000
UVM_INFO axi4_lite_subscriber.sv(41) @ 2265: uvm_test_top.env.sb [sb] INPUT COVERAGE = 44.79 %
UVM_INFO axi4_lite_inp_monitor.sv(38) @ 2265: uvm_test_top.env.aa.inp_mon [INPUT MONITOR] READ araddr=00000008
UVM_INFO axi4_lite_out_monitor.sv(28) @ 2275: uvm_test_top.env.pa.out_mon [OUTPUT MONITOR] BRESP = 0 RRESP = 0 RDATA = 00000000
UVM_INFO axi4_lite_driver.sv(34) @ 2275: uvm_test_top.env.aa.drv [DRV] awaddr = 92ff8f7c wdata = 30c53925 wstrb = 2 araddr = 00000008
UVM_INFO axi4_lite_scoreboard.sv(68) @ 2275: uvm_test_top.env.scb [RRESP] Matched : exp_rresp=0 actual_rresp =0 write = 0 read = 1
UVM_INFO axi4_lite_scoreboard.sv(72) @ 2275: uvm_test_top.env.scb [RDATA] Matched : exp_rdata=00000000 actual_rdata =00000000
UVM_INFO axi4_lite_subscriber.sv(41) @ 2295: uvm_test_top.env.sb [sb] INPUT COVERAGE = 44.79 %
UVM_INFO axi4_lite_inp_monitor.sv(38) @ 2295: uvm_test_top.env.aa.inp_mon [INPUT MONITOR] READ araddr=00000000
UVM_INFO axi4_lite_out_monitor.sv(28) @ 2305: uvm_test_top.env.pa.out_mon [OUTPUT MONITOR] BRESP = 0 RRESP = 0 RDATA = 00000000
UVM_INFO axi4_lite_driver.sv(34) @ 2305: uvm_test_top.env.aa.drv [DRV] awaddr = c1b27a5c wdata = 86459c43 wstrb = 5 araddr = 00000000
UVM_INFO axi4_lite_scoreboard.sv(68) @ 2305: uvm_test_top.env.scb [RRESP] Matched : exp_rresp=0 actual_rresp =0 write = 0 read = 1
UVM_INFO axi4_lite_scoreboard.sv(72) @ 2305: uvm_test_top.env.scb [RDATA] Matched : exp_rdata=00000000 actual_rdata =00000000
UVM_INFO axi4_lite_subscriber.sv(41) @ 2325: uvm_test_top.env.sb [sb] INPUT COVERAGE = 44.79 %
UVM_INFO axi4_lite_inp_monitor.sv(38) @ 2325: uvm_test_top.env.aa.inp_mon [INPUT MONITOR] READ araddr=00000038
UVM_INFO axi4_lite_out_monitor.sv(28) @ 2335: uvm_test_top.env.pa.out_mon [OUTPUT MONITOR] BRESP = 0 RRESP = 2 RDATA = 00000000
UVM_INFO axi4_lite_driver.sv(34) @ 2335: uvm_test_top.env.aa.drv [DRV] awaddr = 5ac6bc9c wdata = 230a9e83 wstrb = 6 araddr = 00000038
UVM_INFO axi4_lite_scoreboard.sv(68) @ 2335: uvm_test_top.env.scb [RRESP] Matched : exp_rresp=2 actual_rresp =2 write = 0 read = 1
UVM_INFO axi4_lite_scoreboard.sv(72) @ 2335: uvm_test_top.env.scb [RDATA] Matched : exp_rdata=00000000 actual_rdata =00000000
UVM_INFO axi4_lite_subscriber.sv(41) @ 2355: uvm_test_top.env.sb [sb] INPUT COVERAGE = 44.79 %
UVM_INFO axi4_lite_inp_monitor.sv(38) @ 2355: uvm_test_top.env.aa.inp_mon [INPUT MONITOR] READ araddr=00000038
UVM_INFO axi4_lite_out_monitor.sv(28) @ 2365: uvm_test_top.env.pa.out_mon [OUTPUT MONITOR] BRESP = 0 RRESP = 2 RDATA = 00000000
UVM_INFO axi4_lite_driver.sv(34) @ 2365: uvm_test_top.env.aa.drv [DRV] awaddr = 64a7abb0 wdata = 542fb78a wstrb = b araddr = 00000038
UVM_INFO axi4_lite_scoreboard.sv(68) @ 2365: uvm_test_top.env.scb [RRESP] Matched : exp_rresp=2 actual_rresp =2 write = 0 read = 1
UVM_INFO axi4_lite_scoreboard.sv(72) @ 2365: uvm_test_top.env.scb [RDATA] Matched : exp_rdata=00000000 actual_rdata =00000000
UVM_INFO axi4_lite_subscriber.sv(41) @ 2385: uvm_test_top.env.sb [sb] INPUT COVERAGE = 44.79 %
UVM_INFO axi4_lite_inp_monitor.sv(38) @ 2385: uvm_test_top.env.aa.inp_mon [INPUT MONITOR] READ araddr=00000000
UVM_INFO axi4_lite_out_monitor.sv(28) @ 2395: uvm_test_top.env.pa.out_mon [OUTPUT MONITOR] BRESP = 0 RRESP = 0 RDATA = 00000000
UVM_INFO axi4_lite_driver.sv(34) @ 2395: uvm_test_top.env.aa.drv [DRV] awaddr = b780e458 wdata = 90d2f841 wstrb = 9 araddr = 00000000
UVM_INFO axi4_lite_scoreboard.sv(68) @ 2395: uvm_test_top.env.scb [RRESP] Matched : exp_rresp=0 actual_rresp =0 write = 0 read = 1
UVM_INFO axi4_lite_scoreboard.sv(72) @ 2395: uvm_test_top.env.scb [RDATA] Matched : exp_rdata=00000000 actual_rdata =00000000
UVM_INFO axi4_lite_subscriber.sv(41) @ 2415: uvm_test_top.env.sb [sb] INPUT COVERAGE = 44.79 %
UVM_INFO axi4_lite_inp_monitor.sv(38) @ 2415: uvm_test_top.env.aa.inp_mon [INPUT MONITOR] READ araddr=0000001c
UVM_INFO axi4_lite_out_monitor.sv(28) @ 2425: uvm_test_top.env.pa.out_mon [OUTPUT MONITOR] BRESP = 0 RRESP = 0 RDATA = 00000000
UVM_INFO axi4_lite_driver.sv(34) @ 2425: uvm_test_top.env.aa.drv [DRV] awaddr = f1bb2d34 wdata = 254686dc wstrb = e araddr = 0000001c
UVM_INFO axi4_lite_scoreboard.sv(68) @ 2425: uvm_test_top.env.scb [RRESP] Matched : exp_rresp=0 actual_rresp =0 write = 0 read = 1
UVM_INFO axi4_lite_scoreboard.sv(72) @ 2425: uvm_test_top.env.scb [RDATA] Matched : exp_rdata=00000000 actual_rdata =00000000
UVM_INFO axi4_lite_subscriber.sv(41) @ 2445: uvm_test_top.env.sb [sb] INPUT COVERAGE = 44.79 %
UVM_INFO axi4_lite_inp_monitor.sv(38) @ 2445: uvm_test_top.env.aa.inp_mon [INPUT MONITOR] READ araddr=00000000
UVM_INFO axi4_lite_out_monitor.sv(28) @ 2455: uvm_test_top.env.pa.out_mon [OUTPUT MONITOR] BRESP = 0 RRESP = 0 RDATA = 00000000
UVM_INFO axi4_lite_driver.sv(34) @ 2455: uvm_test_top.env.aa.drv [DRV] awaddr = 307fcfe4 wdata = af641975 wstrb = 3 araddr = 00000000
UVM_INFO axi4_lite_scoreboard.sv(68) @ 2455: uvm_test_top.env.scb [RRESP] Matched : exp_rresp=0 actual_rresp =0 write = 0 read = 1
UVM_INFO axi4_lite_scoreboard.sv(72) @ 2455: uvm_test_top.env.scb [RDATA] Matched : exp_rdata=00000000 actual_rdata =00000000
UVM_INFO axi4_lite_subscriber.sv(41) @ 2475: uvm_test_top.env.sb [sb] INPUT COVERAGE = 44.79 %
UVM_INFO axi4_lite_inp_monitor.sv(38) @ 2475: uvm_test_top.env.aa.inp_mon [INPUT MONITOR] READ araddr=00000020
UVM_INFO axi4_lite_out_monitor.sv(28) @ 2485: uvm_test_top.env.pa.out_mon [OUTPUT MONITOR] BRESP = 0 RRESP = 0 RDATA = 00000000
UVM_INFO axi4_lite_driver.sv(34) @ 2485: uvm_test_top.env.aa.drv [DRV] awaddr = 85d80d3c wdata = 845441a1 wstrb = 5 araddr = 00000020
UVM_INFO axi4_lite_scoreboard.sv(68) @ 2485: uvm_test_top.env.scb [RRESP] Matched : exp_rresp=0 actual_rresp =0 write = 0 read = 1
UVM_INFO axi4_lite_scoreboard.sv(72) @ 2485: uvm_test_top.env.scb [RDATA] Matched : exp_rdata=00000000 actual_rdata =00000000
UVM_INFO axi4_lite_subscriber.sv(41) @ 2505: uvm_test_top.env.sb [sb] INPUT COVERAGE = 44.79 %
UVM_INFO axi4_lite_inp_monitor.sv(38) @ 2505: uvm_test_top.env.aa.inp_mon [INPUT MONITOR] READ araddr=00000004
UVM_INFO axi4_lite_out_monitor.sv(28) @ 2515: uvm_test_top.env.pa.out_mon [OUTPUT MONITOR] BRESP = 0 RRESP = 0 RDATA = 00000000
UVM_INFO axi4_lite_driver.sv(34) @ 2515: uvm_test_top.env.aa.drv [DRV] awaddr = 4117ba04 wdata = 699291dd wstrb = f araddr = 00000004
UVM_INFO axi4_lite_scoreboard.sv(68) @ 2515: uvm_test_top.env.scb [RRESP] Matched : exp_rresp=0 actual_rresp =0 write = 0 read = 1
UVM_INFO axi4_lite_scoreboard.sv(72) @ 2515: uvm_test_top.env.scb [RDATA] Matched : exp_rdata=00000000 actual_rdata =00000000
UVM_INFO axi4_lite_subscriber.sv(41) @ 2535: uvm_test_top.env.sb [sb] INPUT COVERAGE = 44.79 %
UVM_INFO axi4_lite_inp_monitor.sv(38) @ 2535: uvm_test_top.env.aa.inp_mon [INPUT MONITOR] READ araddr=00000004
UVM_INFO axi4_lite_out_monitor.sv(28) @ 2545: uvm_test_top.env.pa.out_mon [OUTPUT MONITOR] BRESP = 0 RRESP = 0 RDATA = 00000000
UVM_INFO axi4_lite_driver.sv(34) @ 2545: uvm_test_top.env.aa.drv [DRV] awaddr = 3215e8a0 wdata = 1a8ee919 wstrb = 6 araddr = 00000004
UVM_INFO axi4_lite_scoreboard.sv(68) @ 2545: uvm_test_top.env.scb [RRESP] Matched : exp_rresp=0 actual_rresp =0 write = 0 read = 1
UVM_INFO axi4_lite_scoreboard.sv(72) @ 2545: uvm_test_top.env.scb [RDATA] Matched : exp_rdata=00000000 actual_rdata =00000000
UVM_INFO axi4_lite_subscriber.sv(41) @ 2565: uvm_test_top.env.sb [sb] INPUT COVERAGE = 44.79 %
UVM_INFO axi4_lite_inp_monitor.sv(38) @ 2565: uvm_test_top.env.aa.inp_mon [INPUT MONITOR] READ araddr=00000030
UVM_INFO axi4_lite_out_monitor.sv(28) @ 2575: uvm_test_top.env.pa.out_mon [OUTPUT MONITOR] BRESP = 0 RRESP = 0 RDATA = 00000000
UVM_INFO axi4_lite_driver.sv(34) @ 2575: uvm_test_top.env.aa.drv [DRV] awaddr = fba41aa4 wdata = 88ed7b40 wstrb = 1 araddr = 00000030
UVM_INFO axi4_lite_scoreboard.sv(68) @ 2575: uvm_test_top.env.scb [RRESP] Matched : exp_rresp=0 actual_rresp =0 write = 0 read = 1
UVM_INFO axi4_lite_scoreboard.sv(72) @ 2575: uvm_test_top.env.scb [RDATA] Matched : exp_rdata=00000000 actual_rdata =00000000
UVM_INFO axi4_lite_subscriber.sv(41) @ 2595: uvm_test_top.env.sb [sb] INPUT COVERAGE = 44.79 %
UVM_INFO axi4_lite_inp_monitor.sv(38) @ 2595: uvm_test_top.env.aa.inp_mon [INPUT MONITOR] READ araddr=00000034
UVM_INFO axi4_lite_out_monitor.sv(28) @ 2605: uvm_test_top.env.pa.out_mon [OUTPUT MONITOR] BRESP = 0 RRESP = 2 RDATA = 00000000
UVM_INFO axi4_lite_driver.sv(34) @ 2605: uvm_test_top.env.aa.drv [DRV] awaddr = 81d0b508 wdata = 5db33ad6 wstrb = 0 araddr = 00000034
UVM_INFO axi4_lite_scoreboard.sv(68) @ 2605: uvm_test_top.env.scb [RRESP] Matched : exp_rresp=2 actual_rresp =2 write = 0 read = 1
UVM_INFO axi4_lite_scoreboard.sv(72) @ 2605: uvm_test_top.env.scb [RDATA] Matched : exp_rdata=00000000 actual_rdata =00000000
UVM_INFO axi4_lite_subscriber.sv(41) @ 2625: uvm_test_top.env.sb [sb] INPUT COVERAGE = 44.79 %
UVM_INFO axi4_lite_inp_monitor.sv(38) @ 2625: uvm_test_top.env.aa.inp_mon [INPUT MONITOR] READ araddr=00000030
UVM_INFO axi4_lite_out_monitor.sv(28) @ 2635: uvm_test_top.env.pa.out_mon [OUTPUT MONITOR] BRESP = 0 RRESP = 0 RDATA = 00000000
UVM_INFO axi4_lite_driver.sv(34) @ 2635: uvm_test_top.env.aa.drv [DRV] awaddr = d2abdd08 wdata = 1fa8ec67 wstrb = 7 araddr = 00000030
UVM_INFO axi4_lite_scoreboard.sv(68) @ 2635: uvm_test_top.env.scb [RRESP] Matched : exp_rresp=0 actual_rresp =0 write = 0 read = 1
UVM_INFO axi4_lite_scoreboard.sv(72) @ 2635: uvm_test_top.env.scb [RDATA] Matched : exp_rdata=00000000 actual_rdata =00000000
UVM_INFO axi4_lite_subscriber.sv(41) @ 2655: uvm_test_top.env.sb [sb] INPUT COVERAGE = 44.79 %
UVM_INFO axi4_lite_inp_monitor.sv(38) @ 2655: uvm_test_top.env.aa.inp_mon [INPUT MONITOR] READ araddr=00000008
UVM_INFO axi4_lite_out_monitor.sv(28) @ 2665: uvm_test_top.env.pa.out_mon [OUTPUT MONITOR] BRESP = 0 RRESP = 0 RDATA = 00000000
UVM_INFO axi4_lite_driver.sv(34) @ 2665: uvm_test_top.env.aa.drv [DRV] awaddr = 80dcf5cc wdata = 6f089441 wstrb = 2 araddr = 00000008
UVM_INFO axi4_lite_scoreboard.sv(68) @ 2665: uvm_test_top.env.scb [RRESP] Matched : exp_rresp=0 actual_rresp =0 write = 0 read = 1
UVM_INFO axi4_lite_scoreboard.sv(72) @ 2665: uvm_test_top.env.scb [RDATA] Matched : exp_rdata=00000000 actual_rdata =00000000
UVM_INFO axi4_lite_subscriber.sv(41) @ 2685: uvm_test_top.env.sb [sb] INPUT COVERAGE = 44.79 %
UVM_INFO axi4_lite_inp_monitor.sv(38) @ 2685: uvm_test_top.env.aa.inp_mon [INPUT MONITOR] READ araddr=0000002c
UVM_INFO axi4_lite_out_monitor.sv(28) @ 2695: uvm_test_top.env.pa.out_mon [OUTPUT MONITOR] BRESP = 0 RRESP = 0 RDATA = 00000000
UVM_INFO axi4_lite_driver.sv(34) @ 2695: uvm_test_top.env.aa.drv [DRV] awaddr = 613a4f94 wdata = 6c292b62 wstrb = e araddr = 0000002c
UVM_INFO axi4_lite_scoreboard.sv(68) @ 2695: uvm_test_top.env.scb [RRESP] Matched : exp_rresp=0 actual_rresp =0 write = 0 read = 1
UVM_INFO axi4_lite_scoreboard.sv(72) @ 2695: uvm_test_top.env.scb [RDATA] Matched : exp_rdata=00000000 actual_rdata =00000000
UVM_INFO axi4_lite_subscriber.sv(41) @ 2715: uvm_test_top.env.sb [sb] INPUT COVERAGE = 44.79 %
UVM_INFO axi4_lite_inp_monitor.sv(38) @ 2715: uvm_test_top.env.aa.inp_mon [INPUT MONITOR] READ araddr=00000008
UVM_INFO axi4_lite_out_monitor.sv(28) @ 2725: uvm_test_top.env.pa.out_mon [OUTPUT MONITOR] BRESP = 0 RRESP = 0 RDATA = 00000000
UVM_INFO axi4_lite_driver.sv(34) @ 2725: uvm_test_top.env.aa.drv [DRV] awaddr = 10cd2ec4 wdata = 49ce3f82 wstrb = 0 araddr = 00000008
UVM_INFO axi4_lite_scoreboard.sv(68) @ 2725: uvm_test_top.env.scb [RRESP] Matched : exp_rresp=0 actual_rresp =0 write = 0 read = 1
UVM_INFO axi4_lite_scoreboard.sv(72) @ 2725: uvm_test_top.env.scb [RDATA] Matched : exp_rdata=00000000 actual_rdata =00000000
UVM_INFO axi4_lite_subscriber.sv(41) @ 2745: uvm_test_top.env.sb [sb] INPUT COVERAGE = 44.79 %
UVM_INFO axi4_lite_inp_monitor.sv(38) @ 2745: uvm_test_top.env.aa.inp_mon [INPUT MONITOR] READ araddr=0000000c
UVM_INFO axi4_lite_out_monitor.sv(28) @ 2755: uvm_test_top.env.pa.out_mon [OUTPUT MONITOR] BRESP = 0 RRESP = 0 RDATA = 00000000
UVM_INFO axi4_lite_driver.sv(34) @ 2755: uvm_test_top.env.aa.drv [DRV] awaddr = 22beb51c wdata = c446bcdc wstrb = b araddr = 0000000c
UVM_INFO axi4_lite_scoreboard.sv(68) @ 2755: uvm_test_top.env.scb [RRESP] Matched : exp_rresp=0 actual_rresp =0 write = 0 read = 1
UVM_INFO axi4_lite_scoreboard.sv(72) @ 2755: uvm_test_top.env.scb [RDATA] Matched : exp_rdata=00000000 actual_rdata =00000000
UVM_INFO axi4_lite_subscriber.sv(41) @ 2775: uvm_test_top.env.sb [sb] INPUT COVERAGE = 44.79 %
UVM_INFO axi4_lite_inp_monitor.sv(38) @ 2775: uvm_test_top.env.aa.inp_mon [INPUT MONITOR] READ araddr=0000002c
UVM_INFO axi4_lite_out_monitor.sv(28) @ 2785: uvm_test_top.env.pa.out_mon [OUTPUT MONITOR] BRESP = 0 RRESP = 0 RDATA = 00000000
UVM_INFO axi4_lite_driver.sv(34) @ 2785: uvm_test_top.env.aa.drv [DRV] awaddr = 97888d24 wdata = 10b72544 wstrb = 8 araddr = 0000002c
UVM_INFO axi4_lite_scoreboard.sv(68) @ 2785: uvm_test_top.env.scb [RRESP] Matched : exp_rresp=0 actual_rresp =0 write = 0 read = 1
UVM_INFO axi4_lite_scoreboard.sv(72) @ 2785: uvm_test_top.env.scb [RDATA] Matched : exp_rdata=00000000 actual_rdata =00000000
UVM_INFO axi4_lite_subscriber.sv(41) @ 2805: uvm_test_top.env.sb [sb] INPUT COVERAGE = 44.79 %
UVM_INFO axi4_lite_inp_monitor.sv(38) @ 2805: uvm_test_top.env.aa.inp_mon [INPUT MONITOR] READ araddr=00000024
UVM_INFO axi4_lite_out_monitor.sv(28) @ 2815: uvm_test_top.env.pa.out_mon [OUTPUT MONITOR] BRESP = 0 RRESP = 0 RDATA = 00000000
UVM_INFO axi4_lite_driver.sv(34) @ 2815: uvm_test_top.env.aa.drv [DRV] awaddr = 47468654 wdata = c4a51fa1 wstrb = e araddr = 00000024
UVM_INFO axi4_lite_scoreboard.sv(68) @ 2815: uvm_test_top.env.scb [RRESP] Matched : exp_rresp=0 actual_rresp =0 write = 0 read = 1
UVM_INFO axi4_lite_scoreboard.sv(72) @ 2815: uvm_test_top.env.scb [RDATA] Matched : exp_rdata=00000000 actual_rdata =00000000
UVM_INFO axi4_lite_subscriber.sv(41) @ 2835: uvm_test_top.env.sb [sb] INPUT COVERAGE = 44.79 %
UVM_INFO axi4_lite_inp_monitor.sv(38) @ 2835: uvm_test_top.env.aa.inp_mon [INPUT MONITOR] READ araddr=0000000c
UVM_INFO axi4_lite_out_monitor.sv(28) @ 2845: uvm_test_top.env.pa.out_mon [OUTPUT MONITOR] BRESP = 0 RRESP = 0 RDATA = 00000000
UVM_INFO axi4_lite_driver.sv(34) @ 2845: uvm_test_top.env.aa.drv [DRV] awaddr = f92be124 wdata = f1e4df89 wstrb = 3 araddr = 0000000c
UVM_INFO axi4_lite_scoreboard.sv(68) @ 2845: uvm_test_top.env.scb [RRESP] Matched : exp_rresp=0 actual_rresp =0 write = 0 read = 1
UVM_INFO axi4_lite_scoreboard.sv(72) @ 2845: uvm_test_top.env.scb [RDATA] Matched : exp_rdata=00000000 actual_rdata =00000000
UVM_INFO axi4_lite_subscriber.sv(41) @ 2865: uvm_test_top.env.sb [sb] INPUT COVERAGE = 44.79 %
UVM_INFO axi4_lite_inp_monitor.sv(38) @ 2865: uvm_test_top.env.aa.inp_mon [INPUT MONITOR] READ araddr=00000038
UVM_INFO axi4_lite_out_monitor.sv(28) @ 2875: uvm_test_top.env.pa.out_mon [OUTPUT MONITOR] BRESP = 0 RRESP = 2 RDATA = 00000000
UVM_INFO axi4_lite_driver.sv(34) @ 2875: uvm_test_top.env.aa.drv [DRV] awaddr = 958bdeac wdata = 0a68f868 wstrb = 3 araddr = 00000038
UVM_INFO axi4_lite_scoreboard.sv(68) @ 2875: uvm_test_top.env.scb [RRESP] Matched : exp_rresp=2 actual_rresp =2 write = 0 read = 1
UVM_INFO axi4_lite_scoreboard.sv(72) @ 2875: uvm_test_top.env.scb [RDATA] Matched : exp_rdata=00000000 actual_rdata =00000000
UVM_INFO axi4_lite_subscriber.sv(41) @ 2895: uvm_test_top.env.sb [sb] INPUT COVERAGE = 44.79 %
UVM_INFO axi4_lite_inp_monitor.sv(38) @ 2895: uvm_test_top.env.aa.inp_mon [INPUT MONITOR] READ araddr=00000030
UVM_INFO axi4_lite_out_monitor.sv(28) @ 2905: uvm_test_top.env.pa.out_mon [OUTPUT MONITOR] BRESP = 0 RRESP = 0 RDATA = 00000000
UVM_INFO axi4_lite_driver.sv(34) @ 2905: uvm_test_top.env.aa.drv [DRV] awaddr = cda3bff0 wdata = ecc98851 wstrb = 4 araddr = 00000030
UVM_INFO axi4_lite_scoreboard.sv(68) @ 2905: uvm_test_top.env.scb [RRESP] Matched : exp_rresp=0 actual_rresp =0 write = 0 read = 1
UVM_INFO axi4_lite_scoreboard.sv(72) @ 2905: uvm_test_top.env.scb [RDATA] Matched : exp_rdata=00000000 actual_rdata =00000000
UVM_INFO axi4_lite_subscriber.sv(41) @ 2925: uvm_test_top.env.sb [sb] INPUT COVERAGE = 44.79 %
UVM_INFO axi4_lite_inp_monitor.sv(38) @ 2925: uvm_test_top.env.aa.inp_mon [INPUT MONITOR] READ araddr=00000030
UVM_INFO axi4_lite_out_monitor.sv(28) @ 2935: uvm_test_top.env.pa.out_mon [OUTPUT MONITOR] BRESP = 0 RRESP = 0 RDATA = 00000000
UVM_INFO axi4_lite_driver.sv(34) @ 2935: uvm_test_top.env.aa.drv [DRV] awaddr = 051a6710 wdata = 45e3d150 wstrb = 7 araddr = 00000030
UVM_INFO axi4_lite_scoreboard.sv(68) @ 2935: uvm_test_top.env.scb [RRESP] Matched : exp_rresp=0 actual_rresp =0 write = 0 read = 1
UVM_INFO axi4_lite_scoreboard.sv(72) @ 2935: uvm_test_top.env.scb [RDATA] Matched : exp_rdata=00000000 actual_rdata =00000000
UVM_INFO axi4_lite_subscriber.sv(41) @ 2955: uvm_test_top.env.sb [sb] INPUT COVERAGE = 44.79 %
UVM_INFO axi4_lite_inp_monitor.sv(38) @ 2955: uvm_test_top.env.aa.inp_mon [INPUT MONITOR] READ araddr=0000002c
UVM_INFO axi4_lite_out_monitor.sv(28) @ 2965: uvm_test_top.env.pa.out_mon [OUTPUT MONITOR] BRESP = 0 RRESP = 0 RDATA = 00000000
UVM_INFO axi4_lite_driver.sv(34) @ 2965: uvm_test_top.env.aa.drv [DRV] awaddr = 369c5608 wdata = d41271ca wstrb = f araddr = 0000002c
UVM_INFO axi4_lite_scoreboard.sv(68) @ 2965: uvm_test_top.env.scb [RRESP] Matched : exp_rresp=0 actual_rresp =0 write = 0 read = 1
UVM_INFO axi4_lite_scoreboard.sv(72) @ 2965: uvm_test_top.env.scb [RDATA] Matched : exp_rdata=00000000 actual_rdata =00000000
UVM_INFO axi4_lite_subscriber.sv(41) @ 2985: uvm_test_top.env.sb [sb] INPUT COVERAGE = 44.79 %
UVM_INFO axi4_lite_inp_monitor.sv(38) @ 2985: uvm_test_top.env.aa.inp_mon [INPUT MONITOR] READ araddr=00000028
UVM_INFO axi4_lite_out_monitor.sv(28) @ 2995: uvm_test_top.env.pa.out_mon [OUTPUT MONITOR] BRESP = 0 RRESP = 0 RDATA = 00000000
UVM_INFO axi4_lite_driver.sv(34) @ 2995: uvm_test_top.env.aa.drv [DRV] awaddr = fcd3f940 wdata = ad98e6f3 wstrb = 1 araddr = 00000028
UVM_INFO axi4_lite_scoreboard.sv(68) @ 2995: uvm_test_top.env.scb [RRESP] Matched : exp_rresp=0 actual_rresp =0 write = 0 read = 1
UVM_INFO axi4_lite_scoreboard.sv(72) @ 2995: uvm_test_top.env.scb [RDATA] Matched : exp_rdata=00000000 actual_rdata =00000000
UVM_INFO axi4_lite_test.sv(42) @ 2995: uvm_test_top [TEST] Read completed
UVM_INFO /fetools/synopsys/installed_tools/vcs/vcs/Q-2020.03-SP2-8/etc/uvm/base/uvm_objection.svh(1274) @ 2995: reporter [TEST_DONE] 'run' phase is ready to proceed to the 'extract' phase

--- UVM Report Summary ---

** Report counts by severity
UVM_INFO :  604
UVM_WARNING :    0
UVM_ERROR :    0
UVM_FATAL :    0
** Report counts by id
[DRV]   100
[INPUT MONITOR]   100
[OUTPUT MONITOR]   100
[RDATA]   100
[RNTST]     1
[RRESP]   100
[TEST]     1
[TEST_DONE]     1
[UVMTOP]     1
[sb]   100
$finish called from file "/fetools/synopsys/installed_tools/vcs/vcs/Q-2020.03-SP2-8/etc/uvm/base/uvm_root.svh", line 437.
$finish at simulation time                 2995

---------------------------------------------------------------------------
VCS Coverage Metrics: during simulation line, cond, FSM, branch, tgl was monitored
---------------------------------------------------------------------------
           V C S   S i m u l a t i o n   R e p o r t 
Time: 2995 ns
CPU Time:      0.590 seconds;       Data structure size:   0.4Mb
Fri Sep 18 14:15:33 2026
