Command: /fetools/work_area/frontend/Batch_11/ananyaganesh/system_verilog/AXI4_LITE_SLAVE/src/work/simv +UVM_TESTNAME=axi4_lite_test_read_wo +UVM_VERBOSITY=UVM_HIGH +ntb_random_seed=25549 -cm line+cond+fsm+tgl+branch+assert -cm_dir work/regression.vdb -cm_name axi4_lite_test_read_wo_25549 -l work/logs/axi4_lite_test_read_wo_25549.log +UVM_NO_RELNOTES
Chronologic VCS simulator copyright 1991-2020
Contains Synopsys proprietary information.
Compiler version Q-2020.03-SP2-8_Full64; Runtime version Q-2020.03-SP2-8_Full64;  Sep 17 16:26 2026
----------------------------------------------------------------
UVM-1.1d.Synopsys
(C) 2007-2013 Mentor Graphics Corporation
(C) 2007-2013 Cadence Design Systems, Inc.
(C) 2006-2013 Synopsys, Inc.
(C) 2011-2013 Cypress Semiconductor Corp.
----------------------------------------------------------------
UVM_INFO @ 0: reporter [RNTST] Running test axi4_lite_test_read_wo...
UVM_INFO @ 0: reporter [UVMTOP] UVM testbench topology:
---------------------------------------------------------------
Name                       Type                     Size  Value
---------------------------------------------------------------
uvm_test_top               axi4_lite_test_read_wo   -     @469 
  env                      axi4_lite_environment    -     @477 
    aa                     axi4_lite_active_agent   -     @489 
      drv                  axi4_lite_driver         -     @569 
        rsp_port           uvm_analysis_port        -     @586 
        seq_item_port      uvm_seq_item_pull_port   -     @577 
      inp_mon              axi4_lite_inp_monitor    -     @552 
        inp_mon_port       uvm_analysis_port        -     @560 
      seqr                 axi4_lite_seqr           -     @595 
        rsp_export         uvm_analysis_export      -     @603 
        seq_item_export    uvm_seq_item_pull_imp    -     @709 
        arbitration_queue  array                    0     -    
        lock_queue         array                    0     -    
        num_last_reqs      integral                 32    'd1  
        num_last_rsps      integral                 32    'd1  
    pa                     axi4_lite_passive_agent  -     @497 
      out_mon              axi4_lite_out_monitor    -     @726 
        out_mon_port       uvm_analysis_port        -     @734 
    sb                     axi4_lite_subscriber     -     @531 
      analysis_imp         uvm_analysis_imp         -     @539 
    scb                    axi4_lite_scoreboard     -     @505 
      inp_port             uvm_analysis_imp_in      -     @513 
      out_port             uvm_analysis_imp_out     -     @522 
---------------------------------------------------------------

UVM_INFO axi4_lite_subscriber.sv(41) @ 15: uvm_test_top.env.sb [sb] INPUT COVERAGE = 28.12 %
UVM_INFO axi4_lite_inp_monitor.sv(38) @ 15: uvm_test_top.env.aa.inp_mon [INPUT MONITOR] READ araddr=00000038
UVM_INFO axi4_lite_out_monitor.sv(28) @ 25: uvm_test_top.env.pa.out_mon [OUTPUT MONITOR] BRESP = 0 RRESP = 2 RDATA = 00000000
UVM_INFO axi4_lite_driver.sv(34) @ 25: uvm_test_top.env.aa.drv [DRV] awaddr = b1d32cc8 wdata = 2a2ffa2c wstrb = d araddr = 00000038
UVM_INFO axi4_lite_scoreboard.sv(68) @ 25: uvm_test_top.env.scb [RRESP] Matched : exp_rresp=2 actual_rresp =2 write = 0 read = 1
UVM_INFO axi4_lite_scoreboard.sv(72) @ 25: uvm_test_top.env.scb [RDATA] Matched : exp_rdata=00000000 actual_rdata =00000000
UVM_INFO axi4_lite_subscriber.sv(41) @ 45: uvm_test_top.env.sb [sb] INPUT COVERAGE = 28.12 %
UVM_INFO axi4_lite_inp_monitor.sv(38) @ 45: uvm_test_top.env.aa.inp_mon [INPUT MONITOR] READ araddr=00000034
UVM_INFO axi4_lite_out_monitor.sv(28) @ 55: uvm_test_top.env.pa.out_mon [OUTPUT MONITOR] BRESP = 0 RRESP = 2 RDATA = 00000000
UVM_INFO axi4_lite_driver.sv(34) @ 55: uvm_test_top.env.aa.drv [DRV] awaddr = 51c6ef98 wdata = d2a269d5 wstrb = 0 araddr = 00000034
UVM_INFO axi4_lite_scoreboard.sv(68) @ 55: uvm_test_top.env.scb [RRESP] Matched : exp_rresp=2 actual_rresp =2 write = 0 read = 1
UVM_INFO axi4_lite_scoreboard.sv(72) @ 55: uvm_test_top.env.scb [RDATA] Matched : exp_rdata=00000000 actual_rdata =00000000
UVM_INFO axi4_lite_subscriber.sv(41) @ 75: uvm_test_top.env.sb [sb] INPUT COVERAGE = 28.12 %
UVM_INFO axi4_lite_inp_monitor.sv(38) @ 75: uvm_test_top.env.aa.inp_mon [INPUT MONITOR] READ araddr=00000034
UVM_INFO axi4_lite_out_monitor.sv(28) @ 85: uvm_test_top.env.pa.out_mon [OUTPUT MONITOR] BRESP = 0 RRESP = 2 RDATA = 00000000
UVM_INFO axi4_lite_driver.sv(34) @ 85: uvm_test_top.env.aa.drv [DRV] awaddr = deb95cc8 wdata = 0bfb49dd wstrb = 7 araddr = 00000034
UVM_INFO axi4_lite_scoreboard.sv(68) @ 85: uvm_test_top.env.scb [RRESP] Matched : exp_rresp=2 actual_rresp =2 write = 0 read = 1
UVM_INFO axi4_lite_scoreboard.sv(72) @ 85: uvm_test_top.env.scb [RDATA] Matched : exp_rdata=00000000 actual_rdata =00000000
UVM_INFO axi4_lite_subscriber.sv(41) @ 105: uvm_test_top.env.sb [sb] INPUT COVERAGE = 28.12 %
UVM_INFO axi4_lite_inp_monitor.sv(38) @ 105: uvm_test_top.env.aa.inp_mon [INPUT MONITOR] READ araddr=00000034
UVM_INFO axi4_lite_out_monitor.sv(28) @ 115: uvm_test_top.env.pa.out_mon [OUTPUT MONITOR] BRESP = 0 RRESP = 2 RDATA = 00000000
UVM_INFO axi4_lite_driver.sv(34) @ 115: uvm_test_top.env.aa.drv [DRV] awaddr = db5d0a20 wdata = 44588c76 wstrb = 3 araddr = 00000034
UVM_INFO axi4_lite_scoreboard.sv(68) @ 115: uvm_test_top.env.scb [RRESP] Matched : exp_rresp=2 actual_rresp =2 write = 0 read = 1
UVM_INFO axi4_lite_scoreboard.sv(72) @ 115: uvm_test_top.env.scb [RDATA] Matched : exp_rdata=00000000 actual_rdata =00000000
UVM_INFO axi4_lite_subscriber.sv(41) @ 135: uvm_test_top.env.sb [sb] INPUT COVERAGE = 28.12 %
UVM_INFO axi4_lite_inp_monitor.sv(38) @ 135: uvm_test_top.env.aa.inp_mon [INPUT MONITOR] READ araddr=00000038
UVM_INFO axi4_lite_out_monitor.sv(28) @ 145: uvm_test_top.env.pa.out_mon [OUTPUT MONITOR] BRESP = 0 RRESP = 2 RDATA = 00000000
UVM_INFO axi4_lite_driver.sv(34) @ 145: uvm_test_top.env.aa.drv [DRV] awaddr = d9a39ab4 wdata = f8cea40c wstrb = d araddr = 00000038
UVM_INFO axi4_lite_scoreboard.sv(68) @ 145: uvm_test_top.env.scb [RRESP] Matched : exp_rresp=2 actual_rresp =2 write = 0 read = 1
UVM_INFO axi4_lite_scoreboard.sv(72) @ 145: uvm_test_top.env.scb [RDATA] Matched : exp_rdata=00000000 actual_rdata =00000000
UVM_INFO axi4_lite_subscriber.sv(41) @ 165: uvm_test_top.env.sb [sb] INPUT COVERAGE = 28.12 %
UVM_INFO axi4_lite_inp_monitor.sv(38) @ 165: uvm_test_top.env.aa.inp_mon [INPUT MONITOR] READ araddr=00000038
UVM_INFO axi4_lite_out_monitor.sv(28) @ 175: uvm_test_top.env.pa.out_mon [OUTPUT MONITOR] BRESP = 0 RRESP = 2 RDATA = 00000000
UVM_INFO axi4_lite_driver.sv(34) @ 175: uvm_test_top.env.aa.drv [DRV] awaddr = bfa52144 wdata = 47bea35b wstrb = b araddr = 00000038
UVM_INFO axi4_lite_scoreboard.sv(68) @ 175: uvm_test_top.env.scb [RRESP] Matched : exp_rresp=2 actual_rresp =2 write = 0 read = 1
UVM_INFO axi4_lite_scoreboard.sv(72) @ 175: uvm_test_top.env.scb [RDATA] Matched : exp_rdata=00000000 actual_rdata =00000000
UVM_INFO axi4_lite_subscriber.sv(41) @ 195: uvm_test_top.env.sb [sb] INPUT COVERAGE = 28.12 %
UVM_INFO axi4_lite_inp_monitor.sv(38) @ 195: uvm_test_top.env.aa.inp_mon [INPUT MONITOR] READ araddr=00000034
UVM_INFO axi4_lite_out_monitor.sv(28) @ 205: uvm_test_top.env.pa.out_mon [OUTPUT MONITOR] BRESP = 0 RRESP = 2 RDATA = 00000000
UVM_INFO axi4_lite_driver.sv(34) @ 205: uvm_test_top.env.aa.drv [DRV] awaddr = 125058a4 wdata = d12e9c0c wstrb = 8 araddr = 00000034
UVM_INFO axi4_lite_scoreboard.sv(68) @ 205: uvm_test_top.env.scb [RRESP] Matched : exp_rresp=2 actual_rresp =2 write = 0 read = 1
UVM_INFO axi4_lite_scoreboard.sv(72) @ 205: uvm_test_top.env.scb [RDATA] Matched : exp_rdata=00000000 actual_rdata =00000000
UVM_INFO axi4_lite_subscriber.sv(41) @ 225: uvm_test_top.env.sb [sb] INPUT COVERAGE = 28.12 %
UVM_INFO axi4_lite_inp_monitor.sv(38) @ 225: uvm_test_top.env.aa.inp_mon [INPUT MONITOR] READ araddr=00000038
UVM_INFO axi4_lite_out_monitor.sv(28) @ 235: uvm_test_top.env.pa.out_mon [OUTPUT MONITOR] BRESP = 0 RRESP = 2 RDATA = 00000000
UVM_INFO axi4_lite_driver.sv(34) @ 235: uvm_test_top.env.aa.drv [DRV] awaddr = 2ae213f0 wdata = fe194095 wstrb = c araddr = 00000038
UVM_INFO axi4_lite_scoreboard.sv(68) @ 235: uvm_test_top.env.scb [RRESP] Matched : exp_rresp=2 actual_rresp =2 write = 0 read = 1
UVM_INFO axi4_lite_scoreboard.sv(72) @ 235: uvm_test_top.env.scb [RDATA] Matched : exp_rdata=00000000 actual_rdata =00000000
UVM_INFO axi4_lite_subscriber.sv(41) @ 255: uvm_test_top.env.sb [sb] INPUT COVERAGE = 28.12 %
UVM_INFO axi4_lite_inp_monitor.sv(38) @ 255: uvm_test_top.env.aa.inp_mon [INPUT MONITOR] READ araddr=00000038
UVM_INFO axi4_lite_out_monitor.sv(28) @ 265: uvm_test_top.env.pa.out_mon [OUTPUT MONITOR] BRESP = 0 RRESP = 2 RDATA = 00000000
UVM_INFO axi4_lite_driver.sv(34) @ 265: uvm_test_top.env.aa.drv [DRV] awaddr = c8d76c18 wdata = 5777b0fb wstrb = 8 araddr = 00000038
UVM_INFO axi4_lite_scoreboard.sv(68) @ 265: uvm_test_top.env.scb [RRESP] Matched : exp_rresp=2 actual_rresp =2 write = 0 read = 1
UVM_INFO axi4_lite_scoreboard.sv(72) @ 265: uvm_test_top.env.scb [RDATA] Matched : exp_rdata=00000000 actual_rdata =00000000
UVM_INFO axi4_lite_subscriber.sv(41) @ 285: uvm_test_top.env.sb [sb] INPUT COVERAGE = 28.12 %
UVM_INFO axi4_lite_inp_monitor.sv(38) @ 285: uvm_test_top.env.aa.inp_mon [INPUT MONITOR] READ araddr=00000038
UVM_INFO axi4_lite_out_monitor.sv(28) @ 295: uvm_test_top.env.pa.out_mon [OUTPUT MONITOR] BRESP = 0 RRESP = 2 RDATA = 00000000
UVM_INFO axi4_lite_driver.sv(34) @ 295: uvm_test_top.env.aa.drv [DRV] awaddr = 36f07b88 wdata = fdb34918 wstrb = 8 araddr = 00000038
UVM_INFO axi4_lite_scoreboard.sv(68) @ 295: uvm_test_top.env.scb [RRESP] Matched : exp_rresp=2 actual_rresp =2 write = 0 read = 1
UVM_INFO axi4_lite_scoreboard.sv(72) @ 295: uvm_test_top.env.scb [RDATA] Matched : exp_rdata=00000000 actual_rdata =00000000
UVM_INFO axi4_lite_subscriber.sv(41) @ 315: uvm_test_top.env.sb [sb] INPUT COVERAGE = 28.12 %
UVM_INFO axi4_lite_inp_monitor.sv(38) @ 315: uvm_test_top.env.aa.inp_mon [INPUT MONITOR] READ araddr=00000038
UVM_INFO axi4_lite_out_monitor.sv(28) @ 325: uvm_test_top.env.pa.out_mon [OUTPUT MONITOR] BRESP = 0 RRESP = 2 RDATA = 00000000
UVM_INFO axi4_lite_driver.sv(34) @ 325: uvm_test_top.env.aa.drv [DRV] awaddr = 246ca344 wdata = 644644d0 wstrb = b araddr = 00000038
UVM_INFO axi4_lite_scoreboard.sv(68) @ 325: uvm_test_top.env.scb [RRESP] Matched : exp_rresp=2 actual_rresp =2 write = 0 read = 1
UVM_INFO axi4_lite_scoreboard.sv(72) @ 325: uvm_test_top.env.scb [RDATA] Matched : exp_rdata=00000000 actual_rdata =00000000
UVM_INFO axi4_lite_subscriber.sv(41) @ 345: uvm_test_top.env.sb [sb] INPUT COVERAGE = 28.12 %
UVM_INFO axi4_lite_inp_monitor.sv(38) @ 345: uvm_test_top.env.aa.inp_mon [INPUT MONITOR] READ araddr=00000034
UVM_INFO axi4_lite_out_monitor.sv(28) @ 355: uvm_test_top.env.pa.out_mon [OUTPUT MONITOR] BRESP = 0 RRESP = 2 RDATA = 00000000
UVM_INFO axi4_lite_driver.sv(34) @ 355: uvm_test_top.env.aa.drv [DRV] awaddr = 814424bc wdata = ec350ed9 wstrb = 5 araddr = 00000034
UVM_INFO axi4_lite_scoreboard.sv(68) @ 355: uvm_test_top.env.scb [RRESP] Matched : exp_rresp=2 actual_rresp =2 write = 0 read = 1
UVM_INFO axi4_lite_scoreboard.sv(72) @ 355: uvm_test_top.env.scb [RDATA] Matched : exp_rdata=00000000 actual_rdata =00000000
UVM_INFO axi4_lite_subscriber.sv(41) @ 375: uvm_test_top.env.sb [sb] INPUT COVERAGE = 28.12 %
UVM_INFO axi4_lite_inp_monitor.sv(38) @ 375: uvm_test_top.env.aa.inp_mon [INPUT MONITOR] READ araddr=00000034
UVM_INFO axi4_lite_out_monitor.sv(28) @ 385: uvm_test_top.env.pa.out_mon [OUTPUT MONITOR] BRESP = 0 RRESP = 2 RDATA = 00000000
UVM_INFO axi4_lite_driver.sv(34) @ 385: uvm_test_top.env.aa.drv [DRV] awaddr = 0422b038 wdata = ae06d96d wstrb = 6 araddr = 00000034
UVM_INFO axi4_lite_scoreboard.sv(68) @ 385: uvm_test_top.env.scb [RRESP] Matched : exp_rresp=2 actual_rresp =2 write = 0 read = 1
UVM_INFO axi4_lite_scoreboard.sv(72) @ 385: uvm_test_top.env.scb [RDATA] Matched : exp_rdata=00000000 actual_rdata =00000000
UVM_INFO axi4_lite_subscriber.sv(41) @ 405: uvm_test_top.env.sb [sb] INPUT COVERAGE = 28.12 %
UVM_INFO axi4_lite_inp_monitor.sv(38) @ 405: uvm_test_top.env.aa.inp_mon [INPUT MONITOR] READ araddr=00000038
UVM_INFO axi4_lite_out_monitor.sv(28) @ 415: uvm_test_top.env.pa.out_mon [OUTPUT MONITOR] BRESP = 0 RRESP = 2 RDATA = 00000000
UVM_INFO axi4_lite_driver.sv(34) @ 415: uvm_test_top.env.aa.drv [DRV] awaddr = fb63c580 wdata = ed3ecdf4 wstrb = f araddr = 00000038
UVM_INFO axi4_lite_scoreboard.sv(68) @ 415: uvm_test_top.env.scb [RRESP] Matched : exp_rresp=2 actual_rresp =2 write = 0 read = 1
UVM_INFO axi4_lite_scoreboard.sv(72) @ 415: uvm_test_top.env.scb [RDATA] Matched : exp_rdata=00000000 actual_rdata =00000000
UVM_INFO axi4_lite_subscriber.sv(41) @ 435: uvm_test_top.env.sb [sb] INPUT COVERAGE = 28.12 %
UVM_INFO axi4_lite_inp_monitor.sv(38) @ 435: uvm_test_top.env.aa.inp_mon [INPUT MONITOR] READ araddr=00000038
UVM_INFO axi4_lite_out_monitor.sv(28) @ 445: uvm_test_top.env.pa.out_mon [OUTPUT MONITOR] BRESP = 0 RRESP = 2 RDATA = 00000000
UVM_INFO axi4_lite_driver.sv(34) @ 445: uvm_test_top.env.aa.drv [DRV] awaddr = 0c68e638 wdata = 1bf42ec7 wstrb = d araddr = 00000038
UVM_INFO axi4_lite_scoreboard.sv(68) @ 445: uvm_test_top.env.scb [RRESP] Matched : exp_rresp=2 actual_rresp =2 write = 0 read = 1
UVM_INFO axi4_lite_scoreboard.sv(72) @ 445: uvm_test_top.env.scb [RDATA] Matched : exp_rdata=00000000 actual_rdata =00000000
UVM_INFO axi4_lite_subscriber.sv(41) @ 465: uvm_test_top.env.sb [sb] INPUT COVERAGE = 28.12 %
UVM_INFO axi4_lite_inp_monitor.sv(38) @ 465: uvm_test_top.env.aa.inp_mon [INPUT MONITOR] READ araddr=00000038
UVM_INFO axi4_lite_out_monitor.sv(28) @ 475: uvm_test_top.env.pa.out_mon [OUTPUT MONITOR] BRESP = 0 RRESP = 2 RDATA = 00000000
UVM_INFO axi4_lite_driver.sv(34) @ 475: uvm_test_top.env.aa.drv [DRV] awaddr = ad7b6a84 wdata = 9114f7eb wstrb = c araddr = 00000038
UVM_INFO axi4_lite_scoreboard.sv(68) @ 475: uvm_test_top.env.scb [RRESP] Matched : exp_rresp=2 actual_rresp =2 write = 0 read = 1
UVM_INFO axi4_lite_scoreboard.sv(72) @ 475: uvm_test_top.env.scb [RDATA] Matched : exp_rdata=00000000 actual_rdata =00000000
UVM_INFO axi4_lite_subscriber.sv(41) @ 495: uvm_test_top.env.sb [sb] INPUT COVERAGE = 28.12 %
UVM_INFO axi4_lite_inp_monitor.sv(38) @ 495: uvm_test_top.env.aa.inp_mon [INPUT MONITOR] READ araddr=00000034
UVM_INFO axi4_lite_out_monitor.sv(28) @ 505: uvm_test_top.env.pa.out_mon [OUTPUT MONITOR] BRESP = 0 RRESP = 2 RDATA = 00000000
UVM_INFO axi4_lite_driver.sv(34) @ 505: uvm_test_top.env.aa.drv [DRV] awaddr = 6a3603b0 wdata = 0454ed2b wstrb = 4 araddr = 00000034
UVM_INFO axi4_lite_scoreboard.sv(68) @ 505: uvm_test_top.env.scb [RRESP] Matched : exp_rresp=2 actual_rresp =2 write = 0 read = 1
UVM_INFO axi4_lite_scoreboard.sv(72) @ 505: uvm_test_top.env.scb [RDATA] Matched : exp_rdata=00000000 actual_rdata =00000000
UVM_INFO axi4_lite_subscriber.sv(41) @ 525: uvm_test_top.env.sb [sb] INPUT COVERAGE = 28.12 %
UVM_INFO axi4_lite_inp_monitor.sv(38) @ 525: uvm_test_top.env.aa.inp_mon [INPUT MONITOR] READ araddr=00000038
UVM_INFO axi4_lite_out_monitor.sv(28) @ 535: uvm_test_top.env.pa.out_mon [OUTPUT MONITOR] BRESP = 0 RRESP = 2 RDATA = 00000000
UVM_INFO axi4_lite_driver.sv(34) @ 535: uvm_test_top.env.aa.drv [DRV] awaddr = d334ccb8 wdata = d0bf0af7 wstrb = 0 araddr = 00000038
UVM_INFO axi4_lite_scoreboard.sv(68) @ 535: uvm_test_top.env.scb [RRESP] Matched : exp_rresp=2 actual_rresp =2 write = 0 read = 1
UVM_INFO axi4_lite_scoreboard.sv(72) @ 535: uvm_test_top.env.scb [RDATA] Matched : exp_rdata=00000000 actual_rdata =00000000
UVM_INFO axi4_lite_subscriber.sv(41) @ 555: uvm_test_top.env.sb [sb] INPUT COVERAGE = 28.12 %
UVM_INFO axi4_lite_inp_monitor.sv(38) @ 555: uvm_test_top.env.aa.inp_mon [INPUT MONITOR] READ araddr=00000034
UVM_INFO axi4_lite_out_monitor.sv(28) @ 565: uvm_test_top.env.pa.out_mon [OUTPUT MONITOR] BRESP = 0 RRESP = 2 RDATA = 00000000
UVM_INFO axi4_lite_driver.sv(34) @ 565: uvm_test_top.env.aa.drv [DRV] awaddr = 0e5612d8 wdata = 33059d4a wstrb = c araddr = 00000034
UVM_INFO axi4_lite_scoreboard.sv(68) @ 565: uvm_test_top.env.scb [RRESP] Matched : exp_rresp=2 actual_rresp =2 write = 0 read = 1
UVM_INFO axi4_lite_scoreboard.sv(72) @ 565: uvm_test_top.env.scb [RDATA] Matched : exp_rdata=00000000 actual_rdata =00000000
UVM_INFO axi4_lite_subscriber.sv(41) @ 585: uvm_test_top.env.sb [sb] INPUT COVERAGE = 28.12 %
UVM_INFO axi4_lite_inp_monitor.sv(38) @ 585: uvm_test_top.env.aa.inp_mon [INPUT MONITOR] READ araddr=00000038
UVM_INFO axi4_lite_out_monitor.sv(28) @ 595: uvm_test_top.env.pa.out_mon [OUTPUT MONITOR] BRESP = 0 RRESP = 2 RDATA = 00000000
UVM_INFO axi4_lite_driver.sv(34) @ 595: uvm_test_top.env.aa.drv [DRV] awaddr = 3b6c3f24 wdata = cd9bc271 wstrb = 8 araddr = 00000038
UVM_INFO axi4_lite_scoreboard.sv(68) @ 595: uvm_test_top.env.scb [RRESP] Matched : exp_rresp=2 actual_rresp =2 write = 0 read = 1
UVM_INFO axi4_lite_scoreboard.sv(72) @ 595: uvm_test_top.env.scb [RDATA] Matched : exp_rdata=00000000 actual_rdata =00000000
UVM_INFO axi4_lite_subscriber.sv(41) @ 615: uvm_test_top.env.sb [sb] INPUT COVERAGE = 28.12 %
UVM_INFO axi4_lite_inp_monitor.sv(38) @ 615: uvm_test_top.env.aa.inp_mon [INPUT MONITOR] READ araddr=00000034
UVM_INFO axi4_lite_out_monitor.sv(28) @ 625: uvm_test_top.env.pa.out_mon [OUTPUT MONITOR] BRESP = 0 RRESP = 2 RDATA = 00000000
UVM_INFO axi4_lite_driver.sv(34) @ 625: uvm_test_top.env.aa.drv [DRV] awaddr = 5a928614 wdata = eb2a401f wstrb = 1 araddr = 00000034
UVM_INFO axi4_lite_scoreboard.sv(68) @ 625: uvm_test_top.env.scb [RRESP] Matched : exp_rresp=2 actual_rresp =2 write = 0 read = 1
UVM_INFO axi4_lite_scoreboard.sv(72) @ 625: uvm_test_top.env.scb [RDATA] Matched : exp_rdata=00000000 actual_rdata =00000000
UVM_INFO axi4_lite_subscriber.sv(41) @ 645: uvm_test_top.env.sb [sb] INPUT COVERAGE = 28.12 %
UVM_INFO axi4_lite_inp_monitor.sv(38) @ 645: uvm_test_top.env.aa.inp_mon [INPUT MONITOR] READ araddr=00000034
UVM_INFO axi4_lite_out_monitor.sv(28) @ 655: uvm_test_top.env.pa.out_mon [OUTPUT MONITOR] BRESP = 0 RRESP = 2 RDATA = 00000000
UVM_INFO axi4_lite_driver.sv(34) @ 655: uvm_test_top.env.aa.drv [DRV] awaddr = 1675b59c wdata = 4e900be4 wstrb = 7 araddr = 00000034
UVM_INFO axi4_lite_scoreboard.sv(68) @ 655: uvm_test_top.env.scb [RRESP] Matched : exp_rresp=2 actual_rresp =2 write = 0 read = 1
UVM_INFO axi4_lite_scoreboard.sv(72) @ 655: uvm_test_top.env.scb [RDATA] Matched : exp_rdata=00000000 actual_rdata =00000000
UVM_INFO axi4_lite_subscriber.sv(41) @ 675: uvm_test_top.env.sb [sb] INPUT COVERAGE = 28.12 %
UVM_INFO axi4_lite_inp_monitor.sv(38) @ 675: uvm_test_top.env.aa.inp_mon [INPUT MONITOR] READ araddr=00000034
UVM_INFO axi4_lite_out_monitor.sv(28) @ 685: uvm_test_top.env.pa.out_mon [OUTPUT MONITOR] BRESP = 0 RRESP = 2 RDATA = 00000000
UVM_INFO axi4_lite_driver.sv(34) @ 685: uvm_test_top.env.aa.drv [DRV] awaddr = 4c694cac wdata = 092f4921 wstrb = 5 araddr = 00000034
UVM_INFO axi4_lite_scoreboard.sv(68) @ 685: uvm_test_top.env.scb [RRESP] Matched : exp_rresp=2 actual_rresp =2 write = 0 read = 1
UVM_INFO axi4_lite_scoreboard.sv(72) @ 685: uvm_test_top.env.scb [RDATA] Matched : exp_rdata=00000000 actual_rdata =00000000
UVM_INFO axi4_lite_subscriber.sv(41) @ 705: uvm_test_top.env.sb [sb] INPUT COVERAGE = 28.12 %
UVM_INFO axi4_lite_inp_monitor.sv(38) @ 705: uvm_test_top.env.aa.inp_mon [INPUT MONITOR] READ araddr=00000034
UVM_INFO axi4_lite_out_monitor.sv(28) @ 715: uvm_test_top.env.pa.out_mon [OUTPUT MONITOR] BRESP = 0 RRESP = 2 RDATA = 00000000
UVM_INFO axi4_lite_driver.sv(34) @ 715: uvm_test_top.env.aa.drv [DRV] awaddr = 5dbcf4cc wdata = 3df80eed wstrb = 2 araddr = 00000034
UVM_INFO axi4_lite_scoreboard.sv(68) @ 715: uvm_test_top.env.scb [RRESP] Matched : exp_rresp=2 actual_rresp =2 write = 0 read = 1
UVM_INFO axi4_lite_scoreboard.sv(72) @ 715: uvm_test_top.env.scb [RDATA] Matched : exp_rdata=00000000 actual_rdata =00000000
UVM_INFO axi4_lite_subscriber.sv(41) @ 735: uvm_test_top.env.sb [sb] INPUT COVERAGE = 28.12 %
UVM_INFO axi4_lite_inp_monitor.sv(38) @ 735: uvm_test_top.env.aa.inp_mon [INPUT MONITOR] READ araddr=00000034
UVM_INFO axi4_lite_out_monitor.sv(28) @ 745: uvm_test_top.env.pa.out_mon [OUTPUT MONITOR] BRESP = 0 RRESP = 2 RDATA = 00000000
UVM_INFO axi4_lite_driver.sv(34) @ 745: uvm_test_top.env.aa.drv [DRV] awaddr = b30c9f40 wdata = e043a045 wstrb = 4 araddr = 00000034
UVM_INFO axi4_lite_scoreboard.sv(68) @ 745: uvm_test_top.env.scb [RRESP] Matched : exp_rresp=2 actual_rresp =2 write = 0 read = 1
UVM_INFO axi4_lite_scoreboard.sv(72) @ 745: uvm_test_top.env.scb [RDATA] Matched : exp_rdata=00000000 actual_rdata =00000000
UVM_INFO axi4_lite_subscriber.sv(41) @ 765: uvm_test_top.env.sb [sb] INPUT COVERAGE = 28.12 %
UVM_INFO axi4_lite_inp_monitor.sv(38) @ 765: uvm_test_top.env.aa.inp_mon [INPUT MONITOR] READ araddr=00000038
UVM_INFO axi4_lite_out_monitor.sv(28) @ 775: uvm_test_top.env.pa.out_mon [OUTPUT MONITOR] BRESP = 0 RRESP = 2 RDATA = 00000000
UVM_INFO axi4_lite_driver.sv(34) @ 775: uvm_test_top.env.aa.drv [DRV] awaddr = bfdc58a8 wdata = 80ac38c6 wstrb = d araddr = 00000038
UVM_INFO axi4_lite_scoreboard.sv(68) @ 775: uvm_test_top.env.scb [RRESP] Matched : exp_rresp=2 actual_rresp =2 write = 0 read = 1
UVM_INFO axi4_lite_scoreboard.sv(72) @ 775: uvm_test_top.env.scb [RDATA] Matched : exp_rdata=00000000 actual_rdata =00000000
UVM_INFO axi4_lite_subscriber.sv(41) @ 795: uvm_test_top.env.sb [sb] INPUT COVERAGE = 28.12 %
UVM_INFO axi4_lite_inp_monitor.sv(38) @ 795: uvm_test_top.env.aa.inp_mon [INPUT MONITOR] READ araddr=00000034
UVM_INFO axi4_lite_out_monitor.sv(28) @ 805: uvm_test_top.env.pa.out_mon [OUTPUT MONITOR] BRESP = 0 RRESP = 2 RDATA = 00000000
UVM_INFO axi4_lite_driver.sv(34) @ 805: uvm_test_top.env.aa.drv [DRV] awaddr = 0de2a504 wdata = e243b72d wstrb = f araddr = 00000034
UVM_INFO axi4_lite_scoreboard.sv(68) @ 805: uvm_test_top.env.scb [RRESP] Matched : exp_rresp=2 actual_rresp =2 write = 0 read = 1
UVM_INFO axi4_lite_scoreboard.sv(72) @ 805: uvm_test_top.env.scb [RDATA] Matched : exp_rdata=00000000 actual_rdata =00000000
UVM_INFO axi4_lite_subscriber.sv(41) @ 825: uvm_test_top.env.sb [sb] INPUT COVERAGE = 28.12 %
UVM_INFO axi4_lite_inp_monitor.sv(38) @ 825: uvm_test_top.env.aa.inp_mon [INPUT MONITOR] READ araddr=00000034
UVM_INFO axi4_lite_out_monitor.sv(28) @ 835: uvm_test_top.env.pa.out_mon [OUTPUT MONITOR] BRESP = 0 RRESP = 2 RDATA = 00000000
UVM_INFO axi4_lite_driver.sv(34) @ 835: uvm_test_top.env.aa.drv [DRV] awaddr = 0ebdb534 wdata = 610ea1aa wstrb = 0 araddr = 00000034
UVM_INFO axi4_lite_scoreboard.sv(68) @ 835: uvm_test_top.env.scb [RRESP] Matched : exp_rresp=2 actual_rresp =2 write = 0 read = 1
UVM_INFO axi4_lite_scoreboard.sv(72) @ 835: uvm_test_top.env.scb [RDATA] Matched : exp_rdata=00000000 actual_rdata =00000000
UVM_INFO axi4_lite_subscriber.sv(41) @ 855: uvm_test_top.env.sb [sb] INPUT COVERAGE = 28.12 %
UVM_INFO axi4_lite_inp_monitor.sv(38) @ 855: uvm_test_top.env.aa.inp_mon [INPUT MONITOR] READ araddr=00000034
UVM_INFO axi4_lite_out_monitor.sv(28) @ 865: uvm_test_top.env.pa.out_mon [OUTPUT MONITOR] BRESP = 0 RRESP = 2 RDATA = 00000000
UVM_INFO axi4_lite_driver.sv(34) @ 865: uvm_test_top.env.aa.drv [DRV] awaddr = 6d674b58 wdata = f17f4902 wstrb = 2 araddr = 00000034
UVM_INFO axi4_lite_scoreboard.sv(68) @ 865: uvm_test_top.env.scb [RRESP] Matched : exp_rresp=2 actual_rresp =2 write = 0 read = 1
UVM_INFO axi4_lite_scoreboard.sv(72) @ 865: uvm_test_top.env.scb [RDATA] Matched : exp_rdata=00000000 actual_rdata =00000000
UVM_INFO axi4_lite_subscriber.sv(41) @ 885: uvm_test_top.env.sb [sb] INPUT COVERAGE = 28.12 %
UVM_INFO axi4_lite_inp_monitor.sv(38) @ 885: uvm_test_top.env.aa.inp_mon [INPUT MONITOR] READ araddr=00000034
UVM_INFO axi4_lite_out_monitor.sv(28) @ 895: uvm_test_top.env.pa.out_mon [OUTPUT MONITOR] BRESP = 0 RRESP = 2 RDATA = 00000000
UVM_INFO axi4_lite_driver.sv(34) @ 895: uvm_test_top.env.aa.drv [DRV] awaddr = 9ce54ac8 wdata = 160fc4f9 wstrb = 7 araddr = 00000034
UVM_INFO axi4_lite_scoreboard.sv(68) @ 895: uvm_test_top.env.scb [RRESP] Matched : exp_rresp=2 actual_rresp =2 write = 0 read = 1
UVM_INFO axi4_lite_scoreboard.sv(72) @ 895: uvm_test_top.env.scb [RDATA] Matched : exp_rdata=00000000 actual_rdata =00000000
UVM_INFO axi4_lite_subscriber.sv(41) @ 915: uvm_test_top.env.sb [sb] INPUT COVERAGE = 28.12 %
UVM_INFO axi4_lite_inp_monitor.sv(38) @ 915: uvm_test_top.env.aa.inp_mon [INPUT MONITOR] READ araddr=00000038
UVM_INFO axi4_lite_out_monitor.sv(28) @ 925: uvm_test_top.env.pa.out_mon [OUTPUT MONITOR] BRESP = 0 RRESP = 2 RDATA = 00000000
UVM_INFO axi4_lite_driver.sv(34) @ 925: uvm_test_top.env.aa.drv [DRV] awaddr = 5d19533c wdata = 292db70a wstrb = 7 araddr = 00000038
UVM_INFO axi4_lite_scoreboard.sv(68) @ 925: uvm_test_top.env.scb [RRESP] Matched : exp_rresp=2 actual_rresp =2 write = 0 read = 1
UVM_INFO axi4_lite_scoreboard.sv(72) @ 925: uvm_test_top.env.scb [RDATA] Matched : exp_rdata=00000000 actual_rdata =00000000
UVM_INFO axi4_lite_subscriber.sv(41) @ 945: uvm_test_top.env.sb [sb] INPUT COVERAGE = 28.12 %
UVM_INFO axi4_lite_inp_monitor.sv(38) @ 945: uvm_test_top.env.aa.inp_mon [INPUT MONITOR] READ araddr=00000034
UVM_INFO axi4_lite_out_monitor.sv(28) @ 955: uvm_test_top.env.pa.out_mon [OUTPUT MONITOR] BRESP = 0 RRESP = 2 RDATA = 00000000
UVM_INFO axi4_lite_driver.sv(34) @ 955: uvm_test_top.env.aa.drv [DRV] awaddr = 7af215e0 wdata = d8961157 wstrb = a araddr = 00000034
UVM_INFO axi4_lite_scoreboard.sv(68) @ 955: uvm_test_top.env.scb [RRESP] Matched : exp_rresp=2 actual_rresp =2 write = 0 read = 1
UVM_INFO axi4_lite_scoreboard.sv(72) @ 955: uvm_test_top.env.scb [RDATA] Matched : exp_rdata=00000000 actual_rdata =00000000
UVM_INFO axi4_lite_subscriber.sv(41) @ 975: uvm_test_top.env.sb [sb] INPUT COVERAGE = 28.12 %
UVM_INFO axi4_lite_inp_monitor.sv(38) @ 975: uvm_test_top.env.aa.inp_mon [INPUT MONITOR] READ araddr=00000034
UVM_INFO axi4_lite_out_monitor.sv(28) @ 985: uvm_test_top.env.pa.out_mon [OUTPUT MONITOR] BRESP = 0 RRESP = 2 RDATA = 00000000
UVM_INFO axi4_lite_driver.sv(34) @ 985: uvm_test_top.env.aa.drv [DRV] awaddr = 5e082ce0 wdata = 9a1169b0 wstrb = e araddr = 00000034
UVM_INFO axi4_lite_scoreboard.sv(68) @ 985: uvm_test_top.env.scb [RRESP] Matched : exp_rresp=2 actual_rresp =2 write = 0 read = 1
UVM_INFO axi4_lite_scoreboard.sv(72) @ 985: uvm_test_top.env.scb [RDATA] Matched : exp_rdata=00000000 actual_rdata =00000000
UVM_INFO axi4_lite_subscriber.sv(41) @ 1005: uvm_test_top.env.sb [sb] INPUT COVERAGE = 28.12 %
UVM_INFO axi4_lite_inp_monitor.sv(38) @ 1005: uvm_test_top.env.aa.inp_mon [INPUT MONITOR] READ araddr=00000038
UVM_INFO axi4_lite_out_monitor.sv(28) @ 1015: uvm_test_top.env.pa.out_mon [OUTPUT MONITOR] BRESP = 0 RRESP = 2 RDATA = 00000000
UVM_INFO axi4_lite_driver.sv(34) @ 1015: uvm_test_top.env.aa.drv [DRV] awaddr = 94a3d01c wdata = 36c20173 wstrb = f araddr = 00000038
UVM_INFO axi4_lite_scoreboard.sv(68) @ 1015: uvm_test_top.env.scb [RRESP] Matched : exp_rresp=2 actual_rresp =2 write = 0 read = 1
UVM_INFO axi4_lite_scoreboard.sv(72) @ 1015: uvm_test_top.env.scb [RDATA] Matched : exp_rdata=00000000 actual_rdata =00000000
UVM_INFO axi4_lite_subscriber.sv(41) @ 1035: uvm_test_top.env.sb [sb] INPUT COVERAGE = 28.12 %
UVM_INFO axi4_lite_inp_monitor.sv(38) @ 1035: uvm_test_top.env.aa.inp_mon [INPUT MONITOR] READ araddr=00000038
UVM_INFO axi4_lite_out_monitor.sv(28) @ 1045: uvm_test_top.env.pa.out_mon [OUTPUT MONITOR] BRESP = 0 RRESP = 2 RDATA = 00000000
UVM_INFO axi4_lite_driver.sv(34) @ 1045: uvm_test_top.env.aa.drv [DRV] awaddr = 2d9b0350 wdata = f26f763b wstrb = 5 araddr = 00000038
UVM_INFO axi4_lite_scoreboard.sv(68) @ 1045: uvm_test_top.env.scb [RRESP] Matched : exp_rresp=2 actual_rresp =2 write = 0 read = 1
UVM_INFO axi4_lite_scoreboard.sv(72) @ 1045: uvm_test_top.env.scb [RDATA] Matched : exp_rdata=00000000 actual_rdata =00000000
UVM_INFO axi4_lite_subscriber.sv(41) @ 1065: uvm_test_top.env.sb [sb] INPUT COVERAGE = 28.12 %
UVM_INFO axi4_lite_inp_monitor.sv(38) @ 1065: uvm_test_top.env.aa.inp_mon [INPUT MONITOR] READ araddr=00000034
UVM_INFO axi4_lite_out_monitor.sv(28) @ 1075: uvm_test_top.env.pa.out_mon [OUTPUT MONITOR] BRESP = 0 RRESP = 2 RDATA = 00000000
UVM_INFO axi4_lite_driver.sv(34) @ 1075: uvm_test_top.env.aa.drv [DRV] awaddr = 4618dfc4 wdata = c13007e5 wstrb = 8 araddr = 00000034
UVM_INFO axi4_lite_scoreboard.sv(68) @ 1075: uvm_test_top.env.scb [RRESP] Matched : exp_rresp=2 actual_rresp =2 write = 0 read = 1
UVM_INFO axi4_lite_scoreboard.sv(72) @ 1075: uvm_test_top.env.scb [RDATA] Matched : exp_rdata=00000000 actual_rdata =00000000
UVM_INFO axi4_lite_subscriber.sv(41) @ 1095: uvm_test_top.env.sb [sb] INPUT COVERAGE = 28.12 %
UVM_INFO axi4_lite_inp_monitor.sv(38) @ 1095: uvm_test_top.env.aa.inp_mon [INPUT MONITOR] READ araddr=00000038
UVM_INFO axi4_lite_out_monitor.sv(28) @ 1105: uvm_test_top.env.pa.out_mon [OUTPUT MONITOR] BRESP = 0 RRESP = 2 RDATA = 00000000
UVM_INFO axi4_lite_driver.sv(34) @ 1105: uvm_test_top.env.aa.drv [DRV] awaddr = 6b028298 wdata = 6625b294 wstrb = 7 araddr = 00000038
UVM_INFO axi4_lite_scoreboard.sv(68) @ 1105: uvm_test_top.env.scb [RRESP] Matched : exp_rresp=2 actual_rresp =2 write = 0 read = 1
UVM_INFO axi4_lite_scoreboard.sv(72) @ 1105: uvm_test_top.env.scb [RDATA] Matched : exp_rdata=00000000 actual_rdata =00000000
UVM_INFO axi4_lite_subscriber.sv(41) @ 1125: uvm_test_top.env.sb [sb] INPUT COVERAGE = 28.12 %
UVM_INFO axi4_lite_inp_monitor.sv(38) @ 1125: uvm_test_top.env.aa.inp_mon [INPUT MONITOR] READ araddr=00000034
UVM_INFO axi4_lite_out_monitor.sv(28) @ 1135: uvm_test_top.env.pa.out_mon [OUTPUT MONITOR] BRESP = 0 RRESP = 2 RDATA = 00000000
UVM_INFO axi4_lite_driver.sv(34) @ 1135: uvm_test_top.env.aa.drv [DRV] awaddr = f1f5a66c wdata = d7b1f0f2 wstrb = 6 araddr = 00000034
UVM_INFO axi4_lite_scoreboard.sv(68) @ 1135: uvm_test_top.env.scb [RRESP] Matched : exp_rresp=2 actual_rresp =2 write = 0 read = 1
UVM_INFO axi4_lite_scoreboard.sv(72) @ 1135: uvm_test_top.env.scb [RDATA] Matched : exp_rdata=00000000 actual_rdata =00000000
UVM_INFO axi4_lite_subscriber.sv(41) @ 1155: uvm_test_top.env.sb [sb] INPUT COVERAGE = 28.12 %
UVM_INFO axi4_lite_inp_monitor.sv(38) @ 1155: uvm_test_top.env.aa.inp_mon [INPUT MONITOR] READ araddr=00000038
UVM_INFO axi4_lite_out_monitor.sv(28) @ 1165: uvm_test_top.env.pa.out_mon [OUTPUT MONITOR] BRESP = 0 RRESP = 2 RDATA = 00000000
UVM_INFO axi4_lite_driver.sv(34) @ 1165: uvm_test_top.env.aa.drv [DRV] awaddr = 599a3d04 wdata = f6bad993 wstrb = 0 araddr = 00000038
UVM_INFO axi4_lite_scoreboard.sv(68) @ 1165: uvm_test_top.env.scb [RRESP] Matched : exp_rresp=2 actual_rresp =2 write = 0 read = 1
UVM_INFO axi4_lite_scoreboard.sv(72) @ 1165: uvm_test_top.env.scb [RDATA] Matched : exp_rdata=00000000 actual_rdata =00000000
UVM_INFO axi4_lite_subscriber.sv(41) @ 1185: uvm_test_top.env.sb [sb] INPUT COVERAGE = 28.12 %
UVM_INFO axi4_lite_inp_monitor.sv(38) @ 1185: uvm_test_top.env.aa.inp_mon [INPUT MONITOR] READ araddr=00000034
UVM_INFO axi4_lite_out_monitor.sv(28) @ 1195: uvm_test_top.env.pa.out_mon [OUTPUT MONITOR] BRESP = 0 RRESP = 2 RDATA = 00000000
UVM_INFO axi4_lite_driver.sv(34) @ 1195: uvm_test_top.env.aa.drv [DRV] awaddr = c2fb0da4 wdata = aabaccc6 wstrb = 5 araddr = 00000034
UVM_INFO axi4_lite_scoreboard.sv(68) @ 1195: uvm_test_top.env.scb [RRESP] Matched : exp_rresp=2 actual_rresp =2 write = 0 read = 1
UVM_INFO axi4_lite_scoreboard.sv(72) @ 1195: uvm_test_top.env.scb [RDATA] Matched : exp_rdata=00000000 actual_rdata =00000000
UVM_INFO axi4_lite_subscriber.sv(41) @ 1215: uvm_test_top.env.sb [sb] INPUT COVERAGE = 28.12 %
UVM_INFO axi4_lite_inp_monitor.sv(38) @ 1215: uvm_test_top.env.aa.inp_mon [INPUT MONITOR] READ araddr=00000034
UVM_INFO axi4_lite_out_monitor.sv(28) @ 1225: uvm_test_top.env.pa.out_mon [OUTPUT MONITOR] BRESP = 0 RRESP = 2 RDATA = 00000000
UVM_INFO axi4_lite_driver.sv(34) @ 1225: uvm_test_top.env.aa.drv [DRV] awaddr = f7c9185c wdata = b3c909c6 wstrb = 2 araddr = 00000034
UVM_INFO axi4_lite_scoreboard.sv(68) @ 1225: uvm_test_top.env.scb [RRESP] Matched : exp_rresp=2 actual_rresp =2 write = 0 read = 1
UVM_INFO axi4_lite_scoreboard.sv(72) @ 1225: uvm_test_top.env.scb [RDATA] Matched : exp_rdata=00000000 actual_rdata =00000000
UVM_INFO axi4_lite_subscriber.sv(41) @ 1245: uvm_test_top.env.sb [sb] INPUT COVERAGE = 28.12 %
UVM_INFO axi4_lite_inp_monitor.sv(38) @ 1245: uvm_test_top.env.aa.inp_mon [INPUT MONITOR] READ araddr=00000038
UVM_INFO axi4_lite_out_monitor.sv(28) @ 1255: uvm_test_top.env.pa.out_mon [OUTPUT MONITOR] BRESP = 0 RRESP = 2 RDATA = 00000000
UVM_INFO axi4_lite_driver.sv(34) @ 1255: uvm_test_top.env.aa.drv [DRV] awaddr = a70c0fa0 wdata = 10d3c962 wstrb = d araddr = 00000038
UVM_INFO axi4_lite_scoreboard.sv(68) @ 1255: uvm_test_top.env.scb [RRESP] Matched : exp_rresp=2 actual_rresp =2 write = 0 read = 1
UVM_INFO axi4_lite_scoreboard.sv(72) @ 1255: uvm_test_top.env.scb [RDATA] Matched : exp_rdata=00000000 actual_rdata =00000000
UVM_INFO axi4_lite_subscriber.sv(41) @ 1275: uvm_test_top.env.sb [sb] INPUT COVERAGE = 28.12 %
UVM_INFO axi4_lite_inp_monitor.sv(38) @ 1275: uvm_test_top.env.aa.inp_mon [INPUT MONITOR] READ araddr=00000038
UVM_INFO axi4_lite_out_monitor.sv(28) @ 1285: uvm_test_top.env.pa.out_mon [OUTPUT MONITOR] BRESP = 0 RRESP = 2 RDATA = 00000000
UVM_INFO axi4_lite_driver.sv(34) @ 1285: uvm_test_top.env.aa.drv [DRV] awaddr = 49edce48 wdata = 902fad16 wstrb = 2 araddr = 00000038
UVM_INFO axi4_lite_scoreboard.sv(68) @ 1285: uvm_test_top.env.scb [RRESP] Matched : exp_rresp=2 actual_rresp =2 write = 0 read = 1
UVM_INFO axi4_lite_scoreboard.sv(72) @ 1285: uvm_test_top.env.scb [RDATA] Matched : exp_rdata=00000000 actual_rdata =00000000
UVM_INFO axi4_lite_subscriber.sv(41) @ 1305: uvm_test_top.env.sb [sb] INPUT COVERAGE = 28.12 %
UVM_INFO axi4_lite_inp_monitor.sv(38) @ 1305: uvm_test_top.env.aa.inp_mon [INPUT MONITOR] READ araddr=00000034
UVM_INFO axi4_lite_out_monitor.sv(28) @ 1315: uvm_test_top.env.pa.out_mon [OUTPUT MONITOR] BRESP = 0 RRESP = 2 RDATA = 00000000
UVM_INFO axi4_lite_driver.sv(34) @ 1315: uvm_test_top.env.aa.drv [DRV] awaddr = 1e9a9b6c wdata = 0fe6cf23 wstrb = b araddr = 00000034
UVM_INFO axi4_lite_scoreboard.sv(68) @ 1315: uvm_test_top.env.scb [RRESP] Matched : exp_rresp=2 actual_rresp =2 write = 0 read = 1
UVM_INFO axi4_lite_scoreboard.sv(72) @ 1315: uvm_test_top.env.scb [RDATA] Matched : exp_rdata=00000000 actual_rdata =00000000
UVM_INFO axi4_lite_subscriber.sv(41) @ 1335: uvm_test_top.env.sb [sb] INPUT COVERAGE = 28.12 %
UVM_INFO axi4_lite_inp_monitor.sv(38) @ 1335: uvm_test_top.env.aa.inp_mon [INPUT MONITOR] READ araddr=00000034
UVM_INFO axi4_lite_out_monitor.sv(28) @ 1345: uvm_test_top.env.pa.out_mon [OUTPUT MONITOR] BRESP = 0 RRESP = 2 RDATA = 00000000
UVM_INFO axi4_lite_driver.sv(34) @ 1345: uvm_test_top.env.aa.drv [DRV] awaddr = a62ca2ec wdata = 5356eb87 wstrb = 1 araddr = 00000034
UVM_INFO axi4_lite_scoreboard.sv(68) @ 1345: uvm_test_top.env.scb [RRESP] Matched : exp_rresp=2 actual_rresp =2 write = 0 read = 1
UVM_INFO axi4_lite_scoreboard.sv(72) @ 1345: uvm_test_top.env.scb [RDATA] Matched : exp_rdata=00000000 actual_rdata =00000000
UVM_INFO axi4_lite_subscriber.sv(41) @ 1365: uvm_test_top.env.sb [sb] INPUT COVERAGE = 28.12 %
UVM_INFO axi4_lite_inp_monitor.sv(38) @ 1365: uvm_test_top.env.aa.inp_mon [INPUT MONITOR] READ araddr=00000034
UVM_INFO axi4_lite_out_monitor.sv(28) @ 1375: uvm_test_top.env.pa.out_mon [OUTPUT MONITOR] BRESP = 0 RRESP = 2 RDATA = 00000000
UVM_INFO axi4_lite_driver.sv(34) @ 1375: uvm_test_top.env.aa.drv [DRV] awaddr = b3934cf8 wdata = 8837c7f4 wstrb = 9 araddr = 00000034
UVM_INFO axi4_lite_scoreboard.sv(68) @ 1375: uvm_test_top.env.scb [RRESP] Matched : exp_rresp=2 actual_rresp =2 write = 0 read = 1
UVM_INFO axi4_lite_scoreboard.sv(72) @ 1375: uvm_test_top.env.scb [RDATA] Matched : exp_rdata=00000000 actual_rdata =00000000
UVM_INFO axi4_lite_subscriber.sv(41) @ 1395: uvm_test_top.env.sb [sb] INPUT COVERAGE = 28.12 %
UVM_INFO axi4_lite_inp_monitor.sv(38) @ 1395: uvm_test_top.env.aa.inp_mon [INPUT MONITOR] READ araddr=00000038
UVM_INFO axi4_lite_out_monitor.sv(28) @ 1405: uvm_test_top.env.pa.out_mon [OUTPUT MONITOR] BRESP = 0 RRESP = 2 RDATA = 00000000
UVM_INFO axi4_lite_driver.sv(34) @ 1405: uvm_test_top.env.aa.drv [DRV] awaddr = 757bb23c wdata = 9bd588d5 wstrb = 7 araddr = 00000038
UVM_INFO axi4_lite_scoreboard.sv(68) @ 1405: uvm_test_top.env.scb [RRESP] Matched : exp_rresp=2 actual_rresp =2 write = 0 read = 1
UVM_INFO axi4_lite_scoreboard.sv(72) @ 1405: uvm_test_top.env.scb [RDATA] Matched : exp_rdata=00000000 actual_rdata =00000000
UVM_INFO axi4_lite_subscriber.sv(41) @ 1425: uvm_test_top.env.sb [sb] INPUT COVERAGE = 28.12 %
UVM_INFO axi4_lite_inp_monitor.sv(38) @ 1425: uvm_test_top.env.aa.inp_mon [INPUT MONITOR] READ araddr=00000038
UVM_INFO axi4_lite_out_monitor.sv(28) @ 1435: uvm_test_top.env.pa.out_mon [OUTPUT MONITOR] BRESP = 0 RRESP = 2 RDATA = 00000000
UVM_INFO axi4_lite_driver.sv(34) @ 1435: uvm_test_top.env.aa.drv [DRV] awaddr = d9c0be78 wdata = 71fc25a5 wstrb = 6 araddr = 00000038
UVM_INFO axi4_lite_scoreboard.sv(68) @ 1435: uvm_test_top.env.scb [RRESP] Matched : exp_rresp=2 actual_rresp =2 write = 0 read = 1
UVM_INFO axi4_lite_scoreboard.sv(72) @ 1435: uvm_test_top.env.scb [RDATA] Matched : exp_rdata=00000000 actual_rdata =00000000
UVM_INFO axi4_lite_subscriber.sv(41) @ 1455: uvm_test_top.env.sb [sb] INPUT COVERAGE = 28.12 %
UVM_INFO axi4_lite_inp_monitor.sv(38) @ 1455: uvm_test_top.env.aa.inp_mon [INPUT MONITOR] READ araddr=00000034
UVM_INFO axi4_lite_out_monitor.sv(28) @ 1465: uvm_test_top.env.pa.out_mon [OUTPUT MONITOR] BRESP = 0 RRESP = 2 RDATA = 00000000
UVM_INFO axi4_lite_driver.sv(34) @ 1465: uvm_test_top.env.aa.drv [DRV] awaddr = e30b3fa4 wdata = bdf0c575 wstrb = f araddr = 00000034
UVM_INFO axi4_lite_scoreboard.sv(68) @ 1465: uvm_test_top.env.scb [RRESP] Matched : exp_rresp=2 actual_rresp =2 write = 0 read = 1
UVM_INFO axi4_lite_scoreboard.sv(72) @ 1465: uvm_test_top.env.scb [RDATA] Matched : exp_rdata=00000000 actual_rdata =00000000
UVM_INFO axi4_lite_subscriber.sv(41) @ 1485: uvm_test_top.env.sb [sb] INPUT COVERAGE = 28.12 %
UVM_INFO axi4_lite_inp_monitor.sv(38) @ 1485: uvm_test_top.env.aa.inp_mon [INPUT MONITOR] READ araddr=00000038
UVM_INFO axi4_lite_out_monitor.sv(28) @ 1495: uvm_test_top.env.pa.out_mon [OUTPUT MONITOR] BRESP = 0 RRESP = 2 RDATA = 00000000
UVM_INFO axi4_lite_driver.sv(34) @ 1495: uvm_test_top.env.aa.drv [DRV] awaddr = d63b0574 wdata = e856e1ba wstrb = f araddr = 00000038
UVM_INFO axi4_lite_scoreboard.sv(68) @ 1495: uvm_test_top.env.scb [RRESP] Matched : exp_rresp=2 actual_rresp =2 write = 0 read = 1
UVM_INFO axi4_lite_scoreboard.sv(72) @ 1495: uvm_test_top.env.scb [RDATA] Matched : exp_rdata=00000000 actual_rdata =00000000
UVM_INFO axi4_lite_subscriber.sv(41) @ 1515: uvm_test_top.env.sb [sb] INPUT COVERAGE = 28.12 %
UVM_INFO axi4_lite_inp_monitor.sv(38) @ 1515: uvm_test_top.env.aa.inp_mon [INPUT MONITOR] READ araddr=00000038
UVM_INFO axi4_lite_out_monitor.sv(28) @ 1525: uvm_test_top.env.pa.out_mon [OUTPUT MONITOR] BRESP = 0 RRESP = 2 RDATA = 00000000
UVM_INFO axi4_lite_driver.sv(34) @ 1525: uvm_test_top.env.aa.drv [DRV] awaddr = 8bc4fad8 wdata = 08639557 wstrb = 4 araddr = 00000038
UVM_INFO axi4_lite_scoreboard.sv(68) @ 1525: uvm_test_top.env.scb [RRESP] Matched : exp_rresp=2 actual_rresp =2 write = 0 read = 1
UVM_INFO axi4_lite_scoreboard.sv(72) @ 1525: uvm_test_top.env.scb [RDATA] Matched : exp_rdata=00000000 actual_rdata =00000000
UVM_INFO axi4_lite_subscriber.sv(41) @ 1545: uvm_test_top.env.sb [sb] INPUT COVERAGE = 28.12 %
UVM_INFO axi4_lite_inp_monitor.sv(38) @ 1545: uvm_test_top.env.aa.inp_mon [INPUT MONITOR] READ araddr=00000038
UVM_INFO axi4_lite_out_monitor.sv(28) @ 1555: uvm_test_top.env.pa.out_mon [OUTPUT MONITOR] BRESP = 0 RRESP = 2 RDATA = 00000000
UVM_INFO axi4_lite_driver.sv(34) @ 1555: uvm_test_top.env.aa.drv [DRV] awaddr = faee76f4 wdata = e75b4713 wstrb = d araddr = 00000038
UVM_INFO axi4_lite_scoreboard.sv(68) @ 1555: uvm_test_top.env.scb [RRESP] Matched : exp_rresp=2 actual_rresp =2 write = 0 read = 1
UVM_INFO axi4_lite_scoreboard.sv(72) @ 1555: uvm_test_top.env.scb [RDATA] Matched : exp_rdata=00000000 actual_rdata =00000000
UVM_INFO axi4_lite_subscriber.sv(41) @ 1575: uvm_test_top.env.sb [sb] INPUT COVERAGE = 28.12 %
UVM_INFO axi4_lite_inp_monitor.sv(38) @ 1575: uvm_test_top.env.aa.inp_mon [INPUT MONITOR] READ araddr=00000034
UVM_INFO axi4_lite_out_monitor.sv(28) @ 1585: uvm_test_top.env.pa.out_mon [OUTPUT MONITOR] BRESP = 0 RRESP = 2 RDATA = 00000000
UVM_INFO axi4_lite_driver.sv(34) @ 1585: uvm_test_top.env.aa.drv [DRV] awaddr = 7ea0989c wdata = e3a6ce4a wstrb = d araddr = 00000034
UVM_INFO axi4_lite_scoreboard.sv(68) @ 1585: uvm_test_top.env.scb [RRESP] Matched : exp_rresp=2 actual_rresp =2 write = 0 read = 1
UVM_INFO axi4_lite_scoreboard.sv(72) @ 1585: uvm_test_top.env.scb [RDATA] Matched : exp_rdata=00000000 actual_rdata =00000000
UVM_INFO axi4_lite_subscriber.sv(41) @ 1605: uvm_test_top.env.sb [sb] INPUT COVERAGE = 28.12 %
UVM_INFO axi4_lite_inp_monitor.sv(38) @ 1605: uvm_test_top.env.aa.inp_mon [INPUT MONITOR] READ araddr=00000034
UVM_INFO axi4_lite_out_monitor.sv(28) @ 1615: uvm_test_top.env.pa.out_mon [OUTPUT MONITOR] BRESP = 0 RRESP = 2 RDATA = 00000000
UVM_INFO axi4_lite_driver.sv(34) @ 1615: uvm_test_top.env.aa.drv [DRV] awaddr = b5a56304 wdata = f705bf24 wstrb = c araddr = 00000034
UVM_INFO axi4_lite_scoreboard.sv(68) @ 1615: uvm_test_top.env.scb [RRESP] Matched : exp_rresp=2 actual_rresp =2 write = 0 read = 1
UVM_INFO axi4_lite_scoreboard.sv(72) @ 1615: uvm_test_top.env.scb [RDATA] Matched : exp_rdata=00000000 actual_rdata =00000000
UVM_INFO axi4_lite_subscriber.sv(41) @ 1635: uvm_test_top.env.sb [sb] INPUT COVERAGE = 28.12 %
UVM_INFO axi4_lite_inp_monitor.sv(38) @ 1635: uvm_test_top.env.aa.inp_mon [INPUT MONITOR] READ araddr=00000038
UVM_INFO axi4_lite_out_monitor.sv(28) @ 1645: uvm_test_top.env.pa.out_mon [OUTPUT MONITOR] BRESP = 0 RRESP = 2 RDATA = 00000000
UVM_INFO axi4_lite_driver.sv(34) @ 1645: uvm_test_top.env.aa.drv [DRV] awaddr = 5c6ae970 wdata = 48913f3f wstrb = 2 araddr = 00000038
UVM_INFO axi4_lite_scoreboard.sv(68) @ 1645: uvm_test_top.env.scb [RRESP] Matched : exp_rresp=2 actual_rresp =2 write = 0 read = 1
UVM_INFO axi4_lite_scoreboard.sv(72) @ 1645: uvm_test_top.env.scb [RDATA] Matched : exp_rdata=00000000 actual_rdata =00000000
UVM_INFO axi4_lite_subscriber.sv(41) @ 1665: uvm_test_top.env.sb [sb] INPUT COVERAGE = 28.12 %
UVM_INFO axi4_lite_inp_monitor.sv(38) @ 1665: uvm_test_top.env.aa.inp_mon [INPUT MONITOR] READ araddr=00000034
UVM_INFO axi4_lite_out_monitor.sv(28) @ 1675: uvm_test_top.env.pa.out_mon [OUTPUT MONITOR] BRESP = 0 RRESP = 2 RDATA = 00000000
UVM_INFO axi4_lite_driver.sv(34) @ 1675: uvm_test_top.env.aa.drv [DRV] awaddr = 480d99fc wdata = 1f3c9a13 wstrb = 0 araddr = 00000034
UVM_INFO axi4_lite_scoreboard.sv(68) @ 1675: uvm_test_top.env.scb [RRESP] Matched : exp_rresp=2 actual_rresp =2 write = 0 read = 1
UVM_INFO axi4_lite_scoreboard.sv(72) @ 1675: uvm_test_top.env.scb [RDATA] Matched : exp_rdata=00000000 actual_rdata =00000000
UVM_INFO axi4_lite_subscriber.sv(41) @ 1695: uvm_test_top.env.sb [sb] INPUT COVERAGE = 28.12 %
UVM_INFO axi4_lite_inp_monitor.sv(38) @ 1695: uvm_test_top.env.aa.inp_mon [INPUT MONITOR] READ araddr=00000038
UVM_INFO axi4_lite_out_monitor.sv(28) @ 1705: uvm_test_top.env.pa.out_mon [OUTPUT MONITOR] BRESP = 0 RRESP = 2 RDATA = 00000000
UVM_INFO axi4_lite_driver.sv(34) @ 1705: uvm_test_top.env.aa.drv [DRV] awaddr = 8ff5cc8c wdata = 44055579 wstrb = e araddr = 00000038
UVM_INFO axi4_lite_scoreboard.sv(68) @ 1705: uvm_test_top.env.scb [RRESP] Matched : exp_rresp=2 actual_rresp =2 write = 0 read = 1
UVM_INFO axi4_lite_scoreboard.sv(72) @ 1705: uvm_test_top.env.scb [RDATA] Matched : exp_rdata=00000000 actual_rdata =00000000
UVM_INFO axi4_lite_subscriber.sv(41) @ 1725: uvm_test_top.env.sb [sb] INPUT COVERAGE = 28.12 %
UVM_INFO axi4_lite_inp_monitor.sv(38) @ 1725: uvm_test_top.env.aa.inp_mon [INPUT MONITOR] READ araddr=00000034
UVM_INFO axi4_lite_out_monitor.sv(28) @ 1735: uvm_test_top.env.pa.out_mon [OUTPUT MONITOR] BRESP = 0 RRESP = 2 RDATA = 00000000
UVM_INFO axi4_lite_driver.sv(34) @ 1735: uvm_test_top.env.aa.drv [DRV] awaddr = b7288f74 wdata = 7a708b5d wstrb = 6 araddr = 00000034
UVM_INFO axi4_lite_scoreboard.sv(68) @ 1735: uvm_test_top.env.scb [RRESP] Matched : exp_rresp=2 actual_rresp =2 write = 0 read = 1
UVM_INFO axi4_lite_scoreboard.sv(72) @ 1735: uvm_test_top.env.scb [RDATA] Matched : exp_rdata=00000000 actual_rdata =00000000
UVM_INFO axi4_lite_subscriber.sv(41) @ 1755: uvm_test_top.env.sb [sb] INPUT COVERAGE = 28.12 %
UVM_INFO axi4_lite_inp_monitor.sv(38) @ 1755: uvm_test_top.env.aa.inp_mon [INPUT MONITOR] READ araddr=00000034
UVM_INFO axi4_lite_out_monitor.sv(28) @ 1765: uvm_test_top.env.pa.out_mon [OUTPUT MONITOR] BRESP = 0 RRESP = 2 RDATA = 00000000
UVM_INFO axi4_lite_driver.sv(34) @ 1765: uvm_test_top.env.aa.drv [DRV] awaddr = c01a6654 wdata = f5377717 wstrb = d araddr = 00000034
UVM_INFO axi4_lite_scoreboard.sv(68) @ 1765: uvm_test_top.env.scb [RRESP] Matched : exp_rresp=2 actual_rresp =2 write = 0 read = 1
UVM_INFO axi4_lite_scoreboard.sv(72) @ 1765: uvm_test_top.env.scb [RDATA] Matched : exp_rdata=00000000 actual_rdata =00000000
UVM_INFO axi4_lite_subscriber.sv(41) @ 1785: uvm_test_top.env.sb [sb] INPUT COVERAGE = 28.12 %
UVM_INFO axi4_lite_inp_monitor.sv(38) @ 1785: uvm_test_top.env.aa.inp_mon [INPUT MONITOR] READ araddr=00000034
UVM_INFO axi4_lite_out_monitor.sv(28) @ 1795: uvm_test_top.env.pa.out_mon [OUTPUT MONITOR] BRESP = 0 RRESP = 2 RDATA = 00000000
UVM_INFO axi4_lite_driver.sv(34) @ 1795: uvm_test_top.env.aa.drv [DRV] awaddr = fdf0ede4 wdata = 3cba0789 wstrb = a araddr = 00000034
UVM_INFO axi4_lite_scoreboard.sv(68) @ 1795: uvm_test_top.env.scb [RRESP] Matched : exp_rresp=2 actual_rresp =2 write = 0 read = 1
UVM_INFO axi4_lite_scoreboard.sv(72) @ 1795: uvm_test_top.env.scb [RDATA] Matched : exp_rdata=00000000 actual_rdata =00000000
UVM_INFO axi4_lite_subscriber.sv(41) @ 1815: uvm_test_top.env.sb [sb] INPUT COVERAGE = 28.12 %
UVM_INFO axi4_lite_inp_monitor.sv(38) @ 1815: uvm_test_top.env.aa.inp_mon [INPUT MONITOR] READ araddr=00000038
UVM_INFO axi4_lite_out_monitor.sv(28) @ 1825: uvm_test_top.env.pa.out_mon [OUTPUT MONITOR] BRESP = 0 RRESP = 2 RDATA = 00000000
UVM_INFO axi4_lite_driver.sv(34) @ 1825: uvm_test_top.env.aa.drv [DRV] awaddr = a73a41c8 wdata = 9c1d141b wstrb = 1 araddr = 00000038
UVM_INFO axi4_lite_scoreboard.sv(68) @ 1825: uvm_test_top.env.scb [RRESP] Matched : exp_rresp=2 actual_rresp =2 write = 0 read = 1
UVM_INFO axi4_lite_scoreboard.sv(72) @ 1825: uvm_test_top.env.scb [RDATA] Matched : exp_rdata=00000000 actual_rdata =00000000
UVM_INFO axi4_lite_subscriber.sv(41) @ 1845: uvm_test_top.env.sb [sb] INPUT COVERAGE = 28.12 %
UVM_INFO axi4_lite_inp_monitor.sv(38) @ 1845: uvm_test_top.env.aa.inp_mon [INPUT MONITOR] READ araddr=00000034
UVM_INFO axi4_lite_out_monitor.sv(28) @ 1855: uvm_test_top.env.pa.out_mon [OUTPUT MONITOR] BRESP = 0 RRESP = 2 RDATA = 00000000
UVM_INFO axi4_lite_driver.sv(34) @ 1855: uvm_test_top.env.aa.drv [DRV] awaddr = 18747ac0 wdata = ad38789b wstrb = 7 araddr = 00000034
UVM_INFO axi4_lite_scoreboard.sv(68) @ 1855: uvm_test_top.env.scb [RRESP] Matched : exp_rresp=2 actual_rresp =2 write = 0 read = 1
UVM_INFO axi4_lite_scoreboard.sv(72) @ 1855: uvm_test_top.env.scb [RDATA] Matched : exp_rdata=00000000 actual_rdata =00000000
UVM_INFO axi4_lite_subscriber.sv(41) @ 1875: uvm_test_top.env.sb [sb] INPUT COVERAGE = 28.12 %
UVM_INFO axi4_lite_inp_monitor.sv(38) @ 1875: uvm_test_top.env.aa.inp_mon [INPUT MONITOR] READ araddr=00000034
UVM_INFO axi4_lite_out_monitor.sv(28) @ 1885: uvm_test_top.env.pa.out_mon [OUTPUT MONITOR] BRESP = 0 RRESP = 2 RDATA = 00000000
UVM_INFO axi4_lite_driver.sv(34) @ 1885: uvm_test_top.env.aa.drv [DRV] awaddr = c00836a4 wdata = 2a02aaf7 wstrb = b araddr = 00000034
UVM_INFO axi4_lite_scoreboard.sv(68) @ 1885: uvm_test_top.env.scb [RRESP] Matched : exp_rresp=2 actual_rresp =2 write = 0 read = 1
UVM_INFO axi4_lite_scoreboard.sv(72) @ 1885: uvm_test_top.env.scb [RDATA] Matched : exp_rdata=00000000 actual_rdata =00000000
UVM_INFO axi4_lite_subscriber.sv(41) @ 1905: uvm_test_top.env.sb [sb] INPUT COVERAGE = 28.12 %
UVM_INFO axi4_lite_inp_monitor.sv(38) @ 1905: uvm_test_top.env.aa.inp_mon [INPUT MONITOR] READ araddr=00000038
UVM_INFO axi4_lite_out_monitor.sv(28) @ 1915: uvm_test_top.env.pa.out_mon [OUTPUT MONITOR] BRESP = 0 RRESP = 2 RDATA = 00000000
UVM_INFO axi4_lite_driver.sv(34) @ 1915: uvm_test_top.env.aa.drv [DRV] awaddr = fae2df8c wdata = b8fcdf6e wstrb = 0 araddr = 00000038
UVM_INFO axi4_lite_scoreboard.sv(68) @ 1915: uvm_test_top.env.scb [RRESP] Matched : exp_rresp=2 actual_rresp =2 write = 0 read = 1
UVM_INFO axi4_lite_scoreboard.sv(72) @ 1915: uvm_test_top.env.scb [RDATA] Matched : exp_rdata=00000000 actual_rdata =00000000
UVM_INFO axi4_lite_subscriber.sv(41) @ 1935: uvm_test_top.env.sb [sb] INPUT COVERAGE = 28.12 %
UVM_INFO axi4_lite_inp_monitor.sv(38) @ 1935: uvm_test_top.env.aa.inp_mon [INPUT MONITOR] READ araddr=00000038
UVM_INFO axi4_lite_out_monitor.sv(28) @ 1945: uvm_test_top.env.pa.out_mon [OUTPUT MONITOR] BRESP = 0 RRESP = 2 RDATA = 00000000
UVM_INFO axi4_lite_driver.sv(34) @ 1945: uvm_test_top.env.aa.drv [DRV] awaddr = 894a2334 wdata = 4f9ba967 wstrb = 8 araddr = 00000038
UVM_INFO axi4_lite_scoreboard.sv(68) @ 1945: uvm_test_top.env.scb [RRESP] Matched : exp_rresp=2 actual_rresp =2 write = 0 read = 1
UVM_INFO axi4_lite_scoreboard.sv(72) @ 1945: uvm_test_top.env.scb [RDATA] Matched : exp_rdata=00000000 actual_rdata =00000000
UVM_INFO axi4_lite_subscriber.sv(41) @ 1965: uvm_test_top.env.sb [sb] INPUT COVERAGE = 28.12 %
UVM_INFO axi4_lite_inp_monitor.sv(38) @ 1965: uvm_test_top.env.aa.inp_mon [INPUT MONITOR] READ araddr=00000038
UVM_INFO axi4_lite_out_monitor.sv(28) @ 1975: uvm_test_top.env.pa.out_mon [OUTPUT MONITOR] BRESP = 0 RRESP = 2 RDATA = 00000000
UVM_INFO axi4_lite_driver.sv(34) @ 1975: uvm_test_top.env.aa.drv [DRV] awaddr = 81824124 wdata = 62e41dfb wstrb = 1 araddr = 00000038
UVM_INFO axi4_lite_scoreboard.sv(68) @ 1975: uvm_test_top.env.scb [RRESP] Matched : exp_rresp=2 actual_rresp =2 write = 0 read = 1
UVM_INFO axi4_lite_scoreboard.sv(72) @ 1975: uvm_test_top.env.scb [RDATA] Matched : exp_rdata=00000000 actual_rdata =00000000
UVM_INFO axi4_lite_subscriber.sv(41) @ 1995: uvm_test_top.env.sb [sb] INPUT COVERAGE = 28.12 %
UVM_INFO axi4_lite_inp_monitor.sv(38) @ 1995: uvm_test_top.env.aa.inp_mon [INPUT MONITOR] READ araddr=00000034
UVM_INFO axi4_lite_out_monitor.sv(28) @ 2005: uvm_test_top.env.pa.out_mon [OUTPUT MONITOR] BRESP = 0 RRESP = 2 RDATA = 00000000
UVM_INFO axi4_lite_driver.sv(34) @ 2005: uvm_test_top.env.aa.drv [DRV] awaddr = 7c454b94 wdata = 7cb094b9 wstrb = 6 araddr = 00000034
UVM_INFO axi4_lite_scoreboard.sv(68) @ 2005: uvm_test_top.env.scb [RRESP] Matched : exp_rresp=2 actual_rresp =2 write = 0 read = 1
UVM_INFO axi4_lite_scoreboard.sv(72) @ 2005: uvm_test_top.env.scb [RDATA] Matched : exp_rdata=00000000 actual_rdata =00000000
UVM_INFO axi4_lite_subscriber.sv(41) @ 2025: uvm_test_top.env.sb [sb] INPUT COVERAGE = 28.12 %
UVM_INFO axi4_lite_inp_monitor.sv(38) @ 2025: uvm_test_top.env.aa.inp_mon [INPUT MONITOR] READ araddr=00000038
UVM_INFO axi4_lite_out_monitor.sv(28) @ 2035: uvm_test_top.env.pa.out_mon [OUTPUT MONITOR] BRESP = 0 RRESP = 2 RDATA = 00000000
UVM_INFO axi4_lite_driver.sv(34) @ 2035: uvm_test_top.env.aa.drv [DRV] awaddr = 562a149c wdata = 4bd5cfb7 wstrb = e araddr = 00000038
UVM_INFO axi4_lite_scoreboard.sv(68) @ 2035: uvm_test_top.env.scb [RRESP] Matched : exp_rresp=2 actual_rresp =2 write = 0 read = 1
UVM_INFO axi4_lite_scoreboard.sv(72) @ 2035: uvm_test_top.env.scb [RDATA] Matched : exp_rdata=00000000 actual_rdata =00000000
UVM_INFO axi4_lite_subscriber.sv(41) @ 2055: uvm_test_top.env.sb [sb] INPUT COVERAGE = 28.12 %
UVM_INFO axi4_lite_inp_monitor.sv(38) @ 2055: uvm_test_top.env.aa.inp_mon [INPUT MONITOR] READ araddr=00000038
UVM_INFO axi4_lite_out_monitor.sv(28) @ 2065: uvm_test_top.env.pa.out_mon [OUTPUT MONITOR] BRESP = 0 RRESP = 2 RDATA = 00000000
UVM_INFO axi4_lite_driver.sv(34) @ 2065: uvm_test_top.env.aa.drv [DRV] awaddr = 8212898c wdata = 100106b9 wstrb = 6 araddr = 00000038
UVM_INFO axi4_lite_scoreboard.sv(68) @ 2065: uvm_test_top.env.scb [RRESP] Matched : exp_rresp=2 actual_rresp =2 write = 0 read = 1
UVM_INFO axi4_lite_scoreboard.sv(72) @ 2065: uvm_test_top.env.scb [RDATA] Matched : exp_rdata=00000000 actual_rdata =00000000
UVM_INFO axi4_lite_subscriber.sv(41) @ 2085: uvm_test_top.env.sb [sb] INPUT COVERAGE = 28.12 %
UVM_INFO axi4_lite_inp_monitor.sv(38) @ 2085: uvm_test_top.env.aa.inp_mon [INPUT MONITOR] READ araddr=00000038
UVM_INFO axi4_lite_out_monitor.sv(28) @ 2095: uvm_test_top.env.pa.out_mon [OUTPUT MONITOR] BRESP = 0 RRESP = 2 RDATA = 00000000
UVM_INFO axi4_lite_driver.sv(34) @ 2095: uvm_test_top.env.aa.drv [DRV] awaddr = cf62ce04 wdata = 3eda2466 wstrb = a araddr = 00000038
UVM_INFO axi4_lite_scoreboard.sv(68) @ 2095: uvm_test_top.env.scb [RRESP] Matched : exp_rresp=2 actual_rresp =2 write = 0 read = 1
UVM_INFO axi4_lite_scoreboard.sv(72) @ 2095: uvm_test_top.env.scb [RDATA] Matched : exp_rdata=00000000 actual_rdata =00000000
UVM_INFO axi4_lite_subscriber.sv(41) @ 2115: uvm_test_top.env.sb [sb] INPUT COVERAGE = 28.12 %
UVM_INFO axi4_lite_inp_monitor.sv(38) @ 2115: uvm_test_top.env.aa.inp_mon [INPUT MONITOR] READ araddr=00000038
UVM_INFO axi4_lite_out_monitor.sv(28) @ 2125: uvm_test_top.env.pa.out_mon [OUTPUT MONITOR] BRESP = 0 RRESP = 2 RDATA = 00000000
UVM_INFO axi4_lite_driver.sv(34) @ 2125: uvm_test_top.env.aa.drv [DRV] awaddr = e1b8b66c wdata = f3c90e78 wstrb = e araddr = 00000038
UVM_INFO axi4_lite_scoreboard.sv(68) @ 2125: uvm_test_top.env.scb [RRESP] Matched : exp_rresp=2 actual_rresp =2 write = 0 read = 1
UVM_INFO axi4_lite_scoreboard.sv(72) @ 2125: uvm_test_top.env.scb [RDATA] Matched : exp_rdata=00000000 actual_rdata =00000000
UVM_INFO axi4_lite_subscriber.sv(41) @ 2145: uvm_test_top.env.sb [sb] INPUT COVERAGE = 28.12 %
UVM_INFO axi4_lite_inp_monitor.sv(38) @ 2145: uvm_test_top.env.aa.inp_mon [INPUT MONITOR] READ araddr=00000038
UVM_INFO axi4_lite_out_monitor.sv(28) @ 2155: uvm_test_top.env.pa.out_mon [OUTPUT MONITOR] BRESP = 0 RRESP = 2 RDATA = 00000000
UVM_INFO axi4_lite_driver.sv(34) @ 2155: uvm_test_top.env.aa.drv [DRV] awaddr = ae045568 wdata = 095d1574 wstrb = 3 araddr = 00000038
UVM_INFO axi4_lite_scoreboard.sv(68) @ 2155: uvm_test_top.env.scb [RRESP] Matched : exp_rresp=2 actual_rresp =2 write = 0 read = 1
UVM_INFO axi4_lite_scoreboard.sv(72) @ 2155: uvm_test_top.env.scb [RDATA] Matched : exp_rdata=00000000 actual_rdata =00000000
UVM_INFO axi4_lite_subscriber.sv(41) @ 2175: uvm_test_top.env.sb [sb] INPUT COVERAGE = 28.12 %
UVM_INFO axi4_lite_inp_monitor.sv(38) @ 2175: uvm_test_top.env.aa.inp_mon [INPUT MONITOR] READ araddr=00000038
UVM_INFO axi4_lite_out_monitor.sv(28) @ 2185: uvm_test_top.env.pa.out_mon [OUTPUT MONITOR] BRESP = 0 RRESP = 2 RDATA = 00000000
UVM_INFO axi4_lite_driver.sv(34) @ 2185: uvm_test_top.env.aa.drv [DRV] awaddr = c977eab0 wdata = fd4d9164 wstrb = c araddr = 00000038
UVM_INFO axi4_lite_scoreboard.sv(68) @ 2185: uvm_test_top.env.scb [RRESP] Matched : exp_rresp=2 actual_rresp =2 write = 0 read = 1
UVM_INFO axi4_lite_scoreboard.sv(72) @ 2185: uvm_test_top.env.scb [RDATA] Matched : exp_rdata=00000000 actual_rdata =00000000
UVM_INFO axi4_lite_subscriber.sv(41) @ 2205: uvm_test_top.env.sb [sb] INPUT COVERAGE = 28.12 %
UVM_INFO axi4_lite_inp_monitor.sv(38) @ 2205: uvm_test_top.env.aa.inp_mon [INPUT MONITOR] READ araddr=00000034
UVM_INFO axi4_lite_out_monitor.sv(28) @ 2215: uvm_test_top.env.pa.out_mon [OUTPUT MONITOR] BRESP = 0 RRESP = 2 RDATA = 00000000
UVM_INFO axi4_lite_driver.sv(34) @ 2215: uvm_test_top.env.aa.drv [DRV] awaddr = f45d0cc8 wdata = 880fb413 wstrb = 4 araddr = 00000034
UVM_INFO axi4_lite_scoreboard.sv(68) @ 2215: uvm_test_top.env.scb [RRESP] Matched : exp_rresp=2 actual_rresp =2 write = 0 read = 1
UVM_INFO axi4_lite_scoreboard.sv(72) @ 2215: uvm_test_top.env.scb [RDATA] Matched : exp_rdata=00000000 actual_rdata =00000000
UVM_INFO axi4_lite_subscriber.sv(41) @ 2235: uvm_test_top.env.sb [sb] INPUT COVERAGE = 28.12 %
UVM_INFO axi4_lite_inp_monitor.sv(38) @ 2235: uvm_test_top.env.aa.inp_mon [INPUT MONITOR] READ araddr=00000038
UVM_INFO axi4_lite_out_monitor.sv(28) @ 2245: uvm_test_top.env.pa.out_mon [OUTPUT MONITOR] BRESP = 0 RRESP = 2 RDATA = 00000000
UVM_INFO axi4_lite_driver.sv(34) @ 2245: uvm_test_top.env.aa.drv [DRV] awaddr = 172f1cac wdata = 74c7270c wstrb = b araddr = 00000038
UVM_INFO axi4_lite_scoreboard.sv(68) @ 2245: uvm_test_top.env.scb [RRESP] Matched : exp_rresp=2 actual_rresp =2 write = 0 read = 1
UVM_INFO axi4_lite_scoreboard.sv(72) @ 2245: uvm_test_top.env.scb [RDATA] Matched : exp_rdata=00000000 actual_rdata =00000000
UVM_INFO axi4_lite_subscriber.sv(41) @ 2265: uvm_test_top.env.sb [sb] INPUT COVERAGE = 28.12 %
UVM_INFO axi4_lite_inp_monitor.sv(38) @ 2265: uvm_test_top.env.aa.inp_mon [INPUT MONITOR] READ araddr=00000034
UVM_INFO axi4_lite_out_monitor.sv(28) @ 2275: uvm_test_top.env.pa.out_mon [OUTPUT MONITOR] BRESP = 0 RRESP = 2 RDATA = 00000000
UVM_INFO axi4_lite_driver.sv(34) @ 2275: uvm_test_top.env.aa.drv [DRV] awaddr = db716590 wdata = adccda14 wstrb = 4 araddr = 00000034
UVM_INFO axi4_lite_scoreboard.sv(68) @ 2275: uvm_test_top.env.scb [RRESP] Matched : exp_rresp=2 actual_rresp =2 write = 0 read = 1
UVM_INFO axi4_lite_scoreboard.sv(72) @ 2275: uvm_test_top.env.scb [RDATA] Matched : exp_rdata=00000000 actual_rdata =00000000
UVM_INFO axi4_lite_subscriber.sv(41) @ 2295: uvm_test_top.env.sb [sb] INPUT COVERAGE = 28.12 %
UVM_INFO axi4_lite_inp_monitor.sv(38) @ 2295: uvm_test_top.env.aa.inp_mon [INPUT MONITOR] READ araddr=00000034
UVM_INFO axi4_lite_out_monitor.sv(28) @ 2305: uvm_test_top.env.pa.out_mon [OUTPUT MONITOR] BRESP = 0 RRESP = 2 RDATA = 00000000
UVM_INFO axi4_lite_driver.sv(34) @ 2305: uvm_test_top.env.aa.drv [DRV] awaddr = feab5080 wdata = 9aec8170 wstrb = 2 araddr = 00000034
UVM_INFO axi4_lite_scoreboard.sv(68) @ 2305: uvm_test_top.env.scb [RRESP] Matched : exp_rresp=2 actual_rresp =2 write = 0 read = 1
UVM_INFO axi4_lite_scoreboard.sv(72) @ 2305: uvm_test_top.env.scb [RDATA] Matched : exp_rdata=00000000 actual_rdata =00000000
UVM_INFO axi4_lite_subscriber.sv(41) @ 2325: uvm_test_top.env.sb [sb] INPUT COVERAGE = 28.12 %
UVM_INFO axi4_lite_inp_monitor.sv(38) @ 2325: uvm_test_top.env.aa.inp_mon [INPUT MONITOR] READ araddr=00000038
UVM_INFO axi4_lite_out_monitor.sv(28) @ 2335: uvm_test_top.env.pa.out_mon [OUTPUT MONITOR] BRESP = 0 RRESP = 2 RDATA = 00000000
UVM_INFO axi4_lite_driver.sv(34) @ 2335: uvm_test_top.env.aa.drv [DRV] awaddr = 833092f8 wdata = 24197d46 wstrb = 0 araddr = 00000038
UVM_INFO axi4_lite_scoreboard.sv(68) @ 2335: uvm_test_top.env.scb [RRESP] Matched : exp_rresp=2 actual_rresp =2 write = 0 read = 1
UVM_INFO axi4_lite_scoreboard.sv(72) @ 2335: uvm_test_top.env.scb [RDATA] Matched : exp_rdata=00000000 actual_rdata =00000000
UVM_INFO axi4_lite_subscriber.sv(41) @ 2355: uvm_test_top.env.sb [sb] INPUT COVERAGE = 28.12 %
UVM_INFO axi4_lite_inp_monitor.sv(38) @ 2355: uvm_test_top.env.aa.inp_mon [INPUT MONITOR] READ araddr=00000038
UVM_INFO axi4_lite_out_monitor.sv(28) @ 2365: uvm_test_top.env.pa.out_mon [OUTPUT MONITOR] BRESP = 0 RRESP = 2 RDATA = 00000000
UVM_INFO axi4_lite_driver.sv(34) @ 2365: uvm_test_top.env.aa.drv [DRV] awaddr = 01efa29c wdata = 5e96771e wstrb = 3 araddr = 00000038
UVM_INFO axi4_lite_scoreboard.sv(68) @ 2365: uvm_test_top.env.scb [RRESP] Matched : exp_rresp=2 actual_rresp =2 write = 0 read = 1
UVM_INFO axi4_lite_scoreboard.sv(72) @ 2365: uvm_test_top.env.scb [RDATA] Matched : exp_rdata=00000000 actual_rdata =00000000
UVM_INFO axi4_lite_subscriber.sv(41) @ 2385: uvm_test_top.env.sb [sb] INPUT COVERAGE = 28.12 %
UVM_INFO axi4_lite_inp_monitor.sv(38) @ 2385: uvm_test_top.env.aa.inp_mon [INPUT MONITOR] READ araddr=00000038
UVM_INFO axi4_lite_out_monitor.sv(28) @ 2395: uvm_test_top.env.pa.out_mon [OUTPUT MONITOR] BRESP = 0 RRESP = 2 RDATA = 00000000
UVM_INFO axi4_lite_driver.sv(34) @ 2395: uvm_test_top.env.aa.drv [DRV] awaddr = d41a6d90 wdata = dd997086 wstrb = e araddr = 00000038
UVM_INFO axi4_lite_scoreboard.sv(68) @ 2395: uvm_test_top.env.scb [RRESP] Matched : exp_rresp=2 actual_rresp =2 write = 0 read = 1
UVM_INFO axi4_lite_scoreboard.sv(72) @ 2395: uvm_test_top.env.scb [RDATA] Matched : exp_rdata=00000000 actual_rdata =00000000
UVM_INFO axi4_lite_subscriber.sv(41) @ 2415: uvm_test_top.env.sb [sb] INPUT COVERAGE = 28.12 %
UVM_INFO axi4_lite_inp_monitor.sv(38) @ 2415: uvm_test_top.env.aa.inp_mon [INPUT MONITOR] READ araddr=00000034
UVM_INFO axi4_lite_out_monitor.sv(28) @ 2425: uvm_test_top.env.pa.out_mon [OUTPUT MONITOR] BRESP = 0 RRESP = 2 RDATA = 00000000
UVM_INFO axi4_lite_driver.sv(34) @ 2425: uvm_test_top.env.aa.drv [DRV] awaddr = 99ce1604 wdata = 1bcba6c5 wstrb = c araddr = 00000034
UVM_INFO axi4_lite_scoreboard.sv(68) @ 2425: uvm_test_top.env.scb [RRESP] Matched : exp_rresp=2 actual_rresp =2 write = 0 read = 1
UVM_INFO axi4_lite_scoreboard.sv(72) @ 2425: uvm_test_top.env.scb [RDATA] Matched : exp_rdata=00000000 actual_rdata =00000000
UVM_INFO axi4_lite_subscriber.sv(41) @ 2445: uvm_test_top.env.sb [sb] INPUT COVERAGE = 28.12 %
UVM_INFO axi4_lite_inp_monitor.sv(38) @ 2445: uvm_test_top.env.aa.inp_mon [INPUT MONITOR] READ araddr=00000038
UVM_INFO axi4_lite_out_monitor.sv(28) @ 2455: uvm_test_top.env.pa.out_mon [OUTPUT MONITOR] BRESP = 0 RRESP = 2 RDATA = 00000000
UVM_INFO axi4_lite_driver.sv(34) @ 2455: uvm_test_top.env.aa.drv [DRV] awaddr = f83ae254 wdata = 6ce8f0ed wstrb = 2 araddr = 00000038
UVM_INFO axi4_lite_scoreboard.sv(68) @ 2455: uvm_test_top.env.scb [RRESP] Matched : exp_rresp=2 actual_rresp =2 write = 0 read = 1
UVM_INFO axi4_lite_scoreboard.sv(72) @ 2455: uvm_test_top.env.scb [RDATA] Matched : exp_rdata=00000000 actual_rdata =00000000
UVM_INFO axi4_lite_subscriber.sv(41) @ 2475: uvm_test_top.env.sb [sb] INPUT COVERAGE = 28.12 %
UVM_INFO axi4_lite_inp_monitor.sv(38) @ 2475: uvm_test_top.env.aa.inp_mon [INPUT MONITOR] READ araddr=00000038
UVM_INFO axi4_lite_out_monitor.sv(28) @ 2485: uvm_test_top.env.pa.out_mon [OUTPUT MONITOR] BRESP = 0 RRESP = 2 RDATA = 00000000
UVM_INFO axi4_lite_driver.sv(34) @ 2485: uvm_test_top.env.aa.drv [DRV] awaddr = 71b2f1d8 wdata = 6c4240fc wstrb = 3 araddr = 00000038
UVM_INFO axi4_lite_scoreboard.sv(68) @ 2485: uvm_test_top.env.scb [RRESP] Matched : exp_rresp=2 actual_rresp =2 write = 0 read = 1
UVM_INFO axi4_lite_scoreboard.sv(72) @ 2485: uvm_test_top.env.scb [RDATA] Matched : exp_rdata=00000000 actual_rdata =00000000
UVM_INFO axi4_lite_subscriber.sv(41) @ 2505: uvm_test_top.env.sb [sb] INPUT COVERAGE = 28.12 %
UVM_INFO axi4_lite_inp_monitor.sv(38) @ 2505: uvm_test_top.env.aa.inp_mon [INPUT MONITOR] READ araddr=00000038
UVM_INFO axi4_lite_out_monitor.sv(28) @ 2515: uvm_test_top.env.pa.out_mon [OUTPUT MONITOR] BRESP = 0 RRESP = 2 RDATA = 00000000
UVM_INFO axi4_lite_driver.sv(34) @ 2515: uvm_test_top.env.aa.drv [DRV] awaddr = f97c08dc wdata = 8aeb0729 wstrb = 0 araddr = 00000038
UVM_INFO axi4_lite_scoreboard.sv(68) @ 2515: uvm_test_top.env.scb [RRESP] Matched : exp_rresp=2 actual_rresp =2 write = 0 read = 1
UVM_INFO axi4_lite_scoreboard.sv(72) @ 2515: uvm_test_top.env.scb [RDATA] Matched : exp_rdata=00000000 actual_rdata =00000000
UVM_INFO axi4_lite_subscriber.sv(41) @ 2535: uvm_test_top.env.sb [sb] INPUT COVERAGE = 28.12 %
UVM_INFO axi4_lite_inp_monitor.sv(38) @ 2535: uvm_test_top.env.aa.inp_mon [INPUT MONITOR] READ araddr=00000034
UVM_INFO axi4_lite_out_monitor.sv(28) @ 2545: uvm_test_top.env.pa.out_mon [OUTPUT MONITOR] BRESP = 0 RRESP = 2 RDATA = 00000000
UVM_INFO axi4_lite_driver.sv(34) @ 2545: uvm_test_top.env.aa.drv [DRV] awaddr = c0e025a4 wdata = f61f93a8 wstrb = d araddr = 00000034
UVM_INFO axi4_lite_scoreboard.sv(68) @ 2545: uvm_test_top.env.scb [RRESP] Matched : exp_rresp=2 actual_rresp =2 write = 0 read = 1
UVM_INFO axi4_lite_scoreboard.sv(72) @ 2545: uvm_test_top.env.scb [RDATA] Matched : exp_rdata=00000000 actual_rdata =00000000
UVM_INFO axi4_lite_subscriber.sv(41) @ 2565: uvm_test_top.env.sb [sb] INPUT COVERAGE = 28.12 %
UVM_INFO axi4_lite_inp_monitor.sv(38) @ 2565: uvm_test_top.env.aa.inp_mon [INPUT MONITOR] READ araddr=00000034
UVM_INFO axi4_lite_out_monitor.sv(28) @ 2575: uvm_test_top.env.pa.out_mon [OUTPUT MONITOR] BRESP = 0 RRESP = 2 RDATA = 00000000
UVM_INFO axi4_lite_driver.sv(34) @ 2575: uvm_test_top.env.aa.drv [DRV] awaddr = bd607024 wdata = bb860d26 wstrb = 9 araddr = 00000034
UVM_INFO axi4_lite_scoreboard.sv(68) @ 2575: uvm_test_top.env.scb [RRESP] Matched : exp_rresp=2 actual_rresp =2 write = 0 read = 1
UVM_INFO axi4_lite_scoreboard.sv(72) @ 2575: uvm_test_top.env.scb [RDATA] Matched : exp_rdata=00000000 actual_rdata =00000000
UVM_INFO axi4_lite_subscriber.sv(41) @ 2595: uvm_test_top.env.sb [sb] INPUT COVERAGE = 28.12 %
UVM_INFO axi4_lite_inp_monitor.sv(38) @ 2595: uvm_test_top.env.aa.inp_mon [INPUT MONITOR] READ araddr=00000034
UVM_INFO axi4_lite_out_monitor.sv(28) @ 2605: uvm_test_top.env.pa.out_mon [OUTPUT MONITOR] BRESP = 0 RRESP = 2 RDATA = 00000000
UVM_INFO axi4_lite_driver.sv(34) @ 2605: uvm_test_top.env.aa.drv [DRV] awaddr = b83ff1a8 wdata = 056fd76c wstrb = c araddr = 00000034
UVM_INFO axi4_lite_scoreboard.sv(68) @ 2605: uvm_test_top.env.scb [RRESP] Matched : exp_rresp=2 actual_rresp =2 write = 0 read = 1
UVM_INFO axi4_lite_scoreboard.sv(72) @ 2605: uvm_test_top.env.scb [RDATA] Matched : exp_rdata=00000000 actual_rdata =00000000
UVM_INFO axi4_lite_subscriber.sv(41) @ 2625: uvm_test_top.env.sb [sb] INPUT COVERAGE = 28.12 %
UVM_INFO axi4_lite_inp_monitor.sv(38) @ 2625: uvm_test_top.env.aa.inp_mon [INPUT MONITOR] READ araddr=00000038
UVM_INFO axi4_lite_out_monitor.sv(28) @ 2635: uvm_test_top.env.pa.out_mon [OUTPUT MONITOR] BRESP = 0 RRESP = 2 RDATA = 00000000
UVM_INFO axi4_lite_driver.sv(34) @ 2635: uvm_test_top.env.aa.drv [DRV] awaddr = 3078ddfc wdata = b9eaf6ac wstrb = 9 araddr = 00000038
UVM_INFO axi4_lite_scoreboard.sv(68) @ 2635: uvm_test_top.env.scb [RRESP] Matched : exp_rresp=2 actual_rresp =2 write = 0 read = 1
UVM_INFO axi4_lite_scoreboard.sv(72) @ 2635: uvm_test_top.env.scb [RDATA] Matched : exp_rdata=00000000 actual_rdata =00000000
UVM_INFO axi4_lite_subscriber.sv(41) @ 2655: uvm_test_top.env.sb [sb] INPUT COVERAGE = 28.12 %
UVM_INFO axi4_lite_inp_monitor.sv(38) @ 2655: uvm_test_top.env.aa.inp_mon [INPUT MONITOR] READ araddr=00000038
UVM_INFO axi4_lite_out_monitor.sv(28) @ 2665: uvm_test_top.env.pa.out_mon [OUTPUT MONITOR] BRESP = 0 RRESP = 2 RDATA = 00000000
UVM_INFO axi4_lite_driver.sv(34) @ 2665: uvm_test_top.env.aa.drv [DRV] awaddr = d69d4530 wdata = 9fa2c424 wstrb = 9 araddr = 00000038
UVM_INFO axi4_lite_scoreboard.sv(68) @ 2665: uvm_test_top.env.scb [RRESP] Matched : exp_rresp=2 actual_rresp =2 write = 0 read = 1
UVM_INFO axi4_lite_scoreboard.sv(72) @ 2665: uvm_test_top.env.scb [RDATA] Matched : exp_rdata=00000000 actual_rdata =00000000
UVM_INFO axi4_lite_subscriber.sv(41) @ 2685: uvm_test_top.env.sb [sb] INPUT COVERAGE = 28.12 %
UVM_INFO axi4_lite_inp_monitor.sv(38) @ 2685: uvm_test_top.env.aa.inp_mon [INPUT MONITOR] READ araddr=00000038
UVM_INFO axi4_lite_out_monitor.sv(28) @ 2695: uvm_test_top.env.pa.out_mon [OUTPUT MONITOR] BRESP = 0 RRESP = 2 RDATA = 00000000
UVM_INFO axi4_lite_driver.sv(34) @ 2695: uvm_test_top.env.aa.drv [DRV] awaddr = 429bebe8 wdata = 31a20d4a wstrb = 1 araddr = 00000038
UVM_INFO axi4_lite_scoreboard.sv(68) @ 2695: uvm_test_top.env.scb [RRESP] Matched : exp_rresp=2 actual_rresp =2 write = 0 read = 1
UVM_INFO axi4_lite_scoreboard.sv(72) @ 2695: uvm_test_top.env.scb [RDATA] Matched : exp_rdata=00000000 actual_rdata =00000000
UVM_INFO axi4_lite_subscriber.sv(41) @ 2715: uvm_test_top.env.sb [sb] INPUT COVERAGE = 28.12 %
UVM_INFO axi4_lite_inp_monitor.sv(38) @ 2715: uvm_test_top.env.aa.inp_mon [INPUT MONITOR] READ araddr=00000034
UVM_INFO axi4_lite_out_monitor.sv(28) @ 2725: uvm_test_top.env.pa.out_mon [OUTPUT MONITOR] BRESP = 0 RRESP = 2 RDATA = 00000000
UVM_INFO axi4_lite_driver.sv(34) @ 2725: uvm_test_top.env.aa.drv [DRV] awaddr = 8ede02e4 wdata = d21e48fb wstrb = d araddr = 00000034
UVM_INFO axi4_lite_scoreboard.sv(68) @ 2725: uvm_test_top.env.scb [RRESP] Matched : exp_rresp=2 actual_rresp =2 write = 0 read = 1
UVM_INFO axi4_lite_scoreboard.sv(72) @ 2725: uvm_test_top.env.scb [RDATA] Matched : exp_rdata=00000000 actual_rdata =00000000
UVM_INFO axi4_lite_subscriber.sv(41) @ 2745: uvm_test_top.env.sb [sb] INPUT COVERAGE = 28.12 %
UVM_INFO axi4_lite_inp_monitor.sv(38) @ 2745: uvm_test_top.env.aa.inp_mon [INPUT MONITOR] READ araddr=00000038
UVM_INFO axi4_lite_out_monitor.sv(28) @ 2755: uvm_test_top.env.pa.out_mon [OUTPUT MONITOR] BRESP = 0 RRESP = 2 RDATA = 00000000
UVM_INFO axi4_lite_driver.sv(34) @ 2755: uvm_test_top.env.aa.drv [DRV] awaddr = 7e61f4fc wdata = 96095020 wstrb = 2 araddr = 00000038
UVM_INFO axi4_lite_scoreboard.sv(68) @ 2755: uvm_test_top.env.scb [RRESP] Matched : exp_rresp=2 actual_rresp =2 write = 0 read = 1
UVM_INFO axi4_lite_scoreboard.sv(72) @ 2755: uvm_test_top.env.scb [RDATA] Matched : exp_rdata=00000000 actual_rdata =00000000
UVM_INFO axi4_lite_subscriber.sv(41) @ 2775: uvm_test_top.env.sb [sb] INPUT COVERAGE = 28.12 %
UVM_INFO axi4_lite_inp_monitor.sv(38) @ 2775: uvm_test_top.env.aa.inp_mon [INPUT MONITOR] READ araddr=00000034
UVM_INFO axi4_lite_out_monitor.sv(28) @ 2785: uvm_test_top.env.pa.out_mon [OUTPUT MONITOR] BRESP = 0 RRESP = 2 RDATA = 00000000
UVM_INFO axi4_lite_driver.sv(34) @ 2785: uvm_test_top.env.aa.drv [DRV] awaddr = a61d3da4 wdata = 16139e33 wstrb = 0 araddr = 00000034
UVM_INFO axi4_lite_scoreboard.sv(68) @ 2785: uvm_test_top.env.scb [RRESP] Matched : exp_rresp=2 actual_rresp =2 write = 0 read = 1
UVM_INFO axi4_lite_scoreboard.sv(72) @ 2785: uvm_test_top.env.scb [RDATA] Matched : exp_rdata=00000000 actual_rdata =00000000
UVM_INFO axi4_lite_subscriber.sv(41) @ 2805: uvm_test_top.env.sb [sb] INPUT COVERAGE = 28.12 %
UVM_INFO axi4_lite_inp_monitor.sv(38) @ 2805: uvm_test_top.env.aa.inp_mon [INPUT MONITOR] READ araddr=00000038
UVM_INFO axi4_lite_out_monitor.sv(28) @ 2815: uvm_test_top.env.pa.out_mon [OUTPUT MONITOR] BRESP = 0 RRESP = 2 RDATA = 00000000
UVM_INFO axi4_lite_driver.sv(34) @ 2815: uvm_test_top.env.aa.drv [DRV] awaddr = 8f6b12a4 wdata = 0ce55037 wstrb = 2 araddr = 00000038
UVM_INFO axi4_lite_scoreboard.sv(68) @ 2815: uvm_test_top.env.scb [RRESP] Matched : exp_rresp=2 actual_rresp =2 write = 0 read = 1
UVM_INFO axi4_lite_scoreboard.sv(72) @ 2815: uvm_test_top.env.scb [RDATA] Matched : exp_rdata=00000000 actual_rdata =00000000
UVM_INFO axi4_lite_subscriber.sv(41) @ 2835: uvm_test_top.env.sb [sb] INPUT COVERAGE = 28.12 %
UVM_INFO axi4_lite_inp_monitor.sv(38) @ 2835: uvm_test_top.env.aa.inp_mon [INPUT MONITOR] READ araddr=00000034
UVM_INFO axi4_lite_out_monitor.sv(28) @ 2845: uvm_test_top.env.pa.out_mon [OUTPUT MONITOR] BRESP = 0 RRESP = 2 RDATA = 00000000
UVM_INFO axi4_lite_driver.sv(34) @ 2845: uvm_test_top.env.aa.drv [DRV] awaddr = 7db67660 wdata = d2f8cdd6 wstrb = 8 araddr = 00000034
UVM_INFO axi4_lite_scoreboard.sv(68) @ 2845: uvm_test_top.env.scb [RRESP] Matched : exp_rresp=2 actual_rresp =2 write = 0 read = 1
UVM_INFO axi4_lite_scoreboard.sv(72) @ 2845: uvm_test_top.env.scb [RDATA] Matched : exp_rdata=00000000 actual_rdata =00000000
UVM_INFO axi4_lite_subscriber.sv(41) @ 2865: uvm_test_top.env.sb [sb] INPUT COVERAGE = 28.12 %
UVM_INFO axi4_lite_inp_monitor.sv(38) @ 2865: uvm_test_top.env.aa.inp_mon [INPUT MONITOR] READ araddr=00000034
UVM_INFO axi4_lite_out_monitor.sv(28) @ 2875: uvm_test_top.env.pa.out_mon [OUTPUT MONITOR] BRESP = 0 RRESP = 2 RDATA = 00000000
UVM_INFO axi4_lite_driver.sv(34) @ 2875: uvm_test_top.env.aa.drv [DRV] awaddr = 41e3e598 wdata = 3b241365 wstrb = c araddr = 00000034
UVM_INFO axi4_lite_scoreboard.sv(68) @ 2875: uvm_test_top.env.scb [RRESP] Matched : exp_rresp=2 actual_rresp =2 write = 0 read = 1
UVM_INFO axi4_lite_scoreboard.sv(72) @ 2875: uvm_test_top.env.scb [RDATA] Matched : exp_rdata=00000000 actual_rdata =00000000
UVM_INFO axi4_lite_subscriber.sv(41) @ 2895: uvm_test_top.env.sb [sb] INPUT COVERAGE = 28.12 %
UVM_INFO axi4_lite_inp_monitor.sv(38) @ 2895: uvm_test_top.env.aa.inp_mon [INPUT MONITOR] READ araddr=00000034
UVM_INFO axi4_lite_out_monitor.sv(28) @ 2905: uvm_test_top.env.pa.out_mon [OUTPUT MONITOR] BRESP = 0 RRESP = 2 RDATA = 00000000
UVM_INFO axi4_lite_driver.sv(34) @ 2905: uvm_test_top.env.aa.drv [DRV] awaddr = eb4ad0d8 wdata = 4d0cbb53 wstrb = 2 araddr = 00000034
UVM_INFO axi4_lite_scoreboard.sv(68) @ 2905: uvm_test_top.env.scb [RRESP] Matched : exp_rresp=2 actual_rresp =2 write = 0 read = 1
UVM_INFO axi4_lite_scoreboard.sv(72) @ 2905: uvm_test_top.env.scb [RDATA] Matched : exp_rdata=00000000 actual_rdata =00000000
UVM_INFO axi4_lite_subscriber.sv(41) @ 2925: uvm_test_top.env.sb [sb] INPUT COVERAGE = 28.12 %
UVM_INFO axi4_lite_inp_monitor.sv(38) @ 2925: uvm_test_top.env.aa.inp_mon [INPUT MONITOR] READ araddr=00000038
UVM_INFO axi4_lite_out_monitor.sv(28) @ 2935: uvm_test_top.env.pa.out_mon [OUTPUT MONITOR] BRESP = 0 RRESP = 2 RDATA = 00000000
UVM_INFO axi4_lite_driver.sv(34) @ 2935: uvm_test_top.env.aa.drv [DRV] awaddr = 03188284 wdata = 025c5bfa wstrb = 7 araddr = 00000038
UVM_INFO axi4_lite_scoreboard.sv(68) @ 2935: uvm_test_top.env.scb [RRESP] Matched : exp_rresp=2 actual_rresp =2 write = 0 read = 1
UVM_INFO axi4_lite_scoreboard.sv(72) @ 2935: uvm_test_top.env.scb [RDATA] Matched : exp_rdata=00000000 actual_rdata =00000000
UVM_INFO axi4_lite_subscriber.sv(41) @ 2955: uvm_test_top.env.sb [sb] INPUT COVERAGE = 28.12 %
UVM_INFO axi4_lite_inp_monitor.sv(38) @ 2955: uvm_test_top.env.aa.inp_mon [INPUT MONITOR] READ araddr=00000038
UVM_INFO axi4_lite_out_monitor.sv(28) @ 2965: uvm_test_top.env.pa.out_mon [OUTPUT MONITOR] BRESP = 0 RRESP = 2 RDATA = 00000000
UVM_INFO axi4_lite_driver.sv(34) @ 2965: uvm_test_top.env.aa.drv [DRV] awaddr = f2d9bf18 wdata = 4d1e09cb wstrb = 2 araddr = 00000038
UVM_INFO axi4_lite_scoreboard.sv(68) @ 2965: uvm_test_top.env.scb [RRESP] Matched : exp_rresp=2 actual_rresp =2 write = 0 read = 1
UVM_INFO axi4_lite_scoreboard.sv(72) @ 2965: uvm_test_top.env.scb [RDATA] Matched : exp_rdata=00000000 actual_rdata =00000000
UVM_INFO axi4_lite_subscriber.sv(41) @ 2985: uvm_test_top.env.sb [sb] INPUT COVERAGE = 28.12 %
UVM_INFO axi4_lite_inp_monitor.sv(38) @ 2985: uvm_test_top.env.aa.inp_mon [INPUT MONITOR] READ araddr=00000034
UVM_INFO axi4_lite_out_monitor.sv(28) @ 2995: uvm_test_top.env.pa.out_mon [OUTPUT MONITOR] BRESP = 0 RRESP = 2 RDATA = 00000000
UVM_INFO axi4_lite_driver.sv(34) @ 2995: uvm_test_top.env.aa.drv [DRV] awaddr = 020b0178 wdata = d67c5cfa wstrb = 0 araddr = 00000034
UVM_INFO axi4_lite_scoreboard.sv(68) @ 2995: uvm_test_top.env.scb [RRESP] Matched : exp_rresp=2 actual_rresp =2 write = 0 read = 1
UVM_INFO axi4_lite_scoreboard.sv(72) @ 2995: uvm_test_top.env.scb [RDATA] Matched : exp_rdata=00000000 actual_rdata =00000000
UVM_INFO axi4_lite_test.sv(72) @ 2995: uvm_test_top [TEST] Read to wo completed
UVM_INFO /fetools/synopsys/installed_tools/vcs/vcs/Q-2020.03-SP2-8/etc/uvm/base/uvm_objection.svh(1274) @ 2995: reporter [TEST_DONE] 'run' phase is ready to proceed to the 'extract' phase

--- UVM Report Summary ---

** Report counts by severity
UVM_INFO :  604
UVM_WARNING :    0
UVM_ERROR :    0
UVM_FATAL :    0
** Report counts by id
[DRV]   100
[INPUT MONITOR]   100
[OUTPUT MONITOR]   100
[RDATA]   100
[RNTST]     1
[RRESP]   100
[TEST]     1
[TEST_DONE]     1
[UVMTOP]     1
[sb]   100
$finish called from file "/fetools/synopsys/installed_tools/vcs/vcs/Q-2020.03-SP2-8/etc/uvm/base/uvm_root.svh", line 437.
$finish at simulation time                 2995

---------------------------------------------------------------------------
VCS Coverage Metrics: during simulation line, cond, FSM, branch, tgl was monitored
---------------------------------------------------------------------------
           V C S   S i m u l a t i o n   R e p o r t 
Time: 2995 ns
CPU Time:      0.580 seconds;       Data structure size:   0.4Mb
Thu Sep 17 16:26:38 2026
