Command: /fetools/work_area/frontend/Batch_11/ananyaganesh/system_verilog/AXI4_LITE_SLAVE/src/work/simv +UVM_TESTNAME=axi4_lite_test_write +UVM_VERBOSITY=UVM_HIGH +ntb_random_seed=7929 -cm line+cond+fsm+tgl+branch+assert -cm_dir work/regression.vdb -cm_name axi4_lite_test_write_7929 -l work/logs/axi4_lite_test_write_7929.log +UVM_NO_RELNOTES
Chronologic VCS simulator copyright 1991-2020
Contains Synopsys proprietary information.
Compiler version Q-2020.03-SP2-8_Full64; Runtime version Q-2020.03-SP2-8_Full64;  Sep 18 14:21 2026
----------------------------------------------------------------
UVM-1.1d.Synopsys
(C) 2007-2013 Mentor Graphics Corporation
(C) 2007-2013 Cadence Design Systems, Inc.
(C) 2006-2013 Synopsys, Inc.
(C) 2011-2013 Cypress Semiconductor Corp.
----------------------------------------------------------------
UVM_INFO @ 0: reporter [RNTST] Running test axi4_lite_test_write...
UVM_INFO @ 0: reporter [UVMTOP] UVM testbench topology:
---------------------------------------------------------------
Name                       Type                     Size  Value
---------------------------------------------------------------
uvm_test_top               axi4_lite_test_write     -     @469 
  env                      axi4_lite_environment    -     @477 
    aa                     axi4_lite_active_agent   -     @489 
      drv                  axi4_lite_driver         -     @569 
        rsp_port           uvm_analysis_port        -     @586 
        seq_item_port      uvm_seq_item_pull_port   -     @577 
      inp_mon              axi4_lite_inp_monitor    -     @552 
        inp_mon_port       uvm_analysis_port        -     @560 
      seqr                 axi4_lite_seqr           -     @595 
        rsp_export         uvm_analysis_export      -     @603 
        seq_item_export    uvm_seq_item_pull_imp    -     @709 
        arbitration_queue  array                    0     -    
        lock_queue         array                    0     -    
        num_last_reqs      integral                 32    'd1  
        num_last_rsps      integral                 32    'd1  
    pa                     axi4_lite_passive_agent  -     @497 
      out_mon              axi4_lite_out_monitor    -     @726 
        out_mon_port       uvm_analysis_port        -     @734 
    sb                     axi4_lite_subscriber     -     @531 
      analysis_imp         uvm_analysis_imp         -     @539 
    scb                    axi4_lite_scoreboard     -     @505 
      inp_port             uvm_analysis_imp_in      -     @513 
      out_port             uvm_analysis_imp_out     -     @522 
---------------------------------------------------------------

UVM_INFO axi4_lite_subscriber.sv(41) @ 35: uvm_test_top.env.sb [sb] INPUT COVERAGE = 28.12 %
UVM_INFO axi4_lite_inp_monitor.sv(44) @ 35: uvm_test_top.env.aa.inp_mon [INPUT MONITOR]  WRITE awaddr=00000020 wdata=9e8d3f25 wstrb=0001 
UVM_INFO axi4_lite_out_monitor.sv(28) @ 55: uvm_test_top.env.pa.out_mon [OUTPUT MONITOR] BRESP = 0 RRESP = 0 RDATA = 00000000
UVM_INFO axi4_lite_driver.sv(34) @ 55: uvm_test_top.env.aa.drv [DRV] awaddr = 00000020 wdata = 9e8d3f25 wstrb = 1 araddr = 91622444
UVM_INFO axi4_lite_scoreboard.sv(52) @ 55: uvm_test_top.env.scb [BRESP] Matched : exp_bresp= 0 actual_bresp=0 write = 1 read = 0
UVM_INFO axi4_lite_subscriber.sv(41) @ 105: uvm_test_top.env.sb [sb] INPUT COVERAGE = 39.58 %
UVM_INFO axi4_lite_inp_monitor.sv(44) @ 105: uvm_test_top.env.aa.inp_mon [INPUT MONITOR]  WRITE awaddr=0000001c wdata=24debc85 wstrb=0000 
UVM_INFO axi4_lite_out_monitor.sv(28) @ 125: uvm_test_top.env.pa.out_mon [OUTPUT MONITOR] BRESP = 0 RRESP = 0 RDATA = 00000000
UVM_INFO axi4_lite_driver.sv(34) @ 125: uvm_test_top.env.aa.drv [DRV] awaddr = 0000001c wdata = 24debc85 wstrb = 0 araddr = e92c5e60
UVM_INFO axi4_lite_scoreboard.sv(52) @ 125: uvm_test_top.env.scb [BRESP] Matched : exp_bresp= 0 actual_bresp=0 write = 1 read = 0
UVM_INFO axi4_lite_subscriber.sv(41) @ 155: uvm_test_top.env.sb [sb] INPUT COVERAGE = 47.92 %
UVM_INFO axi4_lite_inp_monitor.sv(44) @ 155: uvm_test_top.env.aa.inp_mon [INPUT MONITOR]  WRITE awaddr=0000002c wdata=8d45f96b wstrb=1001 
UVM_INFO axi4_lite_out_monitor.sv(28) @ 175: uvm_test_top.env.pa.out_mon [OUTPUT MONITOR] BRESP = 2 RRESP = 0 RDATA = 00000000
UVM_INFO axi4_lite_driver.sv(34) @ 175: uvm_test_top.env.aa.drv [DRV] awaddr = 0000002c wdata = 8d45f96b wstrb = 9 araddr = d1f4bd5c
UVM_INFO axi4_lite_scoreboard.sv(52) @ 175: uvm_test_top.env.scb [BRESP] Matched : exp_bresp= 2 actual_bresp=2 write = 1 read = 0
UVM_INFO axi4_lite_subscriber.sv(41) @ 215: uvm_test_top.env.sb [sb] INPUT COVERAGE = 47.92 %
UVM_INFO axi4_lite_inp_monitor.sv(44) @ 215: uvm_test_top.env.aa.inp_mon [INPUT MONITOR]  WRITE awaddr=0000001c wdata=5b869211 wstrb=0001 
UVM_INFO axi4_lite_out_monitor.sv(28) @ 235: uvm_test_top.env.pa.out_mon [OUTPUT MONITOR] BRESP = 0 RRESP = 0 RDATA = 00000000
UVM_INFO axi4_lite_driver.sv(34) @ 235: uvm_test_top.env.aa.drv [DRV] awaddr = 0000001c wdata = 5b869211 wstrb = 1 araddr = d567be70
UVM_INFO axi4_lite_scoreboard.sv(52) @ 235: uvm_test_top.env.scb [BRESP] Matched : exp_bresp= 0 actual_bresp=0 write = 1 read = 0
UVM_INFO axi4_lite_subscriber.sv(41) @ 265: uvm_test_top.env.sb [sb] INPUT COVERAGE = 47.92 %
UVM_INFO axi4_lite_inp_monitor.sv(44) @ 265: uvm_test_top.env.aa.inp_mon [INPUT MONITOR]  WRITE awaddr=00000008 wdata=041ec98b wstrb=0110 
UVM_INFO axi4_lite_out_monitor.sv(28) @ 285: uvm_test_top.env.pa.out_mon [OUTPUT MONITOR] BRESP = 0 RRESP = 0 RDATA = 00000000
UVM_INFO axi4_lite_driver.sv(34) @ 285: uvm_test_top.env.aa.drv [DRV] awaddr = 00000008 wdata = 041ec98b wstrb = 6 araddr = 45ffa670
UVM_INFO axi4_lite_scoreboard.sv(52) @ 285: uvm_test_top.env.scb [BRESP] Matched : exp_bresp= 0 actual_bresp=0 write = 1 read = 0
UVM_INFO axi4_lite_subscriber.sv(41) @ 325: uvm_test_top.env.sb [sb] INPUT COVERAGE = 56.25 %
UVM_INFO axi4_lite_inp_monitor.sv(44) @ 325: uvm_test_top.env.aa.inp_mon [INPUT MONITOR]  WRITE awaddr=00000010 wdata=b46bb431 wstrb=1010 
UVM_INFO axi4_lite_out_monitor.sv(28) @ 345: uvm_test_top.env.pa.out_mon [OUTPUT MONITOR] BRESP = 0 RRESP = 0 RDATA = 00000000
UVM_INFO axi4_lite_driver.sv(34) @ 345: uvm_test_top.env.aa.drv [DRV] awaddr = 00000010 wdata = b46bb431 wstrb = a araddr = 7c9c585c
UVM_INFO axi4_lite_scoreboard.sv(52) @ 345: uvm_test_top.env.scb [BRESP] Matched : exp_bresp= 0 actual_bresp=0 write = 1 read = 0
UVM_INFO axi4_lite_subscriber.sv(41) @ 385: uvm_test_top.env.sb [sb] INPUT COVERAGE = 64.58 %
UVM_INFO axi4_lite_inp_monitor.sv(44) @ 385: uvm_test_top.env.aa.inp_mon [INPUT MONITOR]  WRITE awaddr=00000034 wdata=2080c6ee wstrb=1011 
UVM_INFO axi4_lite_out_monitor.sv(28) @ 405: uvm_test_top.env.pa.out_mon [OUTPUT MONITOR] BRESP = 0 RRESP = 0 RDATA = 00000000
UVM_INFO axi4_lite_driver.sv(34) @ 405: uvm_test_top.env.aa.drv [DRV] awaddr = 00000034 wdata = 2080c6ee wstrb = b araddr = 5a2358c4
UVM_INFO axi4_lite_scoreboard.sv(52) @ 405: uvm_test_top.env.scb [BRESP] Matched : exp_bresp= 0 actual_bresp=0 write = 1 read = 0
UVM_INFO axi4_lite_subscriber.sv(41) @ 455: uvm_test_top.env.sb [sb] INPUT COVERAGE = 67.71 %
UVM_INFO axi4_lite_inp_monitor.sv(44) @ 455: uvm_test_top.env.aa.inp_mon [INPUT MONITOR]  WRITE awaddr=00000038 wdata=245a62c3 wstrb=1000 
UVM_INFO axi4_lite_out_monitor.sv(28) @ 475: uvm_test_top.env.pa.out_mon [OUTPUT MONITOR] BRESP = 0 RRESP = 0 RDATA = 00000000
UVM_INFO axi4_lite_driver.sv(34) @ 475: uvm_test_top.env.aa.drv [DRV] awaddr = 00000038 wdata = 245a62c3 wstrb = 8 araddr = e012a010
UVM_INFO axi4_lite_scoreboard.sv(52) @ 475: uvm_test_top.env.scb [BRESP] Matched : exp_bresp= 0 actual_bresp=0 write = 1 read = 0
UVM_INFO axi4_lite_subscriber.sv(41) @ 505: uvm_test_top.env.sb [sb] INPUT COVERAGE = 67.71 %
UVM_INFO axi4_lite_inp_monitor.sv(44) @ 505: uvm_test_top.env.aa.inp_mon [INPUT MONITOR]  WRITE awaddr=00000020 wdata=b5129b7b wstrb=0111 
UVM_INFO axi4_lite_out_monitor.sv(28) @ 525: uvm_test_top.env.pa.out_mon [OUTPUT MONITOR] BRESP = 0 RRESP = 0 RDATA = 00000000
UVM_INFO axi4_lite_driver.sv(34) @ 525: uvm_test_top.env.aa.drv [DRV] awaddr = 00000020 wdata = b5129b7b wstrb = 7 araddr = bd02b57c
UVM_INFO axi4_lite_scoreboard.sv(52) @ 525: uvm_test_top.env.scb [BRESP] Matched : exp_bresp= 0 actual_bresp=0 write = 1 read = 0
UVM_INFO axi4_lite_subscriber.sv(41) @ 565: uvm_test_top.env.sb [sb] INPUT COVERAGE = 67.71 %
UVM_INFO axi4_lite_inp_monitor.sv(44) @ 565: uvm_test_top.env.aa.inp_mon [INPUT MONITOR]  WRITE awaddr=00000018 wdata=290649fb wstrb=0110 
UVM_INFO axi4_lite_out_monitor.sv(28) @ 585: uvm_test_top.env.pa.out_mon [OUTPUT MONITOR] BRESP = 0 RRESP = 0 RDATA = 00000000
UVM_INFO axi4_lite_driver.sv(34) @ 585: uvm_test_top.env.aa.drv [DRV] awaddr = 00000018 wdata = 290649fb wstrb = 6 araddr = c6ba5600
UVM_INFO axi4_lite_scoreboard.sv(52) @ 585: uvm_test_top.env.scb [BRESP] Matched : exp_bresp= 0 actual_bresp=0 write = 1 read = 0
UVM_INFO axi4_lite_subscriber.sv(41) @ 605: uvm_test_top.env.sb [sb] INPUT COVERAGE = 67.71 %
UVM_INFO axi4_lite_inp_monitor.sv(44) @ 605: uvm_test_top.env.aa.inp_mon [INPUT MONITOR]  WRITE awaddr=00000018 wdata=aecfd353 wstrb=1000 
UVM_INFO axi4_lite_out_monitor.sv(28) @ 625: uvm_test_top.env.pa.out_mon [OUTPUT MONITOR] BRESP = 0 RRESP = 0 RDATA = 00000000
UVM_INFO axi4_lite_driver.sv(34) @ 625: uvm_test_top.env.aa.drv [DRV] awaddr = 00000018 wdata = aecfd353 wstrb = 8 araddr = 79cdabd8
UVM_INFO axi4_lite_scoreboard.sv(52) @ 625: uvm_test_top.env.scb [BRESP] Matched : exp_bresp= 0 actual_bresp=0 write = 1 read = 0
UVM_INFO axi4_lite_subscriber.sv(41) @ 665: uvm_test_top.env.sb [sb] INPUT COVERAGE = 70.83 %
UVM_INFO axi4_lite_inp_monitor.sv(44) @ 665: uvm_test_top.env.aa.inp_mon [INPUT MONITOR]  WRITE awaddr=00000028 wdata=15f2419f wstrb=0011 
UVM_INFO axi4_lite_out_monitor.sv(28) @ 685: uvm_test_top.env.pa.out_mon [OUTPUT MONITOR] BRESP = 2 RRESP = 0 RDATA = 00000000
UVM_INFO axi4_lite_driver.sv(34) @ 685: uvm_test_top.env.aa.drv [DRV] awaddr = 00000028 wdata = 15f2419f wstrb = 3 araddr = cf535b9c
UVM_INFO axi4_lite_scoreboard.sv(52) @ 685: uvm_test_top.env.scb [BRESP] Matched : exp_bresp= 2 actual_bresp=2 write = 1 read = 0
UVM_INFO axi4_lite_subscriber.sv(41) @ 715: uvm_test_top.env.sb [sb] INPUT COVERAGE = 70.83 %
UVM_INFO axi4_lite_inp_monitor.sv(44) @ 715: uvm_test_top.env.aa.inp_mon [INPUT MONITOR]  WRITE awaddr=00000034 wdata=ec0e1cde wstrb=0101 
UVM_INFO axi4_lite_out_monitor.sv(28) @ 735: uvm_test_top.env.pa.out_mon [OUTPUT MONITOR] BRESP = 0 RRESP = 0 RDATA = 00000000
UVM_INFO axi4_lite_driver.sv(34) @ 735: uvm_test_top.env.aa.drv [DRV] awaddr = 00000034 wdata = ec0e1cde wstrb = 5 araddr = 747e5758
UVM_INFO axi4_lite_scoreboard.sv(52) @ 735: uvm_test_top.env.scb [BRESP] Matched : exp_bresp= 0 actual_bresp=0 write = 1 read = 0
UVM_INFO axi4_lite_subscriber.sv(41) @ 765: uvm_test_top.env.sb [sb] INPUT COVERAGE = 73.96 %
UVM_INFO axi4_lite_inp_monitor.sv(44) @ 765: uvm_test_top.env.aa.inp_mon [INPUT MONITOR]  WRITE awaddr=00000028 wdata=76412ee9 wstrb=1111 
UVM_INFO axi4_lite_out_monitor.sv(28) @ 785: uvm_test_top.env.pa.out_mon [OUTPUT MONITOR] BRESP = 2 RRESP = 0 RDATA = 00000000
UVM_INFO axi4_lite_driver.sv(34) @ 785: uvm_test_top.env.aa.drv [DRV] awaddr = 00000028 wdata = 76412ee9 wstrb = f araddr = ecbec0a8
UVM_INFO axi4_lite_scoreboard.sv(52) @ 785: uvm_test_top.env.scb [BRESP] Matched : exp_bresp= 2 actual_bresp=2 write = 1 read = 0
UVM_INFO axi4_lite_subscriber.sv(41) @ 815: uvm_test_top.env.sb [sb] INPUT COVERAGE = 73.96 %
UVM_INFO axi4_lite_inp_monitor.sv(44) @ 815: uvm_test_top.env.aa.inp_mon [INPUT MONITOR]  WRITE awaddr=00000020 wdata=92aecece wstrb=0011 
UVM_INFO axi4_lite_out_monitor.sv(28) @ 835: uvm_test_top.env.pa.out_mon [OUTPUT MONITOR] BRESP = 0 RRESP = 0 RDATA = 00000000
UVM_INFO axi4_lite_driver.sv(34) @ 835: uvm_test_top.env.aa.drv [DRV] awaddr = 00000020 wdata = 92aecece wstrb = 3 araddr = ac6ad074
UVM_INFO axi4_lite_scoreboard.sv(52) @ 835: uvm_test_top.env.scb [BRESP] Matched : exp_bresp= 0 actual_bresp=0 write = 1 read = 0
UVM_INFO axi4_lite_subscriber.sv(41) @ 865: uvm_test_top.env.sb [sb] INPUT COVERAGE = 73.96 %
UVM_INFO axi4_lite_inp_monitor.sv(44) @ 865: uvm_test_top.env.aa.inp_mon [INPUT MONITOR]  WRITE awaddr=00000020 wdata=3a60e0aa wstrb=0001 
UVM_INFO axi4_lite_out_monitor.sv(28) @ 885: uvm_test_top.env.pa.out_mon [OUTPUT MONITOR] BRESP = 0 RRESP = 0 RDATA = 00000000
UVM_INFO axi4_lite_driver.sv(34) @ 885: uvm_test_top.env.aa.drv [DRV] awaddr = 00000020 wdata = 3a60e0aa wstrb = 1 araddr = 610d84f8
UVM_INFO axi4_lite_scoreboard.sv(52) @ 885: uvm_test_top.env.scb [BRESP] Matched : exp_bresp= 0 actual_bresp=0 write = 1 read = 0
UVM_INFO axi4_lite_subscriber.sv(41) @ 915: uvm_test_top.env.sb [sb] INPUT COVERAGE = 73.96 %
UVM_INFO axi4_lite_inp_monitor.sv(44) @ 915: uvm_test_top.env.aa.inp_mon [INPUT MONITOR]  WRITE awaddr=00000010 wdata=700a3962 wstrb=0101 
UVM_INFO axi4_lite_out_monitor.sv(28) @ 935: uvm_test_top.env.pa.out_mon [OUTPUT MONITOR] BRESP = 0 RRESP = 0 RDATA = 00000000
UVM_INFO axi4_lite_driver.sv(34) @ 935: uvm_test_top.env.aa.drv [DRV] awaddr = 00000010 wdata = 700a3962 wstrb = 5 araddr = 203ebd24
UVM_INFO axi4_lite_scoreboard.sv(52) @ 935: uvm_test_top.env.scb [BRESP] Matched : exp_bresp= 0 actual_bresp=0 write = 1 read = 0
UVM_INFO axi4_lite_subscriber.sv(41) @ 965: uvm_test_top.env.sb [sb] INPUT COVERAGE = 73.96 %
UVM_INFO axi4_lite_inp_monitor.sv(44) @ 965: uvm_test_top.env.aa.inp_mon [INPUT MONITOR]  WRITE awaddr=0000000c wdata=592d98e0 wstrb=1001 
UVM_INFO axi4_lite_out_monitor.sv(28) @ 985: uvm_test_top.env.pa.out_mon [OUTPUT MONITOR] BRESP = 0 RRESP = 0 RDATA = 00000000
UVM_INFO axi4_lite_driver.sv(34) @ 985: uvm_test_top.env.aa.drv [DRV] awaddr = 0000000c wdata = 592d98e0 wstrb = 9 araddr = f65fb9e0
UVM_INFO axi4_lite_scoreboard.sv(52) @ 985: uvm_test_top.env.scb [BRESP] Matched : exp_bresp= 0 actual_bresp=0 write = 1 read = 0
UVM_INFO axi4_lite_subscriber.sv(41) @ 1025: uvm_test_top.env.sb [sb] INPUT COVERAGE = 73.96 %
UVM_INFO axi4_lite_inp_monitor.sv(44) @ 1025: uvm_test_top.env.aa.inp_mon [INPUT MONITOR]  WRITE awaddr=00000028 wdata=3c0f89db wstrb=0001 
UVM_INFO axi4_lite_out_monitor.sv(28) @ 1045: uvm_test_top.env.pa.out_mon [OUTPUT MONITOR] BRESP = 2 RRESP = 0 RDATA = 00000000
UVM_INFO axi4_lite_driver.sv(34) @ 1045: uvm_test_top.env.aa.drv [DRV] awaddr = 00000028 wdata = 3c0f89db wstrb = 1 araddr = 2b384d0c
UVM_INFO axi4_lite_scoreboard.sv(52) @ 1045: uvm_test_top.env.scb [BRESP] Matched : exp_bresp= 2 actual_bresp=2 write = 1 read = 0
UVM_INFO axi4_lite_subscriber.sv(41) @ 1085: uvm_test_top.env.sb [sb] INPUT COVERAGE = 73.96 %
UVM_INFO axi4_lite_inp_monitor.sv(44) @ 1085: uvm_test_top.env.aa.inp_mon [INPUT MONITOR]  WRITE awaddr=00000020 wdata=2c7d5db6 wstrb=1111 
UVM_INFO axi4_lite_out_monitor.sv(28) @ 1105: uvm_test_top.env.pa.out_mon [OUTPUT MONITOR] BRESP = 0 RRESP = 0 RDATA = 00000000
UVM_INFO axi4_lite_driver.sv(34) @ 1105: uvm_test_top.env.aa.drv [DRV] awaddr = 00000020 wdata = 2c7d5db6 wstrb = f araddr = a490a500
UVM_INFO axi4_lite_scoreboard.sv(52) @ 1105: uvm_test_top.env.scb [BRESP] Matched : exp_bresp= 0 actual_bresp=0 write = 1 read = 0
UVM_INFO axi4_lite_subscriber.sv(41) @ 1145: uvm_test_top.env.sb [sb] INPUT COVERAGE = 73.96 %
UVM_INFO axi4_lite_inp_monitor.sv(44) @ 1145: uvm_test_top.env.aa.inp_mon [INPUT MONITOR]  WRITE awaddr=00000004 wdata=f87f3265 wstrb=1000 
UVM_INFO axi4_lite_out_monitor.sv(28) @ 1165: uvm_test_top.env.pa.out_mon [OUTPUT MONITOR] BRESP = 0 RRESP = 0 RDATA = 00000000
UVM_INFO axi4_lite_driver.sv(34) @ 1165: uvm_test_top.env.aa.drv [DRV] awaddr = 00000004 wdata = f87f3265 wstrb = 8 araddr = f20780c8
UVM_INFO axi4_lite_scoreboard.sv(52) @ 1165: uvm_test_top.env.scb [BRESP] Matched : exp_bresp= 0 actual_bresp=0 write = 1 read = 0
UVM_INFO axi4_lite_subscriber.sv(41) @ 1195: uvm_test_top.env.sb [sb] INPUT COVERAGE = 73.96 %
UVM_INFO axi4_lite_inp_monitor.sv(44) @ 1195: uvm_test_top.env.aa.inp_mon [INPUT MONITOR]  WRITE awaddr=00000004 wdata=f45bd830 wstrb=1011 
UVM_INFO axi4_lite_out_monitor.sv(28) @ 1215: uvm_test_top.env.pa.out_mon [OUTPUT MONITOR] BRESP = 0 RRESP = 0 RDATA = 00000000
UVM_INFO axi4_lite_driver.sv(34) @ 1215: uvm_test_top.env.aa.drv [DRV] awaddr = 00000004 wdata = f45bd830 wstrb = b araddr = 6893f4ac
UVM_INFO axi4_lite_scoreboard.sv(52) @ 1215: uvm_test_top.env.scb [BRESP] Matched : exp_bresp= 0 actual_bresp=0 write = 1 read = 0
UVM_INFO axi4_lite_subscriber.sv(41) @ 1255: uvm_test_top.env.sb [sb] INPUT COVERAGE = 73.96 %
UVM_INFO axi4_lite_inp_monitor.sv(44) @ 1255: uvm_test_top.env.aa.inp_mon [INPUT MONITOR]  WRITE awaddr=00000000 wdata=d1d4d78d wstrb=0101 
UVM_INFO axi4_lite_out_monitor.sv(28) @ 1275: uvm_test_top.env.pa.out_mon [OUTPUT MONITOR] BRESP = 0 RRESP = 0 RDATA = 00000000
UVM_INFO axi4_lite_driver.sv(34) @ 1275: uvm_test_top.env.aa.drv [DRV] awaddr = 00000000 wdata = d1d4d78d wstrb = 5 araddr = b033d518
UVM_INFO axi4_lite_scoreboard.sv(52) @ 1275: uvm_test_top.env.scb [BRESP] Matched : exp_bresp= 0 actual_bresp=0 write = 1 read = 0
UVM_INFO axi4_lite_subscriber.sv(41) @ 1295: uvm_test_top.env.sb [sb] INPUT COVERAGE = 73.96 %
UVM_INFO axi4_lite_inp_monitor.sv(44) @ 1295: uvm_test_top.env.aa.inp_mon [INPUT MONITOR]  WRITE awaddr=0000001c wdata=a694e0eb wstrb=1111 
UVM_INFO axi4_lite_out_monitor.sv(28) @ 1315: uvm_test_top.env.pa.out_mon [OUTPUT MONITOR] BRESP = 0 RRESP = 0 RDATA = 00000000
UVM_INFO axi4_lite_driver.sv(34) @ 1315: uvm_test_top.env.aa.drv [DRV] awaddr = 0000001c wdata = a694e0eb wstrb = f araddr = d4243848
UVM_INFO axi4_lite_scoreboard.sv(52) @ 1315: uvm_test_top.env.scb [BRESP] Matched : exp_bresp= 0 actual_bresp=0 write = 1 read = 0
UVM_INFO axi4_lite_subscriber.sv(41) @ 1335: uvm_test_top.env.sb [sb] INPUT COVERAGE = 73.96 %
UVM_INFO axi4_lite_inp_monitor.sv(44) @ 1335: uvm_test_top.env.aa.inp_mon [INPUT MONITOR]  WRITE awaddr=00000020 wdata=74ed2e06 wstrb=1010 
UVM_INFO axi4_lite_out_monitor.sv(28) @ 1355: uvm_test_top.env.pa.out_mon [OUTPUT MONITOR] BRESP = 0 RRESP = 0 RDATA = 00000000
UVM_INFO axi4_lite_driver.sv(34) @ 1355: uvm_test_top.env.aa.drv [DRV] awaddr = 00000020 wdata = 74ed2e06 wstrb = a araddr = 70cfd3d4
UVM_INFO axi4_lite_scoreboard.sv(52) @ 1355: uvm_test_top.env.scb [BRESP] Matched : exp_bresp= 0 actual_bresp=0 write = 1 read = 0
UVM_INFO axi4_lite_subscriber.sv(41) @ 1395: uvm_test_top.env.sb [sb] INPUT COVERAGE = 73.96 %
UVM_INFO axi4_lite_inp_monitor.sv(44) @ 1395: uvm_test_top.env.aa.inp_mon [INPUT MONITOR]  WRITE awaddr=0000002c wdata=1378149c wstrb=1110 
UVM_INFO axi4_lite_out_monitor.sv(28) @ 1415: uvm_test_top.env.pa.out_mon [OUTPUT MONITOR] BRESP = 2 RRESP = 0 RDATA = 00000000
UVM_INFO axi4_lite_driver.sv(34) @ 1415: uvm_test_top.env.aa.drv [DRV] awaddr = 0000002c wdata = 1378149c wstrb = e araddr = 5766523c
UVM_INFO axi4_lite_scoreboard.sv(52) @ 1415: uvm_test_top.env.scb [BRESP] Matched : exp_bresp= 2 actual_bresp=2 write = 1 read = 0
UVM_INFO axi4_lite_subscriber.sv(41) @ 1455: uvm_test_top.env.sb [sb] INPUT COVERAGE = 77.08 %
UVM_INFO axi4_lite_inp_monitor.sv(44) @ 1455: uvm_test_top.env.aa.inp_mon [INPUT MONITOR]  WRITE awaddr=0000000c wdata=5a50ec69 wstrb=0010 
UVM_INFO axi4_lite_out_monitor.sv(28) @ 1475: uvm_test_top.env.pa.out_mon [OUTPUT MONITOR] BRESP = 0 RRESP = 0 RDATA = 00000000
UVM_INFO axi4_lite_driver.sv(34) @ 1475: uvm_test_top.env.aa.drv [DRV] awaddr = 0000000c wdata = 5a50ec69 wstrb = 2 araddr = 7d776f20
UVM_INFO axi4_lite_scoreboard.sv(52) @ 1475: uvm_test_top.env.scb [BRESP] Matched : exp_bresp= 0 actual_bresp=0 write = 1 read = 0
UVM_INFO axi4_lite_subscriber.sv(41) @ 1515: uvm_test_top.env.sb [sb] INPUT COVERAGE = 77.08 %
UVM_INFO axi4_lite_inp_monitor.sv(44) @ 1515: uvm_test_top.env.aa.inp_mon [INPUT MONITOR]  WRITE awaddr=00000030 wdata=10761792 wstrb=1011 
UVM_INFO axi4_lite_out_monitor.sv(28) @ 1535: uvm_test_top.env.pa.out_mon [OUTPUT MONITOR] BRESP = 2 RRESP = 0 RDATA = 00000000
UVM_INFO axi4_lite_driver.sv(34) @ 1535: uvm_test_top.env.aa.drv [DRV] awaddr = 00000030 wdata = 10761792 wstrb = b araddr = 0bf45adc
UVM_INFO axi4_lite_scoreboard.sv(52) @ 1535: uvm_test_top.env.scb [BRESP] Matched : exp_bresp= 2 actual_bresp=2 write = 1 read = 0
UVM_INFO axi4_lite_subscriber.sv(41) @ 1575: uvm_test_top.env.sb [sb] INPUT COVERAGE = 77.08 %
UVM_INFO axi4_lite_inp_monitor.sv(44) @ 1575: uvm_test_top.env.aa.inp_mon [INPUT MONITOR]  WRITE awaddr=00000024 wdata=bc15df77 wstrb=1001 
UVM_INFO axi4_lite_out_monitor.sv(28) @ 1595: uvm_test_top.env.pa.out_mon [OUTPUT MONITOR] BRESP = 0 RRESP = 0 RDATA = 00000000
UVM_INFO axi4_lite_driver.sv(34) @ 1595: uvm_test_top.env.aa.drv [DRV] awaddr = 00000024 wdata = bc15df77 wstrb = 9 araddr = 5e6eb6b0
UVM_INFO axi4_lite_scoreboard.sv(52) @ 1595: uvm_test_top.env.scb [BRESP] Matched : exp_bresp= 0 actual_bresp=0 write = 1 read = 0
UVM_INFO axi4_lite_subscriber.sv(41) @ 1635: uvm_test_top.env.sb [sb] INPUT COVERAGE = 77.08 %
UVM_INFO axi4_lite_inp_monitor.sv(44) @ 1635: uvm_test_top.env.aa.inp_mon [INPUT MONITOR]  WRITE awaddr=0000002c wdata=f0768987 wstrb=1110 
UVM_INFO axi4_lite_out_monitor.sv(28) @ 1655: uvm_test_top.env.pa.out_mon [OUTPUT MONITOR] BRESP = 2 RRESP = 0 RDATA = 00000000
UVM_INFO axi4_lite_driver.sv(34) @ 1655: uvm_test_top.env.aa.drv [DRV] awaddr = 0000002c wdata = f0768987 wstrb = e araddr = c4482a78
UVM_INFO axi4_lite_scoreboard.sv(52) @ 1655: uvm_test_top.env.scb [BRESP] Matched : exp_bresp= 2 actual_bresp=2 write = 1 read = 0
UVM_INFO axi4_lite_subscriber.sv(41) @ 1685: uvm_test_top.env.sb [sb] INPUT COVERAGE = 80.21 %
UVM_INFO axi4_lite_inp_monitor.sv(44) @ 1685: uvm_test_top.env.aa.inp_mon [INPUT MONITOR]  WRITE awaddr=00000034 wdata=3983fe70 wstrb=1100 
UVM_INFO axi4_lite_out_monitor.sv(28) @ 1705: uvm_test_top.env.pa.out_mon [OUTPUT MONITOR] BRESP = 0 RRESP = 0 RDATA = 00000000
UVM_INFO axi4_lite_driver.sv(34) @ 1705: uvm_test_top.env.aa.drv [DRV] awaddr = 00000034 wdata = 3983fe70 wstrb = c araddr = 26198c88
UVM_INFO axi4_lite_scoreboard.sv(52) @ 1705: uvm_test_top.env.scb [BRESP] Matched : exp_bresp= 0 actual_bresp=0 write = 1 read = 0
UVM_INFO axi4_lite_subscriber.sv(41) @ 1755: uvm_test_top.env.sb [sb] INPUT COVERAGE = 80.21 %
UVM_INFO axi4_lite_inp_monitor.sv(44) @ 1755: uvm_test_top.env.aa.inp_mon [INPUT MONITOR]  WRITE awaddr=00000004 wdata=0d3051d1 wstrb=1110 
UVM_INFO axi4_lite_out_monitor.sv(28) @ 1775: uvm_test_top.env.pa.out_mon [OUTPUT MONITOR] BRESP = 0 RRESP = 0 RDATA = 00000000
UVM_INFO axi4_lite_driver.sv(34) @ 1775: uvm_test_top.env.aa.drv [DRV] awaddr = 00000004 wdata = 0d3051d1 wstrb = e araddr = 8eb84388
UVM_INFO axi4_lite_scoreboard.sv(52) @ 1775: uvm_test_top.env.scb [BRESP] Matched : exp_bresp= 0 actual_bresp=0 write = 1 read = 0
UVM_INFO axi4_lite_subscriber.sv(41) @ 1815: uvm_test_top.env.sb [sb] INPUT COVERAGE = 80.21 %
UVM_INFO axi4_lite_inp_monitor.sv(44) @ 1815: uvm_test_top.env.aa.inp_mon [INPUT MONITOR]  WRITE awaddr=00000000 wdata=8c963fd1 wstrb=0000 
UVM_INFO axi4_lite_out_monitor.sv(28) @ 1835: uvm_test_top.env.pa.out_mon [OUTPUT MONITOR] BRESP = 0 RRESP = 0 RDATA = 00000000
UVM_INFO axi4_lite_driver.sv(34) @ 1835: uvm_test_top.env.aa.drv [DRV] awaddr = 00000000 wdata = 8c963fd1 wstrb = 0 araddr = 349aee58
UVM_INFO axi4_lite_scoreboard.sv(52) @ 1835: uvm_test_top.env.scb [BRESP] Matched : exp_bresp= 0 actual_bresp=0 write = 1 read = 0
UVM_INFO axi4_lite_subscriber.sv(41) @ 1865: uvm_test_top.env.sb [sb] INPUT COVERAGE = 80.21 %
UVM_INFO axi4_lite_inp_monitor.sv(44) @ 1865: uvm_test_top.env.aa.inp_mon [INPUT MONITOR]  WRITE awaddr=00000008 wdata=6d456ec7 wstrb=1100 
UVM_INFO axi4_lite_out_monitor.sv(28) @ 1885: uvm_test_top.env.pa.out_mon [OUTPUT MONITOR] BRESP = 0 RRESP = 0 RDATA = 00000000
UVM_INFO axi4_lite_driver.sv(34) @ 1885: uvm_test_top.env.aa.drv [DRV] awaddr = 00000008 wdata = 6d456ec7 wstrb = c araddr = 3d090498
UVM_INFO axi4_lite_scoreboard.sv(52) @ 1885: uvm_test_top.env.scb [BRESP] Matched : exp_bresp= 0 actual_bresp=0 write = 1 read = 0
UVM_INFO axi4_lite_subscriber.sv(41) @ 1925: uvm_test_top.env.sb [sb] INPUT COVERAGE = 80.21 %
UVM_INFO axi4_lite_inp_monitor.sv(44) @ 1925: uvm_test_top.env.aa.inp_mon [INPUT MONITOR]  WRITE awaddr=00000014 wdata=e0a213d4 wstrb=1101 
UVM_INFO axi4_lite_out_monitor.sv(28) @ 1945: uvm_test_top.env.pa.out_mon [OUTPUT MONITOR] BRESP = 0 RRESP = 0 RDATA = 00000000
UVM_INFO axi4_lite_driver.sv(34) @ 1945: uvm_test_top.env.aa.drv [DRV] awaddr = 00000014 wdata = e0a213d4 wstrb = d araddr = 737f8ee4
UVM_INFO axi4_lite_scoreboard.sv(52) @ 1945: uvm_test_top.env.scb [BRESP] Matched : exp_bresp= 0 actual_bresp=0 write = 1 read = 0
UVM_INFO axi4_lite_subscriber.sv(41) @ 1985: uvm_test_top.env.sb [sb] INPUT COVERAGE = 83.33 %
UVM_INFO axi4_lite_inp_monitor.sv(44) @ 1985: uvm_test_top.env.aa.inp_mon [INPUT MONITOR]  WRITE awaddr=00000020 wdata=020aa6a9 wstrb=0100 
UVM_INFO axi4_lite_out_monitor.sv(28) @ 2005: uvm_test_top.env.pa.out_mon [OUTPUT MONITOR] BRESP = 0 RRESP = 0 RDATA = 00000000
UVM_INFO axi4_lite_driver.sv(34) @ 2005: uvm_test_top.env.aa.drv [DRV] awaddr = 00000020 wdata = 020aa6a9 wstrb = 4 araddr = 6139e568
UVM_INFO axi4_lite_scoreboard.sv(52) @ 2005: uvm_test_top.env.scb [BRESP] Matched : exp_bresp= 0 actual_bresp=0 write = 1 read = 0
UVM_INFO axi4_lite_subscriber.sv(41) @ 2035: uvm_test_top.env.sb [sb] INPUT COVERAGE = 83.33 %
UVM_INFO axi4_lite_inp_monitor.sv(44) @ 2035: uvm_test_top.env.aa.inp_mon [INPUT MONITOR]  WRITE awaddr=0000000c wdata=e77c2632 wstrb=1100 
UVM_INFO axi4_lite_out_monitor.sv(28) @ 2055: uvm_test_top.env.pa.out_mon [OUTPUT MONITOR] BRESP = 0 RRESP = 0 RDATA = 00000000
UVM_INFO axi4_lite_driver.sv(34) @ 2055: uvm_test_top.env.aa.drv [DRV] awaddr = 0000000c wdata = e77c2632 wstrb = c araddr = 23c8c8d4
UVM_INFO axi4_lite_scoreboard.sv(52) @ 2055: uvm_test_top.env.scb [BRESP] Matched : exp_bresp= 0 actual_bresp=0 write = 1 read = 0
UVM_INFO axi4_lite_subscriber.sv(41) @ 2095: uvm_test_top.env.sb [sb] INPUT COVERAGE = 83.33 %
UVM_INFO axi4_lite_inp_monitor.sv(44) @ 2095: uvm_test_top.env.aa.inp_mon [INPUT MONITOR]  WRITE awaddr=00000034 wdata=641109ea wstrb=0001 
UVM_INFO axi4_lite_out_monitor.sv(28) @ 2115: uvm_test_top.env.pa.out_mon [OUTPUT MONITOR] BRESP = 0 RRESP = 0 RDATA = 00000000
UVM_INFO axi4_lite_driver.sv(34) @ 2115: uvm_test_top.env.aa.drv [DRV] awaddr = 00000034 wdata = 641109ea wstrb = 1 araddr = e9c5d5d8
UVM_INFO axi4_lite_scoreboard.sv(52) @ 2115: uvm_test_top.env.scb [BRESP] Matched : exp_bresp= 0 actual_bresp=0 write = 1 read = 0
UVM_INFO axi4_lite_subscriber.sv(41) @ 2135: uvm_test_top.env.sb [sb] INPUT COVERAGE = 83.33 %
UVM_INFO axi4_lite_inp_monitor.sv(44) @ 2135: uvm_test_top.env.aa.inp_mon [INPUT MONITOR]  WRITE awaddr=00000008 wdata=c07f2085 wstrb=1101 
UVM_INFO axi4_lite_out_monitor.sv(28) @ 2155: uvm_test_top.env.pa.out_mon [OUTPUT MONITOR] BRESP = 0 RRESP = 0 RDATA = 00000000
UVM_INFO axi4_lite_driver.sv(34) @ 2155: uvm_test_top.env.aa.drv [DRV] awaddr = 00000008 wdata = c07f2085 wstrb = d araddr = 775bbf20
UVM_INFO axi4_lite_scoreboard.sv(52) @ 2155: uvm_test_top.env.scb [BRESP] Matched : exp_bresp= 0 actual_bresp=0 write = 1 read = 0
UVM_INFO axi4_lite_subscriber.sv(41) @ 2205: uvm_test_top.env.sb [sb] INPUT COVERAGE = 83.33 %
UVM_INFO axi4_lite_inp_monitor.sv(44) @ 2205: uvm_test_top.env.aa.inp_mon [INPUT MONITOR]  WRITE awaddr=00000024 wdata=8b8c3c5f wstrb=0010 
UVM_INFO axi4_lite_out_monitor.sv(28) @ 2225: uvm_test_top.env.pa.out_mon [OUTPUT MONITOR] BRESP = 0 RRESP = 0 RDATA = 00000000
UVM_INFO axi4_lite_driver.sv(34) @ 2225: uvm_test_top.env.aa.drv [DRV] awaddr = 00000024 wdata = 8b8c3c5f wstrb = 2 araddr = 784fd0c0
UVM_INFO axi4_lite_scoreboard.sv(52) @ 2225: uvm_test_top.env.scb [BRESP] Matched : exp_bresp= 0 actual_bresp=0 write = 1 read = 0
UVM_INFO axi4_lite_subscriber.sv(41) @ 2275: uvm_test_top.env.sb [sb] INPUT COVERAGE = 83.33 %
UVM_INFO axi4_lite_inp_monitor.sv(44) @ 2275: uvm_test_top.env.aa.inp_mon [INPUT MONITOR]  WRITE awaddr=00000028 wdata=dca39932 wstrb=1010 
UVM_INFO axi4_lite_out_monitor.sv(28) @ 2295: uvm_test_top.env.pa.out_mon [OUTPUT MONITOR] BRESP = 2 RRESP = 0 RDATA = 00000000
UVM_INFO axi4_lite_driver.sv(34) @ 2295: uvm_test_top.env.aa.drv [DRV] awaddr = 00000028 wdata = dca39932 wstrb = a araddr = ec6bff30
UVM_INFO axi4_lite_scoreboard.sv(52) @ 2295: uvm_test_top.env.scb [BRESP] Matched : exp_bresp= 2 actual_bresp=2 write = 1 read = 0
UVM_INFO axi4_lite_subscriber.sv(41) @ 2325: uvm_test_top.env.sb [sb] INPUT COVERAGE = 83.33 %
UVM_INFO axi4_lite_inp_monitor.sv(44) @ 2325: uvm_test_top.env.aa.inp_mon [INPUT MONITOR]  WRITE awaddr=00000034 wdata=4ac87848 wstrb=1011 
UVM_INFO axi4_lite_out_monitor.sv(28) @ 2345: uvm_test_top.env.pa.out_mon [OUTPUT MONITOR] BRESP = 0 RRESP = 0 RDATA = 00000000
UVM_INFO axi4_lite_driver.sv(34) @ 2345: uvm_test_top.env.aa.drv [DRV] awaddr = 00000034 wdata = 4ac87848 wstrb = b araddr = 5dfddc88
UVM_INFO axi4_lite_scoreboard.sv(52) @ 2345: uvm_test_top.env.scb [BRESP] Matched : exp_bresp= 0 actual_bresp=0 write = 1 read = 0
UVM_INFO axi4_lite_subscriber.sv(41) @ 2385: uvm_test_top.env.sb [sb] INPUT COVERAGE = 83.33 %
UVM_INFO axi4_lite_inp_monitor.sv(44) @ 2385: uvm_test_top.env.aa.inp_mon [INPUT MONITOR]  WRITE awaddr=00000000 wdata=b0130fa4 wstrb=0000 
UVM_INFO axi4_lite_out_monitor.sv(28) @ 2405: uvm_test_top.env.pa.out_mon [OUTPUT MONITOR] BRESP = 0 RRESP = 0 RDATA = 00000000
UVM_INFO axi4_lite_driver.sv(34) @ 2405: uvm_test_top.env.aa.drv [DRV] awaddr = 00000000 wdata = b0130fa4 wstrb = 0 araddr = aa9cf4d4
UVM_INFO axi4_lite_scoreboard.sv(52) @ 2405: uvm_test_top.env.scb [BRESP] Matched : exp_bresp= 0 actual_bresp=0 write = 1 read = 0
UVM_INFO axi4_lite_subscriber.sv(41) @ 2435: uvm_test_top.env.sb [sb] INPUT COVERAGE = 83.33 %
UVM_INFO axi4_lite_inp_monitor.sv(44) @ 2435: uvm_test_top.env.aa.inp_mon [INPUT MONITOR]  WRITE awaddr=00000004 wdata=865574e9 wstrb=0001 
UVM_INFO axi4_lite_out_monitor.sv(28) @ 2455: uvm_test_top.env.pa.out_mon [OUTPUT MONITOR] BRESP = 0 RRESP = 0 RDATA = 00000000
UVM_INFO axi4_lite_driver.sv(34) @ 2455: uvm_test_top.env.aa.drv [DRV] awaddr = 00000004 wdata = 865574e9 wstrb = 1 araddr = 95878574
UVM_INFO axi4_lite_scoreboard.sv(52) @ 2455: uvm_test_top.env.scb [BRESP] Matched : exp_bresp= 0 actual_bresp=0 write = 1 read = 0
UVM_INFO axi4_lite_subscriber.sv(41) @ 2485: uvm_test_top.env.sb [sb] INPUT COVERAGE = 83.33 %
UVM_INFO axi4_lite_inp_monitor.sv(44) @ 2485: uvm_test_top.env.aa.inp_mon [INPUT MONITOR]  WRITE awaddr=00000034 wdata=7230faa4 wstrb=1000 
UVM_INFO axi4_lite_out_monitor.sv(28) @ 2505: uvm_test_top.env.pa.out_mon [OUTPUT MONITOR] BRESP = 0 RRESP = 0 RDATA = 00000000
UVM_INFO axi4_lite_driver.sv(34) @ 2505: uvm_test_top.env.aa.drv [DRV] awaddr = 00000034 wdata = 7230faa4 wstrb = 8 araddr = 7e5ffe20
UVM_INFO axi4_lite_scoreboard.sv(52) @ 2505: uvm_test_top.env.scb [BRESP] Matched : exp_bresp= 0 actual_bresp=0 write = 1 read = 0
UVM_INFO axi4_lite_subscriber.sv(41) @ 2535: uvm_test_top.env.sb [sb] INPUT COVERAGE = 83.33 %
UVM_INFO axi4_lite_inp_monitor.sv(44) @ 2535: uvm_test_top.env.aa.inp_mon [INPUT MONITOR]  WRITE awaddr=0000000c wdata=b18f9e30 wstrb=1101 
UVM_INFO axi4_lite_out_monitor.sv(28) @ 2555: uvm_test_top.env.pa.out_mon [OUTPUT MONITOR] BRESP = 0 RRESP = 0 RDATA = 00000000
UVM_INFO axi4_lite_driver.sv(34) @ 2555: uvm_test_top.env.aa.drv [DRV] awaddr = 0000000c wdata = b18f9e30 wstrb = d araddr = 02f29868
UVM_INFO axi4_lite_scoreboard.sv(52) @ 2555: uvm_test_top.env.scb [BRESP] Matched : exp_bresp= 0 actual_bresp=0 write = 1 read = 0
UVM_INFO axi4_lite_subscriber.sv(41) @ 2605: uvm_test_top.env.sb [sb] INPUT COVERAGE = 83.33 %
UVM_INFO axi4_lite_inp_monitor.sv(44) @ 2605: uvm_test_top.env.aa.inp_mon [INPUT MONITOR]  WRITE awaddr=00000020 wdata=795b5936 wstrb=0111 
UVM_INFO axi4_lite_out_monitor.sv(28) @ 2625: uvm_test_top.env.pa.out_mon [OUTPUT MONITOR] BRESP = 0 RRESP = 0 RDATA = 00000000
UVM_INFO axi4_lite_driver.sv(34) @ 2625: uvm_test_top.env.aa.drv [DRV] awaddr = 00000020 wdata = 795b5936 wstrb = 7 araddr = 26e4fbc0
UVM_INFO axi4_lite_scoreboard.sv(52) @ 2625: uvm_test_top.env.scb [BRESP] Matched : exp_bresp= 0 actual_bresp=0 write = 1 read = 0
UVM_INFO axi4_lite_subscriber.sv(41) @ 2645: uvm_test_top.env.sb [sb] INPUT COVERAGE = 83.33 %
UVM_INFO axi4_lite_inp_monitor.sv(44) @ 2645: uvm_test_top.env.aa.inp_mon [INPUT MONITOR]  WRITE awaddr=00000034 wdata=c871fc0e wstrb=1000 
UVM_INFO axi4_lite_out_monitor.sv(28) @ 2665: uvm_test_top.env.pa.out_mon [OUTPUT MONITOR] BRESP = 0 RRESP = 0 RDATA = 00000000
UVM_INFO axi4_lite_driver.sv(34) @ 2665: uvm_test_top.env.aa.drv [DRV] awaddr = 00000034 wdata = c871fc0e wstrb = 8 araddr = d0454c88
UVM_INFO axi4_lite_scoreboard.sv(52) @ 2665: uvm_test_top.env.scb [BRESP] Matched : exp_bresp= 0 actual_bresp=0 write = 1 read = 0
UVM_INFO axi4_lite_subscriber.sv(41) @ 2695: uvm_test_top.env.sb [sb] INPUT COVERAGE = 83.33 %
UVM_INFO axi4_lite_inp_monitor.sv(44) @ 2695: uvm_test_top.env.aa.inp_mon [INPUT MONITOR]  WRITE awaddr=0000002c wdata=346e7f4d wstrb=0110 
UVM_INFO axi4_lite_out_monitor.sv(28) @ 2715: uvm_test_top.env.pa.out_mon [OUTPUT MONITOR] BRESP = 2 RRESP = 0 RDATA = 00000000
UVM_INFO axi4_lite_driver.sv(34) @ 2715: uvm_test_top.env.aa.drv [DRV] awaddr = 0000002c wdata = 346e7f4d wstrb = 6 araddr = de66d074
UVM_INFO axi4_lite_scoreboard.sv(52) @ 2715: uvm_test_top.env.scb [BRESP] Matched : exp_bresp= 2 actual_bresp=2 write = 1 read = 0
UVM_INFO axi4_lite_subscriber.sv(41) @ 2735: uvm_test_top.env.sb [sb] INPUT COVERAGE = 83.33 %
UVM_INFO axi4_lite_inp_monitor.sv(44) @ 2735: uvm_test_top.env.aa.inp_mon [INPUT MONITOR]  WRITE awaddr=0000000c wdata=31ca05b4 wstrb=0101 
UVM_INFO axi4_lite_out_monitor.sv(28) @ 2755: uvm_test_top.env.pa.out_mon [OUTPUT MONITOR] BRESP = 0 RRESP = 0 RDATA = 00000000
UVM_INFO axi4_lite_driver.sv(34) @ 2755: uvm_test_top.env.aa.drv [DRV] awaddr = 0000000c wdata = 31ca05b4 wstrb = 5 araddr = 695c3c7c
UVM_INFO axi4_lite_scoreboard.sv(52) @ 2755: uvm_test_top.env.scb [BRESP] Matched : exp_bresp= 0 actual_bresp=0 write = 1 read = 0
UVM_INFO axi4_lite_subscriber.sv(41) @ 2775: uvm_test_top.env.sb [sb] INPUT COVERAGE = 83.33 %
UVM_INFO axi4_lite_inp_monitor.sv(44) @ 2775: uvm_test_top.env.aa.inp_mon [INPUT MONITOR]  WRITE awaddr=00000014 wdata=f1b4c128 wstrb=0001 
UVM_INFO axi4_lite_out_monitor.sv(28) @ 2795: uvm_test_top.env.pa.out_mon [OUTPUT MONITOR] BRESP = 0 RRESP = 0 RDATA = 00000000
UVM_INFO axi4_lite_driver.sv(34) @ 2795: uvm_test_top.env.aa.drv [DRV] awaddr = 00000014 wdata = f1b4c128 wstrb = 1 araddr = e7570d40
UVM_INFO axi4_lite_scoreboard.sv(52) @ 2795: uvm_test_top.env.scb [BRESP] Matched : exp_bresp= 0 actual_bresp=0 write = 1 read = 0
UVM_INFO axi4_lite_subscriber.sv(41) @ 2845: uvm_test_top.env.sb [sb] INPUT COVERAGE = 83.33 %
UVM_INFO axi4_lite_inp_monitor.sv(44) @ 2845: uvm_test_top.env.aa.inp_mon [INPUT MONITOR]  WRITE awaddr=00000010 wdata=5280346f wstrb=0010 
UVM_INFO axi4_lite_out_monitor.sv(28) @ 2865: uvm_test_top.env.pa.out_mon [OUTPUT MONITOR] BRESP = 0 RRESP = 0 RDATA = 00000000
UVM_INFO axi4_lite_driver.sv(34) @ 2865: uvm_test_top.env.aa.drv [DRV] awaddr = 00000010 wdata = 5280346f wstrb = 2 araddr = 5c576648
UVM_INFO axi4_lite_scoreboard.sv(52) @ 2865: uvm_test_top.env.scb [BRESP] Matched : exp_bresp= 0 actual_bresp=0 write = 1 read = 0
UVM_INFO axi4_lite_subscriber.sv(41) @ 2905: uvm_test_top.env.sb [sb] INPUT COVERAGE = 83.33 %
UVM_INFO axi4_lite_inp_monitor.sv(44) @ 2905: uvm_test_top.env.aa.inp_mon [INPUT MONITOR]  WRITE awaddr=00000010 wdata=41218626 wstrb=0100 
UVM_INFO axi4_lite_out_monitor.sv(28) @ 2925: uvm_test_top.env.pa.out_mon [OUTPUT MONITOR] BRESP = 0 RRESP = 0 RDATA = 00000000
UVM_INFO axi4_lite_driver.sv(34) @ 2925: uvm_test_top.env.aa.drv [DRV] awaddr = 00000010 wdata = 41218626 wstrb = 4 araddr = 0a0a1a70
UVM_INFO axi4_lite_scoreboard.sv(52) @ 2925: uvm_test_top.env.scb [BRESP] Matched : exp_bresp= 0 actual_bresp=0 write = 1 read = 0
UVM_INFO axi4_lite_subscriber.sv(41) @ 2965: uvm_test_top.env.sb [sb] INPUT COVERAGE = 83.33 %
UVM_INFO axi4_lite_inp_monitor.sv(44) @ 2965: uvm_test_top.env.aa.inp_mon [INPUT MONITOR]  WRITE awaddr=00000038 wdata=5065b716 wstrb=0000 
UVM_INFO axi4_lite_out_monitor.sv(28) @ 2985: uvm_test_top.env.pa.out_mon [OUTPUT MONITOR] BRESP = 0 RRESP = 0 RDATA = 00000000
UVM_INFO axi4_lite_driver.sv(34) @ 2985: uvm_test_top.env.aa.drv [DRV] awaddr = 00000038 wdata = 5065b716 wstrb = 0 araddr = 6c827d74
UVM_INFO axi4_lite_scoreboard.sv(52) @ 2985: uvm_test_top.env.scb [BRESP] Matched : exp_bresp= 0 actual_bresp=0 write = 1 read = 0
UVM_INFO axi4_lite_subscriber.sv(41) @ 3035: uvm_test_top.env.sb [sb] INPUT COVERAGE = 83.33 %
UVM_INFO axi4_lite_inp_monitor.sv(44) @ 3035: uvm_test_top.env.aa.inp_mon [INPUT MONITOR]  WRITE awaddr=00000004 wdata=3763d4fe wstrb=1001 
UVM_INFO axi4_lite_out_monitor.sv(28) @ 3055: uvm_test_top.env.pa.out_mon [OUTPUT MONITOR] BRESP = 0 RRESP = 0 RDATA = 00000000
UVM_INFO axi4_lite_driver.sv(34) @ 3055: uvm_test_top.env.aa.drv [DRV] awaddr = 00000004 wdata = 3763d4fe wstrb = 9 araddr = 11f3997c
UVM_INFO axi4_lite_scoreboard.sv(52) @ 3055: uvm_test_top.env.scb [BRESP] Matched : exp_bresp= 0 actual_bresp=0 write = 1 read = 0
UVM_INFO axi4_lite_subscriber.sv(41) @ 3085: uvm_test_top.env.sb [sb] INPUT COVERAGE = 83.33 %
UVM_INFO axi4_lite_inp_monitor.sv(44) @ 3085: uvm_test_top.env.aa.inp_mon [INPUT MONITOR]  WRITE awaddr=00000018 wdata=9a951778 wstrb=0101 
UVM_INFO axi4_lite_out_monitor.sv(28) @ 3105: uvm_test_top.env.pa.out_mon [OUTPUT MONITOR] BRESP = 0 RRESP = 0 RDATA = 00000000
UVM_INFO axi4_lite_driver.sv(34) @ 3105: uvm_test_top.env.aa.drv [DRV] awaddr = 00000018 wdata = 9a951778 wstrb = 5 araddr = 38214800
UVM_INFO axi4_lite_scoreboard.sv(52) @ 3105: uvm_test_top.env.scb [BRESP] Matched : exp_bresp= 0 actual_bresp=0 write = 1 read = 0
UVM_INFO axi4_lite_subscriber.sv(41) @ 3135: uvm_test_top.env.sb [sb] INPUT COVERAGE = 83.33 %
UVM_INFO axi4_lite_inp_monitor.sv(44) @ 3135: uvm_test_top.env.aa.inp_mon [INPUT MONITOR]  WRITE awaddr=00000024 wdata=d411b8ed wstrb=1010 
UVM_INFO axi4_lite_out_monitor.sv(28) @ 3155: uvm_test_top.env.pa.out_mon [OUTPUT MONITOR] BRESP = 0 RRESP = 0 RDATA = 00000000
UVM_INFO axi4_lite_driver.sv(34) @ 3155: uvm_test_top.env.aa.drv [DRV] awaddr = 00000024 wdata = d411b8ed wstrb = a araddr = 1674e1e4
UVM_INFO axi4_lite_scoreboard.sv(52) @ 3155: uvm_test_top.env.scb [BRESP] Matched : exp_bresp= 0 actual_bresp=0 write = 1 read = 0
UVM_INFO axi4_lite_subscriber.sv(41) @ 3195: uvm_test_top.env.sb [sb] INPUT COVERAGE = 83.33 %
UVM_INFO axi4_lite_inp_monitor.sv(44) @ 3195: uvm_test_top.env.aa.inp_mon [INPUT MONITOR]  WRITE awaddr=00000030 wdata=ada8b887 wstrb=0011 
UVM_INFO axi4_lite_out_monitor.sv(28) @ 3215: uvm_test_top.env.pa.out_mon [OUTPUT MONITOR] BRESP = 2 RRESP = 0 RDATA = 00000000
UVM_INFO axi4_lite_driver.sv(34) @ 3215: uvm_test_top.env.aa.drv [DRV] awaddr = 00000030 wdata = ada8b887 wstrb = 3 araddr = 346b2df0
UVM_INFO axi4_lite_scoreboard.sv(52) @ 3215: uvm_test_top.env.scb [BRESP] Matched : exp_bresp= 2 actual_bresp=2 write = 1 read = 0
UVM_INFO axi4_lite_subscriber.sv(41) @ 3265: uvm_test_top.env.sb [sb] INPUT COVERAGE = 83.33 %
UVM_INFO axi4_lite_inp_monitor.sv(44) @ 3265: uvm_test_top.env.aa.inp_mon [INPUT MONITOR]  WRITE awaddr=0000002c wdata=c11dcff9 wstrb=0111 
UVM_INFO axi4_lite_out_monitor.sv(28) @ 3285: uvm_test_top.env.pa.out_mon [OUTPUT MONITOR] BRESP = 2 RRESP = 0 RDATA = 00000000
UVM_INFO axi4_lite_driver.sv(34) @ 3285: uvm_test_top.env.aa.drv [DRV] awaddr = 0000002c wdata = c11dcff9 wstrb = 7 araddr = efde87a8
UVM_INFO axi4_lite_scoreboard.sv(52) @ 3285: uvm_test_top.env.scb [BRESP] Matched : exp_bresp= 2 actual_bresp=2 write = 1 read = 0
UVM_INFO axi4_lite_subscriber.sv(41) @ 3315: uvm_test_top.env.sb [sb] INPUT COVERAGE = 83.33 %
UVM_INFO axi4_lite_inp_monitor.sv(44) @ 3315: uvm_test_top.env.aa.inp_mon [INPUT MONITOR]  WRITE awaddr=00000018 wdata=2b096914 wstrb=0100 
UVM_INFO axi4_lite_out_monitor.sv(28) @ 3335: uvm_test_top.env.pa.out_mon [OUTPUT MONITOR] BRESP = 0 RRESP = 0 RDATA = 00000000
UVM_INFO axi4_lite_driver.sv(34) @ 3335: uvm_test_top.env.aa.drv [DRV] awaddr = 00000018 wdata = 2b096914 wstrb = 4 araddr = c5ea417c
UVM_INFO axi4_lite_scoreboard.sv(52) @ 3335: uvm_test_top.env.scb [BRESP] Matched : exp_bresp= 0 actual_bresp=0 write = 1 read = 0
UVM_INFO axi4_lite_subscriber.sv(41) @ 3355: uvm_test_top.env.sb [sb] INPUT COVERAGE = 83.33 %
UVM_INFO axi4_lite_inp_monitor.sv(44) @ 3355: uvm_test_top.env.aa.inp_mon [INPUT MONITOR]  WRITE awaddr=00000030 wdata=e14752d6 wstrb=0000 
UVM_INFO axi4_lite_out_monitor.sv(28) @ 3375: uvm_test_top.env.pa.out_mon [OUTPUT MONITOR] BRESP = 2 RRESP = 0 RDATA = 00000000
UVM_INFO axi4_lite_driver.sv(34) @ 3375: uvm_test_top.env.aa.drv [DRV] awaddr = 00000030 wdata = e14752d6 wstrb = 0 araddr = 2554ae60
UVM_INFO axi4_lite_scoreboard.sv(52) @ 3375: uvm_test_top.env.scb [BRESP] Matched : exp_bresp= 2 actual_bresp=2 write = 1 read = 0
UVM_INFO axi4_lite_subscriber.sv(41) @ 3415: uvm_test_top.env.sb [sb] INPUT COVERAGE = 83.33 %
UVM_INFO axi4_lite_inp_monitor.sv(44) @ 3415: uvm_test_top.env.aa.inp_mon [INPUT MONITOR]  WRITE awaddr=00000034 wdata=077a8ee7 wstrb=0111 
UVM_INFO axi4_lite_out_monitor.sv(28) @ 3435: uvm_test_top.env.pa.out_mon [OUTPUT MONITOR] BRESP = 0 RRESP = 0 RDATA = 00000000
UVM_INFO axi4_lite_driver.sv(34) @ 3435: uvm_test_top.env.aa.drv [DRV] awaddr = 00000034 wdata = 077a8ee7 wstrb = 7 araddr = 2cf5e3c0
UVM_INFO axi4_lite_scoreboard.sv(52) @ 3435: uvm_test_top.env.scb [BRESP] Matched : exp_bresp= 0 actual_bresp=0 write = 1 read = 0
UVM_INFO axi4_lite_subscriber.sv(41) @ 3475: uvm_test_top.env.sb [sb] INPUT COVERAGE = 83.33 %
UVM_INFO axi4_lite_inp_monitor.sv(44) @ 3475: uvm_test_top.env.aa.inp_mon [INPUT MONITOR]  WRITE awaddr=00000008 wdata=2991cede wstrb=1111 
UVM_INFO axi4_lite_out_monitor.sv(28) @ 3495: uvm_test_top.env.pa.out_mon [OUTPUT MONITOR] BRESP = 0 RRESP = 0 RDATA = 00000000
UVM_INFO axi4_lite_driver.sv(34) @ 3495: uvm_test_top.env.aa.drv [DRV] awaddr = 00000008 wdata = 2991cede wstrb = f araddr = 5869c7a8
UVM_INFO axi4_lite_scoreboard.sv(52) @ 3495: uvm_test_top.env.scb [BRESP] Matched : exp_bresp= 0 actual_bresp=0 write = 1 read = 0
UVM_INFO axi4_lite_subscriber.sv(41) @ 3535: uvm_test_top.env.sb [sb] INPUT COVERAGE = 83.33 %
UVM_INFO axi4_lite_inp_monitor.sv(44) @ 3535: uvm_test_top.env.aa.inp_mon [INPUT MONITOR]  WRITE awaddr=0000001c wdata=2007d51f wstrb=0000 
UVM_INFO axi4_lite_out_monitor.sv(28) @ 3555: uvm_test_top.env.pa.out_mon [OUTPUT MONITOR] BRESP = 0 RRESP = 0 RDATA = 00000000
UVM_INFO axi4_lite_driver.sv(34) @ 3555: uvm_test_top.env.aa.drv [DRV] awaddr = 0000001c wdata = 2007d51f wstrb = 0 araddr = 16140b8c
UVM_INFO axi4_lite_scoreboard.sv(52) @ 3555: uvm_test_top.env.scb [BRESP] Matched : exp_bresp= 0 actual_bresp=0 write = 1 read = 0
UVM_INFO axi4_lite_subscriber.sv(41) @ 3585: uvm_test_top.env.sb [sb] INPUT COVERAGE = 83.33 %
UVM_INFO axi4_lite_inp_monitor.sv(44) @ 3585: uvm_test_top.env.aa.inp_mon [INPUT MONITOR]  WRITE awaddr=00000008 wdata=aed967f3 wstrb=1100 
UVM_INFO axi4_lite_out_monitor.sv(28) @ 3605: uvm_test_top.env.pa.out_mon [OUTPUT MONITOR] BRESP = 0 RRESP = 0 RDATA = 00000000
UVM_INFO axi4_lite_driver.sv(34) @ 3605: uvm_test_top.env.aa.drv [DRV] awaddr = 00000008 wdata = aed967f3 wstrb = c araddr = b2bc2414
UVM_INFO axi4_lite_scoreboard.sv(52) @ 3605: uvm_test_top.env.scb [BRESP] Matched : exp_bresp= 0 actual_bresp=0 write = 1 read = 0
UVM_INFO axi4_lite_subscriber.sv(41) @ 3645: uvm_test_top.env.sb [sb] INPUT COVERAGE = 83.33 %
UVM_INFO axi4_lite_inp_monitor.sv(44) @ 3645: uvm_test_top.env.aa.inp_mon [INPUT MONITOR]  WRITE awaddr=00000018 wdata=5e5229c9 wstrb=0000 
UVM_INFO axi4_lite_out_monitor.sv(28) @ 3665: uvm_test_top.env.pa.out_mon [OUTPUT MONITOR] BRESP = 0 RRESP = 0 RDATA = 00000000
UVM_INFO axi4_lite_driver.sv(34) @ 3665: uvm_test_top.env.aa.drv [DRV] awaddr = 00000018 wdata = 5e5229c9 wstrb = 0 araddr = 724b4770
UVM_INFO axi4_lite_scoreboard.sv(52) @ 3665: uvm_test_top.env.scb [BRESP] Matched : exp_bresp= 0 actual_bresp=0 write = 1 read = 0
UVM_INFO axi4_lite_subscriber.sv(41) @ 3685: uvm_test_top.env.sb [sb] INPUT COVERAGE = 83.33 %
UVM_INFO axi4_lite_inp_monitor.sv(44) @ 3685: uvm_test_top.env.aa.inp_mon [INPUT MONITOR]  WRITE awaddr=00000034 wdata=a617639b wstrb=1111 
UVM_INFO axi4_lite_out_monitor.sv(28) @ 3705: uvm_test_top.env.pa.out_mon [OUTPUT MONITOR] BRESP = 0 RRESP = 0 RDATA = 00000000
UVM_INFO axi4_lite_driver.sv(34) @ 3705: uvm_test_top.env.aa.drv [DRV] awaddr = 00000034 wdata = a617639b wstrb = f araddr = 823a6958
UVM_INFO axi4_lite_scoreboard.sv(52) @ 3705: uvm_test_top.env.scb [BRESP] Matched : exp_bresp= 0 actual_bresp=0 write = 1 read = 0
UVM_INFO axi4_lite_subscriber.sv(41) @ 3755: uvm_test_top.env.sb [sb] INPUT COVERAGE = 83.33 %
UVM_INFO axi4_lite_inp_monitor.sv(44) @ 3755: uvm_test_top.env.aa.inp_mon [INPUT MONITOR]  WRITE awaddr=00000014 wdata=edd00957 wstrb=0100 
UVM_INFO axi4_lite_out_monitor.sv(28) @ 3775: uvm_test_top.env.pa.out_mon [OUTPUT MONITOR] BRESP = 0 RRESP = 0 RDATA = 00000000
UVM_INFO axi4_lite_driver.sv(34) @ 3775: uvm_test_top.env.aa.drv [DRV] awaddr = 00000014 wdata = edd00957 wstrb = 4 araddr = cfc138f8
UVM_INFO axi4_lite_scoreboard.sv(52) @ 3775: uvm_test_top.env.scb [BRESP] Matched : exp_bresp= 0 actual_bresp=0 write = 1 read = 0
UVM_INFO axi4_lite_subscriber.sv(41) @ 3805: uvm_test_top.env.sb [sb] INPUT COVERAGE = 83.33 %
UVM_INFO axi4_lite_inp_monitor.sv(44) @ 3805: uvm_test_top.env.aa.inp_mon [INPUT MONITOR]  WRITE awaddr=00000000 wdata=7211c2c6 wstrb=0011 
UVM_INFO axi4_lite_out_monitor.sv(28) @ 3825: uvm_test_top.env.pa.out_mon [OUTPUT MONITOR] BRESP = 0 RRESP = 0 RDATA = 00000000
UVM_INFO axi4_lite_driver.sv(34) @ 3825: uvm_test_top.env.aa.drv [DRV] awaddr = 00000000 wdata = 7211c2c6 wstrb = 3 araddr = 3484938c
UVM_INFO axi4_lite_scoreboard.sv(52) @ 3825: uvm_test_top.env.scb [BRESP] Matched : exp_bresp= 0 actual_bresp=0 write = 1 read = 0
UVM_INFO axi4_lite_subscriber.sv(41) @ 3875: uvm_test_top.env.sb [sb] INPUT COVERAGE = 83.33 %
UVM_INFO axi4_lite_inp_monitor.sv(44) @ 3875: uvm_test_top.env.aa.inp_mon [INPUT MONITOR]  WRITE awaddr=00000004 wdata=dbaeefa3 wstrb=0001 
UVM_INFO axi4_lite_out_monitor.sv(28) @ 3895: uvm_test_top.env.pa.out_mon [OUTPUT MONITOR] BRESP = 0 RRESP = 0 RDATA = 00000000
UVM_INFO axi4_lite_driver.sv(34) @ 3895: uvm_test_top.env.aa.drv [DRV] awaddr = 00000004 wdata = dbaeefa3 wstrb = 1 araddr = 6ad6f0d8
UVM_INFO axi4_lite_scoreboard.sv(52) @ 3895: uvm_test_top.env.scb [BRESP] Matched : exp_bresp= 0 actual_bresp=0 write = 1 read = 0
UVM_INFO axi4_lite_subscriber.sv(41) @ 3925: uvm_test_top.env.sb [sb] INPUT COVERAGE = 83.33 %
UVM_INFO axi4_lite_inp_monitor.sv(44) @ 3925: uvm_test_top.env.aa.inp_mon [INPUT MONITOR]  WRITE awaddr=0000001c wdata=600759c6 wstrb=1011 
UVM_INFO axi4_lite_out_monitor.sv(28) @ 3945: uvm_test_top.env.pa.out_mon [OUTPUT MONITOR] BRESP = 0 RRESP = 0 RDATA = 00000000
UVM_INFO axi4_lite_driver.sv(34) @ 3945: uvm_test_top.env.aa.drv [DRV] awaddr = 0000001c wdata = 600759c6 wstrb = b araddr = bbef32b4
UVM_INFO axi4_lite_scoreboard.sv(52) @ 3945: uvm_test_top.env.scb [BRESP] Matched : exp_bresp= 0 actual_bresp=0 write = 1 read = 0
UVM_INFO axi4_lite_subscriber.sv(41) @ 3985: uvm_test_top.env.sb [sb] INPUT COVERAGE = 83.33 %
UVM_INFO axi4_lite_inp_monitor.sv(44) @ 3985: uvm_test_top.env.aa.inp_mon [INPUT MONITOR]  WRITE awaddr=0000000c wdata=791d87d4 wstrb=1111 
UVM_INFO axi4_lite_out_monitor.sv(28) @ 4005: uvm_test_top.env.pa.out_mon [OUTPUT MONITOR] BRESP = 0 RRESP = 0 RDATA = 00000000
UVM_INFO axi4_lite_driver.sv(34) @ 4005: uvm_test_top.env.aa.drv [DRV] awaddr = 0000000c wdata = 791d87d4 wstrb = f araddr = 5f95a9ec
UVM_INFO axi4_lite_scoreboard.sv(52) @ 4005: uvm_test_top.env.scb [BRESP] Matched : exp_bresp= 0 actual_bresp=0 write = 1 read = 0
UVM_INFO axi4_lite_subscriber.sv(41) @ 4035: uvm_test_top.env.sb [sb] INPUT COVERAGE = 83.33 %
UVM_INFO axi4_lite_inp_monitor.sv(44) @ 4035: uvm_test_top.env.aa.inp_mon [INPUT MONITOR]  WRITE awaddr=00000008 wdata=e7f0c884 wstrb=0010 
UVM_INFO axi4_lite_out_monitor.sv(28) @ 4055: uvm_test_top.env.pa.out_mon [OUTPUT MONITOR] BRESP = 0 RRESP = 0 RDATA = 00000000
UVM_INFO axi4_lite_driver.sv(34) @ 4055: uvm_test_top.env.aa.drv [DRV] awaddr = 00000008 wdata = e7f0c884 wstrb = 2 araddr = 61eaa8b4
UVM_INFO axi4_lite_scoreboard.sv(52) @ 4055: uvm_test_top.env.scb [BRESP] Matched : exp_bresp= 0 actual_bresp=0 write = 1 read = 0
UVM_INFO axi4_lite_subscriber.sv(41) @ 4095: uvm_test_top.env.sb [sb] INPUT COVERAGE = 83.33 %
UVM_INFO axi4_lite_inp_monitor.sv(44) @ 4095: uvm_test_top.env.aa.inp_mon [INPUT MONITOR]  WRITE awaddr=0000002c wdata=6765b64c wstrb=1111 
UVM_INFO axi4_lite_out_monitor.sv(28) @ 4115: uvm_test_top.env.pa.out_mon [OUTPUT MONITOR] BRESP = 2 RRESP = 0 RDATA = 00000000
UVM_INFO axi4_lite_driver.sv(34) @ 4115: uvm_test_top.env.aa.drv [DRV] awaddr = 0000002c wdata = 6765b64c wstrb = f araddr = 8a51e734
UVM_INFO axi4_lite_scoreboard.sv(52) @ 4115: uvm_test_top.env.scb [BRESP] Matched : exp_bresp= 2 actual_bresp=2 write = 1 read = 0
UVM_INFO axi4_lite_subscriber.sv(41) @ 4165: uvm_test_top.env.sb [sb] INPUT COVERAGE = 83.33 %
UVM_INFO axi4_lite_inp_monitor.sv(44) @ 4165: uvm_test_top.env.aa.inp_mon [INPUT MONITOR]  WRITE awaddr=00000018 wdata=a2b96875 wstrb=1010 
UVM_INFO axi4_lite_out_monitor.sv(28) @ 4185: uvm_test_top.env.pa.out_mon [OUTPUT MONITOR] BRESP = 0 RRESP = 0 RDATA = 00000000
UVM_INFO axi4_lite_driver.sv(34) @ 4185: uvm_test_top.env.aa.drv [DRV] awaddr = 00000018 wdata = a2b96875 wstrb = a araddr = 4009684c
UVM_INFO axi4_lite_scoreboard.sv(52) @ 4185: uvm_test_top.env.scb [BRESP] Matched : exp_bresp= 0 actual_bresp=0 write = 1 read = 0
UVM_INFO axi4_lite_subscriber.sv(41) @ 4235: uvm_test_top.env.sb [sb] INPUT COVERAGE = 83.33 %
UVM_INFO axi4_lite_inp_monitor.sv(44) @ 4235: uvm_test_top.env.aa.inp_mon [INPUT MONITOR]  WRITE awaddr=00000034 wdata=9e47a968 wstrb=0010 
UVM_INFO axi4_lite_out_monitor.sv(28) @ 4255: uvm_test_top.env.pa.out_mon [OUTPUT MONITOR] BRESP = 0 RRESP = 0 RDATA = 00000000
UVM_INFO axi4_lite_driver.sv(34) @ 4255: uvm_test_top.env.aa.drv [DRV] awaddr = 00000034 wdata = 9e47a968 wstrb = 2 araddr = 45a67dbc
UVM_INFO axi4_lite_scoreboard.sv(52) @ 4255: uvm_test_top.env.scb [BRESP] Matched : exp_bresp= 0 actual_bresp=0 write = 1 read = 0
UVM_INFO axi4_lite_subscriber.sv(41) @ 4295: uvm_test_top.env.sb [sb] INPUT COVERAGE = 83.33 %
UVM_INFO axi4_lite_inp_monitor.sv(44) @ 4295: uvm_test_top.env.aa.inp_mon [INPUT MONITOR]  WRITE awaddr=00000028 wdata=f7ee8f59 wstrb=0011 
UVM_INFO axi4_lite_out_monitor.sv(28) @ 4315: uvm_test_top.env.pa.out_mon [OUTPUT MONITOR] BRESP = 2 RRESP = 0 RDATA = 00000000
UVM_INFO axi4_lite_driver.sv(34) @ 4315: uvm_test_top.env.aa.drv [DRV] awaddr = 00000028 wdata = f7ee8f59 wstrb = 3 araddr = 49096318
UVM_INFO axi4_lite_scoreboard.sv(52) @ 4315: uvm_test_top.env.scb [BRESP] Matched : exp_bresp= 2 actual_bresp=2 write = 1 read = 0
UVM_INFO axi4_lite_subscriber.sv(41) @ 4355: uvm_test_top.env.sb [sb] INPUT COVERAGE = 83.33 %
UVM_INFO axi4_lite_inp_monitor.sv(44) @ 4355: uvm_test_top.env.aa.inp_mon [INPUT MONITOR]  WRITE awaddr=00000018 wdata=6b3b245b wstrb=0011 
UVM_INFO axi4_lite_out_monitor.sv(28) @ 4375: uvm_test_top.env.pa.out_mon [OUTPUT MONITOR] BRESP = 0 RRESP = 0 RDATA = 00000000
UVM_INFO axi4_lite_driver.sv(34) @ 4375: uvm_test_top.env.aa.drv [DRV] awaddr = 00000018 wdata = 6b3b245b wstrb = 3 araddr = 987b3f20
UVM_INFO axi4_lite_scoreboard.sv(52) @ 4375: uvm_test_top.env.scb [BRESP] Matched : exp_bresp= 0 actual_bresp=0 write = 1 read = 0
UVM_INFO axi4_lite_subscriber.sv(41) @ 4425: uvm_test_top.env.sb [sb] INPUT COVERAGE = 83.33 %
UVM_INFO axi4_lite_inp_monitor.sv(44) @ 4425: uvm_test_top.env.aa.inp_mon [INPUT MONITOR]  WRITE awaddr=00000020 wdata=dfe74a06 wstrb=1001 
UVM_INFO axi4_lite_out_monitor.sv(28) @ 4445: uvm_test_top.env.pa.out_mon [OUTPUT MONITOR] BRESP = 0 RRESP = 0 RDATA = 00000000
UVM_INFO axi4_lite_driver.sv(34) @ 4445: uvm_test_top.env.aa.drv [DRV] awaddr = 00000020 wdata = dfe74a06 wstrb = 9 araddr = cdfc01d8
UVM_INFO axi4_lite_scoreboard.sv(52) @ 4445: uvm_test_top.env.scb [BRESP] Matched : exp_bresp= 0 actual_bresp=0 write = 1 read = 0
UVM_INFO axi4_lite_subscriber.sv(41) @ 4495: uvm_test_top.env.sb [sb] INPUT COVERAGE = 83.33 %
UVM_INFO axi4_lite_inp_monitor.sv(44) @ 4495: uvm_test_top.env.aa.inp_mon [INPUT MONITOR]  WRITE awaddr=00000004 wdata=37881a9d wstrb=0100 
UVM_INFO axi4_lite_out_monitor.sv(28) @ 4515: uvm_test_top.env.pa.out_mon [OUTPUT MONITOR] BRESP = 0 RRESP = 0 RDATA = 00000000
UVM_INFO axi4_lite_driver.sv(34) @ 4515: uvm_test_top.env.aa.drv [DRV] awaddr = 00000004 wdata = 37881a9d wstrb = 4 araddr = b213a10c
UVM_INFO axi4_lite_scoreboard.sv(52) @ 4515: uvm_test_top.env.scb [BRESP] Matched : exp_bresp= 0 actual_bresp=0 write = 1 read = 0
UVM_INFO axi4_lite_subscriber.sv(41) @ 4545: uvm_test_top.env.sb [sb] INPUT COVERAGE = 83.33 %
UVM_INFO axi4_lite_inp_monitor.sv(44) @ 4545: uvm_test_top.env.aa.inp_mon [INPUT MONITOR]  WRITE awaddr=00000024 wdata=4f945db2 wstrb=0011 
UVM_INFO axi4_lite_out_monitor.sv(28) @ 4565: uvm_test_top.env.pa.out_mon [OUTPUT MONITOR] BRESP = 0 RRESP = 0 RDATA = 00000000
UVM_INFO axi4_lite_driver.sv(34) @ 4565: uvm_test_top.env.aa.drv [DRV] awaddr = 00000024 wdata = 4f945db2 wstrb = 3 araddr = 0f506444
UVM_INFO axi4_lite_scoreboard.sv(52) @ 4565: uvm_test_top.env.scb [BRESP] Matched : exp_bresp= 0 actual_bresp=0 write = 1 read = 0
UVM_INFO axi4_lite_subscriber.sv(41) @ 4605: uvm_test_top.env.sb [sb] INPUT COVERAGE = 83.33 %
UVM_INFO axi4_lite_inp_monitor.sv(44) @ 4605: uvm_test_top.env.aa.inp_mon [INPUT MONITOR]  WRITE awaddr=00000014 wdata=68a6eef0 wstrb=0100 
UVM_INFO axi4_lite_out_monitor.sv(28) @ 4625: uvm_test_top.env.pa.out_mon [OUTPUT MONITOR] BRESP = 0 RRESP = 0 RDATA = 00000000
UVM_INFO axi4_lite_driver.sv(34) @ 4625: uvm_test_top.env.aa.drv [DRV] awaddr = 00000014 wdata = 68a6eef0 wstrb = 4 araddr = 92113bec
UVM_INFO axi4_lite_scoreboard.sv(52) @ 4625: uvm_test_top.env.scb [BRESP] Matched : exp_bresp= 0 actual_bresp=0 write = 1 read = 0
UVM_INFO axi4_lite_subscriber.sv(41) @ 4655: uvm_test_top.env.sb [sb] INPUT COVERAGE = 83.33 %
UVM_INFO axi4_lite_inp_monitor.sv(44) @ 4655: uvm_test_top.env.aa.inp_mon [INPUT MONITOR]  WRITE awaddr=0000001c wdata=a2a02bb6 wstrb=1011 
UVM_INFO axi4_lite_out_monitor.sv(28) @ 4675: uvm_test_top.env.pa.out_mon [OUTPUT MONITOR] BRESP = 0 RRESP = 0 RDATA = 00000000
UVM_INFO axi4_lite_driver.sv(34) @ 4675: uvm_test_top.env.aa.drv [DRV] awaddr = 0000001c wdata = a2a02bb6 wstrb = b araddr = 8eef8498
UVM_INFO axi4_lite_scoreboard.sv(52) @ 4675: uvm_test_top.env.scb [BRESP] Matched : exp_bresp= 0 actual_bresp=0 write = 1 read = 0
UVM_INFO axi4_lite_subscriber.sv(41) @ 4695: uvm_test_top.env.sb [sb] INPUT COVERAGE = 83.33 %
UVM_INFO axi4_lite_inp_monitor.sv(44) @ 4695: uvm_test_top.env.aa.inp_mon [INPUT MONITOR]  WRITE awaddr=00000028 wdata=97c9fff4 wstrb=0011 
UVM_INFO axi4_lite_out_monitor.sv(28) @ 4715: uvm_test_top.env.pa.out_mon [OUTPUT MONITOR] BRESP = 2 RRESP = 0 RDATA = 00000000
UVM_INFO axi4_lite_driver.sv(34) @ 4715: uvm_test_top.env.aa.drv [DRV] awaddr = 00000028 wdata = 97c9fff4 wstrb = 3 araddr = faedb594
UVM_INFO axi4_lite_scoreboard.sv(52) @ 4715: uvm_test_top.env.scb [BRESP] Matched : exp_bresp= 2 actual_bresp=2 write = 1 read = 0
UVM_INFO axi4_lite_subscriber.sv(41) @ 4745: uvm_test_top.env.sb [sb] INPUT COVERAGE = 83.33 %
UVM_INFO axi4_lite_inp_monitor.sv(44) @ 4745: uvm_test_top.env.aa.inp_mon [INPUT MONITOR]  WRITE awaddr=00000004 wdata=8869c8fe wstrb=0001 
UVM_INFO axi4_lite_out_monitor.sv(28) @ 4765: uvm_test_top.env.pa.out_mon [OUTPUT MONITOR] BRESP = 0 RRESP = 0 RDATA = 00000000
UVM_INFO axi4_lite_driver.sv(34) @ 4765: uvm_test_top.env.aa.drv [DRV] awaddr = 00000004 wdata = 8869c8fe wstrb = 1 araddr = 5267bd9c
UVM_INFO axi4_lite_scoreboard.sv(52) @ 4765: uvm_test_top.env.scb [BRESP] Matched : exp_bresp= 0 actual_bresp=0 write = 1 read = 0
UVM_INFO axi4_lite_subscriber.sv(41) @ 4815: uvm_test_top.env.sb [sb] INPUT COVERAGE = 83.33 %
UVM_INFO axi4_lite_inp_monitor.sv(44) @ 4815: uvm_test_top.env.aa.inp_mon [INPUT MONITOR]  WRITE awaddr=00000024 wdata=bf4cf39b wstrb=1101 
UVM_INFO axi4_lite_out_monitor.sv(28) @ 4835: uvm_test_top.env.pa.out_mon [OUTPUT MONITOR] BRESP = 0 RRESP = 0 RDATA = 00000000
UVM_INFO axi4_lite_driver.sv(34) @ 4835: uvm_test_top.env.aa.drv [DRV] awaddr = 00000024 wdata = bf4cf39b wstrb = d araddr = 086b2d14
UVM_INFO axi4_lite_scoreboard.sv(52) @ 4835: uvm_test_top.env.scb [BRESP] Matched : exp_bresp= 0 actual_bresp=0 write = 1 read = 0
UVM_INFO axi4_lite_subscriber.sv(41) @ 4875: uvm_test_top.env.sb [sb] INPUT COVERAGE = 83.33 %
UVM_INFO axi4_lite_inp_monitor.sv(44) @ 4875: uvm_test_top.env.aa.inp_mon [INPUT MONITOR]  WRITE awaddr=00000004 wdata=d8353e34 wstrb=0000 
UVM_INFO axi4_lite_out_monitor.sv(28) @ 4895: uvm_test_top.env.pa.out_mon [OUTPUT MONITOR] BRESP = 0 RRESP = 0 RDATA = 00000000
UVM_INFO axi4_lite_driver.sv(34) @ 4895: uvm_test_top.env.aa.drv [DRV] awaddr = 00000004 wdata = d8353e34 wstrb = 0 araddr = ee1c74f4
UVM_INFO axi4_lite_scoreboard.sv(52) @ 4895: uvm_test_top.env.scb [BRESP] Matched : exp_bresp= 0 actual_bresp=0 write = 1 read = 0
UVM_INFO axi4_lite_subscriber.sv(41) @ 4925: uvm_test_top.env.sb [sb] INPUT COVERAGE = 83.33 %
UVM_INFO axi4_lite_inp_monitor.sv(44) @ 4925: uvm_test_top.env.aa.inp_mon [INPUT MONITOR]  WRITE awaddr=00000010 wdata=9f51c811 wstrb=1100 
UVM_INFO axi4_lite_out_monitor.sv(28) @ 4945: uvm_test_top.env.pa.out_mon [OUTPUT MONITOR] BRESP = 0 RRESP = 0 RDATA = 00000000
UVM_INFO axi4_lite_driver.sv(34) @ 4945: uvm_test_top.env.aa.drv [DRV] awaddr = 00000010 wdata = 9f51c811 wstrb = c araddr = da9a6d70
UVM_INFO axi4_lite_scoreboard.sv(52) @ 4945: uvm_test_top.env.scb [BRESP] Matched : exp_bresp= 0 actual_bresp=0 write = 1 read = 0
UVM_INFO axi4_lite_subscriber.sv(41) @ 4985: uvm_test_top.env.sb [sb] INPUT COVERAGE = 83.33 %
UVM_INFO axi4_lite_inp_monitor.sv(44) @ 4985: uvm_test_top.env.aa.inp_mon [INPUT MONITOR]  WRITE awaddr=00000024 wdata=29b18e2f wstrb=1101 
UVM_INFO axi4_lite_out_monitor.sv(28) @ 5005: uvm_test_top.env.pa.out_mon [OUTPUT MONITOR] BRESP = 0 RRESP = 0 RDATA = 00000000
UVM_INFO axi4_lite_driver.sv(34) @ 5005: uvm_test_top.env.aa.drv [DRV] awaddr = 00000024 wdata = 29b18e2f wstrb = d araddr = aa3abf74
UVM_INFO axi4_lite_scoreboard.sv(52) @ 5005: uvm_test_top.env.scb [BRESP] Matched : exp_bresp= 0 actual_bresp=0 write = 1 read = 0
UVM_INFO axi4_lite_subscriber.sv(41) @ 5055: uvm_test_top.env.sb [sb] INPUT COVERAGE = 83.33 %
UVM_INFO axi4_lite_inp_monitor.sv(44) @ 5055: uvm_test_top.env.aa.inp_mon [INPUT MONITOR]  WRITE awaddr=00000004 wdata=fedfd7c1 wstrb=0101 
UVM_INFO axi4_lite_out_monitor.sv(28) @ 5075: uvm_test_top.env.pa.out_mon [OUTPUT MONITOR] BRESP = 0 RRESP = 0 RDATA = 00000000
UVM_INFO axi4_lite_driver.sv(34) @ 5075: uvm_test_top.env.aa.drv [DRV] awaddr = 00000004 wdata = fedfd7c1 wstrb = 5 araddr = c834b0d0
UVM_INFO axi4_lite_scoreboard.sv(52) @ 5075: uvm_test_top.env.scb [BRESP] Matched : exp_bresp= 0 actual_bresp=0 write = 1 read = 0
UVM_INFO axi4_lite_subscriber.sv(41) @ 5105: uvm_test_top.env.sb [sb] INPUT COVERAGE = 83.33 %
UVM_INFO axi4_lite_inp_monitor.sv(44) @ 5105: uvm_test_top.env.aa.inp_mon [INPUT MONITOR]  WRITE awaddr=00000028 wdata=cfaaa5ba wstrb=1110 
UVM_INFO axi4_lite_out_monitor.sv(28) @ 5125: uvm_test_top.env.pa.out_mon [OUTPUT MONITOR] BRESP = 2 RRESP = 0 RDATA = 00000000
UVM_INFO axi4_lite_driver.sv(34) @ 5125: uvm_test_top.env.aa.drv [DRV] awaddr = 00000028 wdata = cfaaa5ba wstrb = e araddr = 8542c470
UVM_INFO axi4_lite_scoreboard.sv(52) @ 5125: uvm_test_top.env.scb [BRESP] Matched : exp_bresp= 2 actual_bresp=2 write = 1 read = 0
UVM_INFO axi4_lite_subscriber.sv(41) @ 5155: uvm_test_top.env.sb [sb] INPUT COVERAGE = 83.33 %
UVM_INFO axi4_lite_inp_monitor.sv(44) @ 5155: uvm_test_top.env.aa.inp_mon [INPUT MONITOR]  WRITE awaddr=0000001c wdata=dac497fc wstrb=0000 
UVM_INFO axi4_lite_out_monitor.sv(28) @ 5175: uvm_test_top.env.pa.out_mon [OUTPUT MONITOR] BRESP = 0 RRESP = 0 RDATA = 00000000
UVM_INFO axi4_lite_driver.sv(34) @ 5175: uvm_test_top.env.aa.drv [DRV] awaddr = 0000001c wdata = dac497fc wstrb = 0 araddr = 26e9869c
UVM_INFO axi4_lite_scoreboard.sv(52) @ 5175: uvm_test_top.env.scb [BRESP] Matched : exp_bresp= 0 actual_bresp=0 write = 1 read = 0
UVM_INFO axi4_lite_subscriber.sv(41) @ 5215: uvm_test_top.env.sb [sb] INPUT COVERAGE = 83.33 %
UVM_INFO axi4_lite_inp_monitor.sv(44) @ 5215: uvm_test_top.env.aa.inp_mon [INPUT MONITOR]  WRITE awaddr=00000014 wdata=d92c0a71 wstrb=0100 
UVM_INFO axi4_lite_out_monitor.sv(28) @ 5235: uvm_test_top.env.pa.out_mon [OUTPUT MONITOR] BRESP = 0 RRESP = 0 RDATA = 00000000
UVM_INFO axi4_lite_driver.sv(34) @ 5235: uvm_test_top.env.aa.drv [DRV] awaddr = 00000014 wdata = d92c0a71 wstrb = 4 araddr = 9dce5b0c
UVM_INFO axi4_lite_scoreboard.sv(52) @ 5235: uvm_test_top.env.scb [BRESP] Matched : exp_bresp= 0 actual_bresp=0 write = 1 read = 0
UVM_INFO axi4_lite_subscriber.sv(41) @ 5265: uvm_test_top.env.sb [sb] INPUT COVERAGE = 83.33 %
UVM_INFO axi4_lite_inp_monitor.sv(44) @ 5265: uvm_test_top.env.aa.inp_mon [INPUT MONITOR]  WRITE awaddr=00000000 wdata=11582ccf wstrb=1100 
UVM_INFO axi4_lite_out_monitor.sv(28) @ 5285: uvm_test_top.env.pa.out_mon [OUTPUT MONITOR] BRESP = 0 RRESP = 0 RDATA = 00000000
UVM_INFO axi4_lite_driver.sv(34) @ 5285: uvm_test_top.env.aa.drv [DRV] awaddr = 00000000 wdata = 11582ccf wstrb = c araddr = 0adbada4
UVM_INFO axi4_lite_scoreboard.sv(52) @ 5285: uvm_test_top.env.scb [BRESP] Matched : exp_bresp= 0 actual_bresp=0 write = 1 read = 0
UVM_INFO axi4_lite_subscriber.sv(41) @ 5305: uvm_test_top.env.sb [sb] INPUT COVERAGE = 83.33 %
UVM_INFO axi4_lite_inp_monitor.sv(44) @ 5305: uvm_test_top.env.aa.inp_mon [INPUT MONITOR]  WRITE awaddr=00000028 wdata=5b192d0d wstrb=0001 
UVM_INFO axi4_lite_out_monitor.sv(28) @ 5325: uvm_test_top.env.pa.out_mon [OUTPUT MONITOR] BRESP = 2 RRESP = 0 RDATA = 00000000
UVM_INFO axi4_lite_driver.sv(34) @ 5325: uvm_test_top.env.aa.drv [DRV] awaddr = 00000028 wdata = 5b192d0d wstrb = 1 araddr = 400fa378
UVM_INFO axi4_lite_scoreboard.sv(52) @ 5325: uvm_test_top.env.scb [BRESP] Matched : exp_bresp= 2 actual_bresp=2 write = 1 read = 0
UVM_INFO axi4_lite_subscriber.sv(41) @ 5375: uvm_test_top.env.sb [sb] INPUT COVERAGE = 83.33 %
UVM_INFO axi4_lite_inp_monitor.sv(44) @ 5375: uvm_test_top.env.aa.inp_mon [INPUT MONITOR]  WRITE awaddr=00000010 wdata=7e7e177b wstrb=1000 
UVM_INFO axi4_lite_out_monitor.sv(28) @ 5395: uvm_test_top.env.pa.out_mon [OUTPUT MONITOR] BRESP = 0 RRESP = 0 RDATA = 00000000
UVM_INFO axi4_lite_driver.sv(34) @ 5395: uvm_test_top.env.aa.drv [DRV] awaddr = 00000010 wdata = 7e7e177b wstrb = 8 araddr = ecaa3948
UVM_INFO axi4_lite_scoreboard.sv(52) @ 5395: uvm_test_top.env.scb [BRESP] Matched : exp_bresp= 0 actual_bresp=0 write = 1 read = 0
UVM_INFO axi4_lite_subscriber.sv(41) @ 5435: uvm_test_top.env.sb [sb] INPUT COVERAGE = 83.33 %
UVM_INFO axi4_lite_inp_monitor.sv(44) @ 5435: uvm_test_top.env.aa.inp_mon [INPUT MONITOR]  WRITE awaddr=00000038 wdata=58d3dc18 wstrb=1001 
UVM_INFO axi4_lite_out_monitor.sv(28) @ 5455: uvm_test_top.env.pa.out_mon [OUTPUT MONITOR] BRESP = 0 RRESP = 0 RDATA = 00000000
UVM_INFO axi4_lite_driver.sv(34) @ 5455: uvm_test_top.env.aa.drv [DRV] awaddr = 00000038 wdata = 58d3dc18 wstrb = 9 araddr = 11d0a0f0
UVM_INFO axi4_lite_scoreboard.sv(52) @ 5455: uvm_test_top.env.scb [BRESP] Matched : exp_bresp= 0 actual_bresp=0 write = 1 read = 0
UVM_INFO axi4_lite_subscriber.sv(41) @ 5495: uvm_test_top.env.sb [sb] INPUT COVERAGE = 83.33 %
UVM_INFO axi4_lite_inp_monitor.sv(44) @ 5495: uvm_test_top.env.aa.inp_mon [INPUT MONITOR]  WRITE awaddr=0000000c wdata=adcf7c86 wstrb=0001 
UVM_INFO axi4_lite_out_monitor.sv(28) @ 5515: uvm_test_top.env.pa.out_mon [OUTPUT MONITOR] BRESP = 0 RRESP = 0 RDATA = 00000000
UVM_INFO axi4_lite_driver.sv(34) @ 5515: uvm_test_top.env.aa.drv [DRV] awaddr = 0000000c wdata = adcf7c86 wstrb = 1 araddr = e482424c
UVM_INFO axi4_lite_scoreboard.sv(52) @ 5515: uvm_test_top.env.scb [BRESP] Matched : exp_bresp= 0 actual_bresp=0 write = 1 read = 0
UVM_INFO axi4_lite_subscriber.sv(41) @ 5545: uvm_test_top.env.sb [sb] INPUT COVERAGE = 83.33 %
UVM_INFO axi4_lite_inp_monitor.sv(44) @ 5545: uvm_test_top.env.aa.inp_mon [INPUT MONITOR]  WRITE awaddr=00000010 wdata=bb7c30a1 wstrb=1100 
UVM_INFO axi4_lite_out_monitor.sv(28) @ 5565: uvm_test_top.env.pa.out_mon [OUTPUT MONITOR] BRESP = 0 RRESP = 0 RDATA = 00000000
UVM_INFO axi4_lite_driver.sv(34) @ 5565: uvm_test_top.env.aa.drv [DRV] awaddr = 00000010 wdata = bb7c30a1 wstrb = c araddr = cd0a7a24
UVM_INFO axi4_lite_scoreboard.sv(52) @ 5565: uvm_test_top.env.scb [BRESP] Matched : exp_bresp= 0 actual_bresp=0 write = 1 read = 0
UVM_INFO axi4_lite_subscriber.sv(41) @ 5615: uvm_test_top.env.sb [sb] INPUT COVERAGE = 83.33 %
UVM_INFO axi4_lite_inp_monitor.sv(44) @ 5615: uvm_test_top.env.aa.inp_mon [INPUT MONITOR]  WRITE awaddr=00000018 wdata=ae0dd99f wstrb=0010 
UVM_INFO axi4_lite_out_monitor.sv(28) @ 5635: uvm_test_top.env.pa.out_mon [OUTPUT MONITOR] BRESP = 0 RRESP = 0 RDATA = 00000000
UVM_INFO axi4_lite_driver.sv(34) @ 5635: uvm_test_top.env.aa.drv [DRV] awaddr = 00000018 wdata = ae0dd99f wstrb = 2 araddr = 721d5028
UVM_INFO axi4_lite_scoreboard.sv(52) @ 5635: uvm_test_top.env.scb [BRESP] Matched : exp_bresp= 0 actual_bresp=0 write = 1 read = 0
UVM_INFO axi4_lite_test.sv(27) @ 5635: uvm_test_top [TEST] Write completed
UVM_INFO /fetools/synopsys/installed_tools/vcs/vcs/Q-2020.03-SP2-8/etc/uvm/base/uvm_objection.svh(1274) @ 5635: reporter [TEST_DONE] 'run' phase is ready to proceed to the 'extract' phase

--- UVM Report Summary ---

** Report counts by severity
UVM_INFO :  504
UVM_WARNING :    0
UVM_ERROR :    0
UVM_FATAL :    0
** Report counts by id
[BRESP]   100
[DRV]   100
[INPUT MONITOR]   100
[OUTPUT MONITOR]   100
[RNTST]     1
[TEST]     1
[TEST_DONE]     1
[UVMTOP]     1
[sb]   100
$finish called from file "/fetools/synopsys/installed_tools/vcs/vcs/Q-2020.03-SP2-8/etc/uvm/base/uvm_root.svh", line 437.
$finish at simulation time                 5635

---------------------------------------------------------------------------
VCS Coverage Metrics: during simulation line, cond, FSM, branch, tgl was monitored
---------------------------------------------------------------------------
           V C S   S i m u l a t i o n   R e p o r t 
Time: 5635 ns
CPU Time:      0.570 seconds;       Data structure size:   0.4Mb
Fri Sep 18 14:21:41 2026
