Command: /fetools/work_area/frontend/Batch_11/ananyaganesh/system_verilog/AXI4_LITE_SLAVE/src/work/simv +UVM_TESTNAME=axi4_lite_test_addr_with_delay_data +UVM_VERBOSITY=UVM_HIGH +ntb_random_seed=27 -cm line+cond+fsm+tgl+branch+assert -cm_dir work/regression.vdb -cm_name axi4_lite_test_addr_with_delay_data_27 -l work/logs/axi4_lite_test_addr_with_delay_data_27.log +UVM_NO_RELNOTES
Chronologic VCS simulator copyright 1991-2020
Contains Synopsys proprietary information.
Compiler version Q-2020.03-SP2-8_Full64; Runtime version Q-2020.03-SP2-8_Full64;  Sep 17 16:19 2026
----------------------------------------------------------------
UVM-1.1d.Synopsys
(C) 2007-2013 Mentor Graphics Corporation
(C) 2007-2013 Cadence Design Systems, Inc.
(C) 2006-2013 Synopsys, Inc.
(C) 2011-2013 Cypress Semiconductor Corp.
----------------------------------------------------------------
UVM_INFO @ 0: reporter [RNTST] Running test axi4_lite_test_addr_with_delay_data...
UVM_INFO @ 0: reporter [UVMTOP] UVM testbench topology:
---------------------------------------------------------------------------
Name                       Type                                 Size  Value
---------------------------------------------------------------------------
uvm_test_top               axi4_lite_test_addr_with_delay_data  -     @469 
  env                      axi4_lite_environment                -     @477 
    aa                     axi4_lite_active_agent               -     @489 
      drv                  axi4_lite_driver                     -     @569 
        rsp_port           uvm_analysis_port                    -     @586 
        seq_item_port      uvm_seq_item_pull_port               -     @577 
      inp_mon              axi4_lite_inp_monitor                -     @552 
        inp_mon_port       uvm_analysis_port                    -     @560 
      seqr                 axi4_lite_seqr                       -     @595 
        rsp_export         uvm_analysis_export                  -     @603 
        seq_item_export    uvm_seq_item_pull_imp                -     @709 
        arbitration_queue  array                                0     -    
        lock_queue         array                                0     -    
        num_last_reqs      integral                             32    'd1  
        num_last_rsps      integral                             32    'd1  
    pa                     axi4_lite_passive_agent              -     @497 
      out_mon              axi4_lite_out_monitor                -     @726 
        out_mon_port       uvm_analysis_port                    -     @734 
    sb                     axi4_lite_subscriber                 -     @531 
      analysis_imp         uvm_analysis_imp                     -     @539 
    scb                    axi4_lite_scoreboard                 -     @505 
      inp_port             uvm_analysis_imp_in                  -     @513 
      out_port             uvm_analysis_imp_out                 -     @522 
---------------------------------------------------------------------------

UVM_INFO axi4_lite_subscriber.sv(41) @ 35: uvm_test_top.env.sb [sb] INPUT COVERAGE = 28.12 %
UVM_INFO axi4_lite_inp_monitor.sv(44) @ 35: uvm_test_top.env.aa.inp_mon [INPUT MONITOR]  WRITE awaddr=00000014 wdata=fb2c768d wstrb=1111 
UVM_INFO axi4_lite_out_monitor.sv(28) @ 55: uvm_test_top.env.pa.out_mon [OUTPUT MONITOR] BRESP = 0 RRESP = 0 RDATA = 00000000
UVM_INFO axi4_lite_driver.sv(34) @ 55: uvm_test_top.env.aa.drv [DRV] awaddr = 00000014 wdata = fb2c768d wstrb = f araddr = d8a626a8
UVM_INFO axi4_lite_scoreboard.sv(52) @ 55: uvm_test_top.env.scb [BRESP] Matched : exp_bresp= 0 actual_bresp=0 write = 1 read = 0
UVM_INFO axi4_lite_subscriber.sv(41) @ 105: uvm_test_top.env.sb [sb] INPUT COVERAGE = 36.46 %
UVM_INFO axi4_lite_inp_monitor.sv(44) @ 105: uvm_test_top.env.aa.inp_mon [INPUT MONITOR]  WRITE awaddr=00000010 wdata=a1af23f8 wstrb=1010 
UVM_INFO axi4_lite_out_monitor.sv(28) @ 125: uvm_test_top.env.pa.out_mon [OUTPUT MONITOR] BRESP = 0 RRESP = 0 RDATA = 00000000
UVM_INFO axi4_lite_driver.sv(34) @ 125: uvm_test_top.env.aa.drv [DRV] awaddr = 00000010 wdata = a1af23f8 wstrb = a araddr = 554feedc
UVM_INFO axi4_lite_scoreboard.sv(52) @ 125: uvm_test_top.env.scb [BRESP] Matched : exp_bresp= 0 actual_bresp=0 write = 1 read = 0
UVM_INFO axi4_lite_subscriber.sv(41) @ 145: uvm_test_top.env.sb [sb] INPUT COVERAGE = 36.46 %
UVM_INFO axi4_lite_inp_monitor.sv(44) @ 145: uvm_test_top.env.aa.inp_mon [INPUT MONITOR]  WRITE awaddr=00000014 wdata=e28a0865 wstrb=1010 
UVM_INFO axi4_lite_out_monitor.sv(28) @ 165: uvm_test_top.env.pa.out_mon [OUTPUT MONITOR] BRESP = 0 RRESP = 0 RDATA = 00000000
UVM_INFO axi4_lite_driver.sv(34) @ 165: uvm_test_top.env.aa.drv [DRV] awaddr = 00000014 wdata = e28a0865 wstrb = a araddr = b468521c
UVM_INFO axi4_lite_scoreboard.sv(52) @ 165: uvm_test_top.env.scb [BRESP] Matched : exp_bresp= 0 actual_bresp=0 write = 1 read = 0
UVM_INFO axi4_lite_subscriber.sv(41) @ 185: uvm_test_top.env.sb [sb] INPUT COVERAGE = 53.12 %
UVM_INFO axi4_lite_inp_monitor.sv(44) @ 185: uvm_test_top.env.aa.inp_mon [INPUT MONITOR]  WRITE awaddr=00000028 wdata=2d2e6fda wstrb=0110 
UVM_INFO axi4_lite_out_monitor.sv(28) @ 205: uvm_test_top.env.pa.out_mon [OUTPUT MONITOR] BRESP = 2 RRESP = 0 RDATA = 00000000
UVM_INFO axi4_lite_driver.sv(34) @ 205: uvm_test_top.env.aa.drv [DRV] awaddr = 00000028 wdata = 2d2e6fda wstrb = 6 araddr = de9ae138
UVM_INFO axi4_lite_scoreboard.sv(52) @ 205: uvm_test_top.env.scb [BRESP] Matched : exp_bresp= 2 actual_bresp=2 write = 1 read = 0
UVM_INFO axi4_lite_subscriber.sv(41) @ 225: uvm_test_top.env.sb [sb] INPUT COVERAGE = 61.46 %
UVM_INFO axi4_lite_inp_monitor.sv(44) @ 225: uvm_test_top.env.aa.inp_mon [INPUT MONITOR]  WRITE awaddr=00000034 wdata=f80c870f wstrb=1011 
UVM_INFO axi4_lite_out_monitor.sv(28) @ 245: uvm_test_top.env.pa.out_mon [OUTPUT MONITOR] BRESP = 0 RRESP = 0 RDATA = 00000000
UVM_INFO axi4_lite_driver.sv(34) @ 245: uvm_test_top.env.aa.drv [DRV] awaddr = 00000034 wdata = f80c870f wstrb = b araddr = ccfa1bf4
UVM_INFO axi4_lite_scoreboard.sv(52) @ 245: uvm_test_top.env.scb [BRESP] Matched : exp_bresp= 0 actual_bresp=0 write = 1 read = 0
UVM_INFO axi4_lite_subscriber.sv(41) @ 295: uvm_test_top.env.sb [sb] INPUT COVERAGE = 61.46 %
UVM_INFO axi4_lite_inp_monitor.sv(44) @ 295: uvm_test_top.env.aa.inp_mon [INPUT MONITOR]  WRITE awaddr=00000004 wdata=4e127c71 wstrb=1001 
UVM_INFO axi4_lite_out_monitor.sv(28) @ 315: uvm_test_top.env.pa.out_mon [OUTPUT MONITOR] BRESP = 0 RRESP = 0 RDATA = 00000000
UVM_INFO axi4_lite_driver.sv(34) @ 315: uvm_test_top.env.aa.drv [DRV] awaddr = 00000004 wdata = 4e127c71 wstrb = 9 araddr = 8fad5228
UVM_INFO axi4_lite_scoreboard.sv(52) @ 315: uvm_test_top.env.scb [BRESP] Matched : exp_bresp= 0 actual_bresp=0 write = 1 read = 0
UVM_INFO axi4_lite_subscriber.sv(41) @ 345: uvm_test_top.env.sb [sb] INPUT COVERAGE = 61.46 %
UVM_INFO axi4_lite_inp_monitor.sv(44) @ 345: uvm_test_top.env.aa.inp_mon [INPUT MONITOR]  WRITE awaddr=00000010 wdata=de41d9be wstrb=0111 
UVM_INFO axi4_lite_out_monitor.sv(28) @ 365: uvm_test_top.env.pa.out_mon [OUTPUT MONITOR] BRESP = 0 RRESP = 0 RDATA = 00000000
UVM_INFO axi4_lite_driver.sv(34) @ 365: uvm_test_top.env.aa.drv [DRV] awaddr = 00000010 wdata = de41d9be wstrb = 7 araddr = 03c44b98
UVM_INFO axi4_lite_scoreboard.sv(52) @ 365: uvm_test_top.env.scb [BRESP] Matched : exp_bresp= 0 actual_bresp=0 write = 1 read = 0
UVM_INFO axi4_lite_subscriber.sv(41) @ 395: uvm_test_top.env.sb [sb] INPUT COVERAGE = 61.46 %
UVM_INFO axi4_lite_inp_monitor.sv(44) @ 395: uvm_test_top.env.aa.inp_mon [INPUT MONITOR]  WRITE awaddr=00000004 wdata=137db11d wstrb=1001 
UVM_INFO axi4_lite_out_monitor.sv(28) @ 415: uvm_test_top.env.pa.out_mon [OUTPUT MONITOR] BRESP = 0 RRESP = 0 RDATA = 00000000
UVM_INFO axi4_lite_driver.sv(34) @ 415: uvm_test_top.env.aa.drv [DRV] awaddr = 00000004 wdata = 137db11d wstrb = 9 araddr = 89d2cec4
UVM_INFO axi4_lite_scoreboard.sv(52) @ 415: uvm_test_top.env.scb [BRESP] Matched : exp_bresp= 0 actual_bresp=0 write = 1 read = 0
UVM_INFO axi4_lite_subscriber.sv(41) @ 465: uvm_test_top.env.sb [sb] INPUT COVERAGE = 61.46 %
UVM_INFO axi4_lite_inp_monitor.sv(44) @ 465: uvm_test_top.env.aa.inp_mon [INPUT MONITOR]  WRITE awaddr=00000010 wdata=0516a2c0 wstrb=0101 
UVM_INFO axi4_lite_out_monitor.sv(28) @ 485: uvm_test_top.env.pa.out_mon [OUTPUT MONITOR] BRESP = 0 RRESP = 0 RDATA = 00000000
UVM_INFO axi4_lite_driver.sv(34) @ 485: uvm_test_top.env.aa.drv [DRV] awaddr = 00000010 wdata = 0516a2c0 wstrb = 5 araddr = 1bace4cc
UVM_INFO axi4_lite_scoreboard.sv(52) @ 485: uvm_test_top.env.scb [BRESP] Matched : exp_bresp= 0 actual_bresp=0 write = 1 read = 0
UVM_INFO axi4_lite_subscriber.sv(41) @ 525: uvm_test_top.env.sb [sb] INPUT COVERAGE = 61.46 %
UVM_INFO axi4_lite_inp_monitor.sv(44) @ 525: uvm_test_top.env.aa.inp_mon [INPUT MONITOR]  WRITE awaddr=00000020 wdata=5cd08d72 wstrb=1110 
UVM_INFO axi4_lite_out_monitor.sv(28) @ 545: uvm_test_top.env.pa.out_mon [OUTPUT MONITOR] BRESP = 0 RRESP = 0 RDATA = 00000000
UVM_INFO axi4_lite_driver.sv(34) @ 545: uvm_test_top.env.aa.drv [DRV] awaddr = 00000020 wdata = 5cd08d72 wstrb = e araddr = 7e9a6714
UVM_INFO axi4_lite_scoreboard.sv(52) @ 545: uvm_test_top.env.scb [BRESP] Matched : exp_bresp= 0 actual_bresp=0 write = 1 read = 0
UVM_INFO axi4_lite_subscriber.sv(41) @ 595: uvm_test_top.env.sb [sb] INPUT COVERAGE = 61.46 %
UVM_INFO axi4_lite_inp_monitor.sv(44) @ 595: uvm_test_top.env.aa.inp_mon [INPUT MONITOR]  WRITE awaddr=00000020 wdata=cb96b757 wstrb=1110 
UVM_INFO axi4_lite_out_monitor.sv(28) @ 615: uvm_test_top.env.pa.out_mon [OUTPUT MONITOR] BRESP = 0 RRESP = 0 RDATA = 00000000
UVM_INFO axi4_lite_driver.sv(34) @ 615: uvm_test_top.env.aa.drv [DRV] awaddr = 00000020 wdata = cb96b757 wstrb = e araddr = b50b4458
UVM_INFO axi4_lite_scoreboard.sv(52) @ 615: uvm_test_top.env.scb [BRESP] Matched : exp_bresp= 0 actual_bresp=0 write = 1 read = 0
UVM_INFO axi4_lite_subscriber.sv(41) @ 665: uvm_test_top.env.sb [sb] INPUT COVERAGE = 64.58 %
UVM_INFO axi4_lite_inp_monitor.sv(44) @ 665: uvm_test_top.env.aa.inp_mon [INPUT MONITOR]  WRITE awaddr=00000030 wdata=77e797c8 wstrb=1000 
UVM_INFO axi4_lite_out_monitor.sv(28) @ 685: uvm_test_top.env.pa.out_mon [OUTPUT MONITOR] BRESP = 2 RRESP = 0 RDATA = 00000000
UVM_INFO axi4_lite_driver.sv(34) @ 685: uvm_test_top.env.aa.drv [DRV] awaddr = 00000030 wdata = 77e797c8 wstrb = 8 araddr = 0afd115c
UVM_INFO axi4_lite_scoreboard.sv(52) @ 685: uvm_test_top.env.scb [BRESP] Matched : exp_bresp= 2 actual_bresp=2 write = 1 read = 0
UVM_INFO axi4_lite_subscriber.sv(41) @ 735: uvm_test_top.env.sb [sb] INPUT COVERAGE = 64.58 %
UVM_INFO axi4_lite_inp_monitor.sv(44) @ 735: uvm_test_top.env.aa.inp_mon [INPUT MONITOR]  WRITE awaddr=00000020 wdata=25823857 wstrb=1111 
UVM_INFO axi4_lite_out_monitor.sv(28) @ 755: uvm_test_top.env.pa.out_mon [OUTPUT MONITOR] BRESP = 0 RRESP = 0 RDATA = 00000000
UVM_INFO axi4_lite_driver.sv(34) @ 755: uvm_test_top.env.aa.drv [DRV] awaddr = 00000020 wdata = 25823857 wstrb = f araddr = f42060a4
UVM_INFO axi4_lite_scoreboard.sv(52) @ 755: uvm_test_top.env.scb [BRESP] Matched : exp_bresp= 0 actual_bresp=0 write = 1 read = 0
UVM_INFO axi4_lite_subscriber.sv(41) @ 785: uvm_test_top.env.sb [sb] INPUT COVERAGE = 64.58 %
UVM_INFO axi4_lite_inp_monitor.sv(44) @ 785: uvm_test_top.env.aa.inp_mon [INPUT MONITOR]  WRITE awaddr=00000020 wdata=235af883 wstrb=1101 
UVM_INFO axi4_lite_out_monitor.sv(28) @ 805: uvm_test_top.env.pa.out_mon [OUTPUT MONITOR] BRESP = 0 RRESP = 0 RDATA = 00000000
UVM_INFO axi4_lite_driver.sv(34) @ 805: uvm_test_top.env.aa.drv [DRV] awaddr = 00000020 wdata = 235af883 wstrb = d araddr = 9176f4f8
UVM_INFO axi4_lite_scoreboard.sv(52) @ 805: uvm_test_top.env.scb [BRESP] Matched : exp_bresp= 0 actual_bresp=0 write = 1 read = 0
UVM_INFO axi4_lite_subscriber.sv(41) @ 835: uvm_test_top.env.sb [sb] INPUT COVERAGE = 64.58 %
UVM_INFO axi4_lite_inp_monitor.sv(44) @ 835: uvm_test_top.env.aa.inp_mon [INPUT MONITOR]  WRITE awaddr=00000024 wdata=652a3e44 wstrb=1111 
UVM_INFO axi4_lite_out_monitor.sv(28) @ 855: uvm_test_top.env.pa.out_mon [OUTPUT MONITOR] BRESP = 0 RRESP = 0 RDATA = 00000000
UVM_INFO axi4_lite_driver.sv(34) @ 855: uvm_test_top.env.aa.drv [DRV] awaddr = 00000024 wdata = 652a3e44 wstrb = f araddr = 2e219004
UVM_INFO axi4_lite_scoreboard.sv(52) @ 855: uvm_test_top.env.scb [BRESP] Matched : exp_bresp= 0 actual_bresp=0 write = 1 read = 0
UVM_INFO axi4_lite_subscriber.sv(41) @ 895: uvm_test_top.env.sb [sb] INPUT COVERAGE = 67.71 %
UVM_INFO axi4_lite_inp_monitor.sv(44) @ 895: uvm_test_top.env.aa.inp_mon [INPUT MONITOR]  WRITE awaddr=00000024 wdata=edbb1c03 wstrb=0010 
UVM_INFO axi4_lite_out_monitor.sv(28) @ 915: uvm_test_top.env.pa.out_mon [OUTPUT MONITOR] BRESP = 0 RRESP = 0 RDATA = 00000000
UVM_INFO axi4_lite_driver.sv(34) @ 915: uvm_test_top.env.aa.drv [DRV] awaddr = 00000024 wdata = edbb1c03 wstrb = 2 araddr = ecce1ddc
UVM_INFO axi4_lite_scoreboard.sv(52) @ 915: uvm_test_top.env.scb [BRESP] Matched : exp_bresp= 0 actual_bresp=0 write = 1 read = 0
UVM_INFO axi4_lite_subscriber.sv(41) @ 965: uvm_test_top.env.sb [sb] INPUT COVERAGE = 67.71 %
UVM_INFO axi4_lite_inp_monitor.sv(44) @ 965: uvm_test_top.env.aa.inp_mon [INPUT MONITOR]  WRITE awaddr=0000001c wdata=31207a0c wstrb=1011 
UVM_INFO axi4_lite_out_monitor.sv(28) @ 985: uvm_test_top.env.pa.out_mon [OUTPUT MONITOR] BRESP = 0 RRESP = 0 RDATA = 00000000
UVM_INFO axi4_lite_driver.sv(34) @ 985: uvm_test_top.env.aa.drv [DRV] awaddr = 0000001c wdata = 31207a0c wstrb = b araddr = f27aa410
UVM_INFO axi4_lite_scoreboard.sv(52) @ 985: uvm_test_top.env.scb [BRESP] Matched : exp_bresp= 0 actual_bresp=0 write = 1 read = 0
UVM_INFO axi4_lite_subscriber.sv(41) @ 1035: uvm_test_top.env.sb [sb] INPUT COVERAGE = 67.71 %
UVM_INFO axi4_lite_inp_monitor.sv(44) @ 1035: uvm_test_top.env.aa.inp_mon [INPUT MONITOR]  WRITE awaddr=00000028 wdata=3ddf55b0 wstrb=1110 
UVM_INFO axi4_lite_out_monitor.sv(28) @ 1055: uvm_test_top.env.pa.out_mon [OUTPUT MONITOR] BRESP = 2 RRESP = 0 RDATA = 00000000
UVM_INFO axi4_lite_driver.sv(34) @ 1055: uvm_test_top.env.aa.drv [DRV] awaddr = 00000028 wdata = 3ddf55b0 wstrb = e araddr = 068b579c
UVM_INFO axi4_lite_scoreboard.sv(52) @ 1055: uvm_test_top.env.scb [BRESP] Matched : exp_bresp= 2 actual_bresp=2 write = 1 read = 0
UVM_INFO axi4_lite_subscriber.sv(41) @ 1105: uvm_test_top.env.sb [sb] INPUT COVERAGE = 67.71 %
UVM_INFO axi4_lite_inp_monitor.sv(44) @ 1105: uvm_test_top.env.aa.inp_mon [INPUT MONITOR]  WRITE awaddr=00000038 wdata=84d30b8a wstrb=1000 
UVM_INFO axi4_lite_out_monitor.sv(28) @ 1125: uvm_test_top.env.pa.out_mon [OUTPUT MONITOR] BRESP = 0 RRESP = 0 RDATA = 00000000
UVM_INFO axi4_lite_driver.sv(34) @ 1125: uvm_test_top.env.aa.drv [DRV] awaddr = 00000038 wdata = 84d30b8a wstrb = 8 araddr = 999e8198
UVM_INFO axi4_lite_scoreboard.sv(52) @ 1125: uvm_test_top.env.scb [BRESP] Matched : exp_bresp= 0 actual_bresp=0 write = 1 read = 0
UVM_INFO axi4_lite_subscriber.sv(41) @ 1145: uvm_test_top.env.sb [sb] INPUT COVERAGE = 70.83 %
UVM_INFO axi4_lite_inp_monitor.sv(44) @ 1145: uvm_test_top.env.aa.inp_mon [INPUT MONITOR]  WRITE awaddr=00000008 wdata=b36943a1 wstrb=1100 
UVM_INFO axi4_lite_out_monitor.sv(28) @ 1165: uvm_test_top.env.pa.out_mon [OUTPUT MONITOR] BRESP = 0 RRESP = 0 RDATA = 00000000
UVM_INFO axi4_lite_driver.sv(34) @ 1165: uvm_test_top.env.aa.drv [DRV] awaddr = 00000008 wdata = b36943a1 wstrb = c araddr = 97715a28
UVM_INFO axi4_lite_scoreboard.sv(52) @ 1165: uvm_test_top.env.scb [BRESP] Matched : exp_bresp= 0 actual_bresp=0 write = 1 read = 0
UVM_INFO axi4_lite_subscriber.sv(41) @ 1205: uvm_test_top.env.sb [sb] INPUT COVERAGE = 73.96 %
UVM_INFO axi4_lite_inp_monitor.sv(44) @ 1205: uvm_test_top.env.aa.inp_mon [INPUT MONITOR]  WRITE awaddr=00000020 wdata=e8d72dbd wstrb=0001 
UVM_INFO axi4_lite_out_monitor.sv(28) @ 1225: uvm_test_top.env.pa.out_mon [OUTPUT MONITOR] BRESP = 0 RRESP = 0 RDATA = 00000000
UVM_INFO axi4_lite_driver.sv(34) @ 1225: uvm_test_top.env.aa.drv [DRV] awaddr = 00000020 wdata = e8d72dbd wstrb = 1 araddr = b8efdebc
UVM_INFO axi4_lite_scoreboard.sv(52) @ 1225: uvm_test_top.env.scb [BRESP] Matched : exp_bresp= 0 actual_bresp=0 write = 1 read = 0
UVM_INFO axi4_lite_subscriber.sv(41) @ 1255: uvm_test_top.env.sb [sb] INPUT COVERAGE = 77.08 %
UVM_INFO axi4_lite_inp_monitor.sv(44) @ 1255: uvm_test_top.env.aa.inp_mon [INPUT MONITOR]  WRITE awaddr=0000002c wdata=9c6e068a wstrb=0000 
UVM_INFO axi4_lite_out_monitor.sv(28) @ 1275: uvm_test_top.env.pa.out_mon [OUTPUT MONITOR] BRESP = 2 RRESP = 0 RDATA = 00000000
UVM_INFO axi4_lite_driver.sv(34) @ 1275: uvm_test_top.env.aa.drv [DRV] awaddr = 0000002c wdata = 9c6e068a wstrb = 0 araddr = 0cbc11a0
UVM_INFO axi4_lite_scoreboard.sv(52) @ 1275: uvm_test_top.env.scb [BRESP] Matched : exp_bresp= 2 actual_bresp=2 write = 1 read = 0
UVM_INFO axi4_lite_subscriber.sv(41) @ 1295: uvm_test_top.env.sb [sb] INPUT COVERAGE = 77.08 %
UVM_INFO axi4_lite_inp_monitor.sv(44) @ 1295: uvm_test_top.env.aa.inp_mon [INPUT MONITOR]  WRITE awaddr=00000034 wdata=e79d4962 wstrb=1111 
UVM_INFO axi4_lite_out_monitor.sv(28) @ 1315: uvm_test_top.env.pa.out_mon [OUTPUT MONITOR] BRESP = 0 RRESP = 0 RDATA = 00000000
UVM_INFO axi4_lite_driver.sv(34) @ 1315: uvm_test_top.env.aa.drv [DRV] awaddr = 00000034 wdata = e79d4962 wstrb = f araddr = c55f1808
UVM_INFO axi4_lite_scoreboard.sv(52) @ 1315: uvm_test_top.env.scb [BRESP] Matched : exp_bresp= 0 actual_bresp=0 write = 1 read = 0
UVM_INFO axi4_lite_subscriber.sv(41) @ 1345: uvm_test_top.env.sb [sb] INPUT COVERAGE = 77.08 %
UVM_INFO axi4_lite_inp_monitor.sv(44) @ 1345: uvm_test_top.env.aa.inp_mon [INPUT MONITOR]  WRITE awaddr=00000018 wdata=cc2cfb26 wstrb=0111 
UVM_INFO axi4_lite_out_monitor.sv(28) @ 1365: uvm_test_top.env.pa.out_mon [OUTPUT MONITOR] BRESP = 0 RRESP = 0 RDATA = 00000000
UVM_INFO axi4_lite_driver.sv(34) @ 1365: uvm_test_top.env.aa.drv [DRV] awaddr = 00000018 wdata = cc2cfb26 wstrb = 7 araddr = dd94a930
UVM_INFO axi4_lite_scoreboard.sv(52) @ 1365: uvm_test_top.env.scb [BRESP] Matched : exp_bresp= 0 actual_bresp=0 write = 1 read = 0
UVM_INFO axi4_lite_subscriber.sv(41) @ 1385: uvm_test_top.env.sb [sb] INPUT COVERAGE = 77.08 %
UVM_INFO axi4_lite_inp_monitor.sv(44) @ 1385: uvm_test_top.env.aa.inp_mon [INPUT MONITOR]  WRITE awaddr=00000014 wdata=a0465b66 wstrb=0110 
UVM_INFO axi4_lite_out_monitor.sv(28) @ 1405: uvm_test_top.env.pa.out_mon [OUTPUT MONITOR] BRESP = 0 RRESP = 0 RDATA = 00000000
UVM_INFO axi4_lite_driver.sv(34) @ 1405: uvm_test_top.env.aa.drv [DRV] awaddr = 00000014 wdata = a0465b66 wstrb = 6 araddr = 265a1ea8
UVM_INFO axi4_lite_scoreboard.sv(52) @ 1405: uvm_test_top.env.scb [BRESP] Matched : exp_bresp= 0 actual_bresp=0 write = 1 read = 0
UVM_INFO axi4_lite_subscriber.sv(41) @ 1435: uvm_test_top.env.sb [sb] INPUT COVERAGE = 77.08 %
UVM_INFO axi4_lite_inp_monitor.sv(44) @ 1435: uvm_test_top.env.aa.inp_mon [INPUT MONITOR]  WRITE awaddr=0000002c wdata=290aec2e wstrb=1011 
UVM_INFO axi4_lite_out_monitor.sv(28) @ 1455: uvm_test_top.env.pa.out_mon [OUTPUT MONITOR] BRESP = 2 RRESP = 0 RDATA = 00000000
UVM_INFO axi4_lite_driver.sv(34) @ 1455: uvm_test_top.env.aa.drv [DRV] awaddr = 0000002c wdata = 290aec2e wstrb = b araddr = 7f377eb0
UVM_INFO axi4_lite_scoreboard.sv(52) @ 1455: uvm_test_top.env.scb [BRESP] Matched : exp_bresp= 2 actual_bresp=2 write = 1 read = 0
UVM_INFO axi4_lite_subscriber.sv(41) @ 1505: uvm_test_top.env.sb [sb] INPUT COVERAGE = 77.08 %
UVM_INFO axi4_lite_inp_monitor.sv(44) @ 1505: uvm_test_top.env.aa.inp_mon [INPUT MONITOR]  WRITE awaddr=00000018 wdata=b4f92572 wstrb=1001 
UVM_INFO axi4_lite_out_monitor.sv(28) @ 1525: uvm_test_top.env.pa.out_mon [OUTPUT MONITOR] BRESP = 0 RRESP = 0 RDATA = 00000000
UVM_INFO axi4_lite_driver.sv(34) @ 1525: uvm_test_top.env.aa.drv [DRV] awaddr = 00000018 wdata = b4f92572 wstrb = 9 araddr = 170d877c
UVM_INFO axi4_lite_scoreboard.sv(52) @ 1525: uvm_test_top.env.scb [BRESP] Matched : exp_bresp= 0 actual_bresp=0 write = 1 read = 0
UVM_INFO axi4_lite_subscriber.sv(41) @ 1565: uvm_test_top.env.sb [sb] INPUT COVERAGE = 77.08 %
UVM_INFO axi4_lite_inp_monitor.sv(44) @ 1565: uvm_test_top.env.aa.inp_mon [INPUT MONITOR]  WRITE awaddr=00000018 wdata=440a43b3 wstrb=1010 
UVM_INFO axi4_lite_out_monitor.sv(28) @ 1585: uvm_test_top.env.pa.out_mon [OUTPUT MONITOR] BRESP = 0 RRESP = 0 RDATA = 00000000
UVM_INFO axi4_lite_driver.sv(34) @ 1585: uvm_test_top.env.aa.drv [DRV] awaddr = 00000018 wdata = 440a43b3 wstrb = a araddr = 8330c5f4
UVM_INFO axi4_lite_scoreboard.sv(52) @ 1585: uvm_test_top.env.scb [BRESP] Matched : exp_bresp= 0 actual_bresp=0 write = 1 read = 0
UVM_INFO axi4_lite_subscriber.sv(41) @ 1625: uvm_test_top.env.sb [sb] INPUT COVERAGE = 77.08 %
UVM_INFO axi4_lite_inp_monitor.sv(44) @ 1625: uvm_test_top.env.aa.inp_mon [INPUT MONITOR]  WRITE awaddr=0000001c wdata=123b6af6 wstrb=0111 
UVM_INFO axi4_lite_out_monitor.sv(28) @ 1645: uvm_test_top.env.pa.out_mon [OUTPUT MONITOR] BRESP = 0 RRESP = 0 RDATA = 00000000
UVM_INFO axi4_lite_driver.sv(34) @ 1645: uvm_test_top.env.aa.drv [DRV] awaddr = 0000001c wdata = 123b6af6 wstrb = 7 araddr = 51de7028
UVM_INFO axi4_lite_scoreboard.sv(52) @ 1645: uvm_test_top.env.scb [BRESP] Matched : exp_bresp= 0 actual_bresp=0 write = 1 read = 0
UVM_INFO axi4_lite_subscriber.sv(41) @ 1685: uvm_test_top.env.sb [sb] INPUT COVERAGE = 77.08 %
UVM_INFO axi4_lite_inp_monitor.sv(44) @ 1685: uvm_test_top.env.aa.inp_mon [INPUT MONITOR]  WRITE awaddr=00000028 wdata=e5c46706 wstrb=1111 
UVM_INFO axi4_lite_out_monitor.sv(28) @ 1705: uvm_test_top.env.pa.out_mon [OUTPUT MONITOR] BRESP = 2 RRESP = 0 RDATA = 00000000
UVM_INFO axi4_lite_driver.sv(34) @ 1705: uvm_test_top.env.aa.drv [DRV] awaddr = 00000028 wdata = e5c46706 wstrb = f araddr = 36009098
UVM_INFO axi4_lite_scoreboard.sv(52) @ 1705: uvm_test_top.env.scb [BRESP] Matched : exp_bresp= 2 actual_bresp=2 write = 1 read = 0
UVM_INFO axi4_lite_subscriber.sv(41) @ 1755: uvm_test_top.env.sb [sb] INPUT COVERAGE = 77.08 %
UVM_INFO axi4_lite_inp_monitor.sv(44) @ 1755: uvm_test_top.env.aa.inp_mon [INPUT MONITOR]  WRITE awaddr=00000034 wdata=08618d16 wstrb=1110 
UVM_INFO axi4_lite_out_monitor.sv(28) @ 1775: uvm_test_top.env.pa.out_mon [OUTPUT MONITOR] BRESP = 0 RRESP = 0 RDATA = 00000000
UVM_INFO axi4_lite_driver.sv(34) @ 1775: uvm_test_top.env.aa.drv [DRV] awaddr = 00000034 wdata = 08618d16 wstrb = e araddr = 9b5cf680
UVM_INFO axi4_lite_scoreboard.sv(52) @ 1775: uvm_test_top.env.scb [BRESP] Matched : exp_bresp= 0 actual_bresp=0 write = 1 read = 0
UVM_INFO axi4_lite_subscriber.sv(41) @ 1825: uvm_test_top.env.sb [sb] INPUT COVERAGE = 80.21 %
UVM_INFO axi4_lite_inp_monitor.sv(44) @ 1825: uvm_test_top.env.aa.inp_mon [INPUT MONITOR]  WRITE awaddr=00000004 wdata=d822b66c wstrb=0011 
UVM_INFO axi4_lite_out_monitor.sv(28) @ 1845: uvm_test_top.env.pa.out_mon [OUTPUT MONITOR] BRESP = 0 RRESP = 0 RDATA = 00000000
UVM_INFO axi4_lite_driver.sv(34) @ 1845: uvm_test_top.env.aa.drv [DRV] awaddr = 00000004 wdata = d822b66c wstrb = 3 araddr = 5154d548
UVM_INFO axi4_lite_scoreboard.sv(52) @ 1845: uvm_test_top.env.scb [BRESP] Matched : exp_bresp= 0 actual_bresp=0 write = 1 read = 0
UVM_INFO axi4_lite_subscriber.sv(41) @ 1865: uvm_test_top.env.sb [sb] INPUT COVERAGE = 80.21 %
UVM_INFO axi4_lite_inp_monitor.sv(44) @ 1865: uvm_test_top.env.aa.inp_mon [INPUT MONITOR]  WRITE awaddr=00000028 wdata=c3b79725 wstrb=1101 
UVM_INFO axi4_lite_out_monitor.sv(28) @ 1885: uvm_test_top.env.pa.out_mon [OUTPUT MONITOR] BRESP = 2 RRESP = 0 RDATA = 00000000
UVM_INFO axi4_lite_driver.sv(34) @ 1885: uvm_test_top.env.aa.drv [DRV] awaddr = 00000028 wdata = c3b79725 wstrb = d araddr = 354c7bc0
UVM_INFO axi4_lite_scoreboard.sv(52) @ 1885: uvm_test_top.env.scb [BRESP] Matched : exp_bresp= 2 actual_bresp=2 write = 1 read = 0
UVM_INFO axi4_lite_subscriber.sv(41) @ 1935: uvm_test_top.env.sb [sb] INPUT COVERAGE = 80.21 %
UVM_INFO axi4_lite_inp_monitor.sv(44) @ 1935: uvm_test_top.env.aa.inp_mon [INPUT MONITOR]  WRITE awaddr=00000010 wdata=739bea43 wstrb=0101 
UVM_INFO axi4_lite_out_monitor.sv(28) @ 1955: uvm_test_top.env.pa.out_mon [OUTPUT MONITOR] BRESP = 0 RRESP = 0 RDATA = 00000000
UVM_INFO axi4_lite_driver.sv(34) @ 1955: uvm_test_top.env.aa.drv [DRV] awaddr = 00000010 wdata = 739bea43 wstrb = 5 araddr = 6d07f0dc
UVM_INFO axi4_lite_scoreboard.sv(52) @ 1955: uvm_test_top.env.scb [BRESP] Matched : exp_bresp= 0 actual_bresp=0 write = 1 read = 0
UVM_INFO axi4_lite_subscriber.sv(41) @ 1985: uvm_test_top.env.sb [sb] INPUT COVERAGE = 80.21 %
UVM_INFO axi4_lite_inp_monitor.sv(44) @ 1985: uvm_test_top.env.aa.inp_mon [INPUT MONITOR]  WRITE awaddr=0000000c wdata=00188191 wstrb=1000 
UVM_INFO axi4_lite_out_monitor.sv(28) @ 2005: uvm_test_top.env.pa.out_mon [OUTPUT MONITOR] BRESP = 0 RRESP = 0 RDATA = 00000000
UVM_INFO axi4_lite_driver.sv(34) @ 2005: uvm_test_top.env.aa.drv [DRV] awaddr = 0000000c wdata = 00188191 wstrb = 8 araddr = 33a2de20
UVM_INFO axi4_lite_scoreboard.sv(52) @ 2005: uvm_test_top.env.scb [BRESP] Matched : exp_bresp= 0 actual_bresp=0 write = 1 read = 0
UVM_INFO axi4_lite_subscriber.sv(41) @ 2025: uvm_test_top.env.sb [sb] INPUT COVERAGE = 83.33 %
UVM_INFO axi4_lite_inp_monitor.sv(44) @ 2025: uvm_test_top.env.aa.inp_mon [INPUT MONITOR]  WRITE awaddr=00000008 wdata=8037c827 wstrb=0100 
UVM_INFO axi4_lite_out_monitor.sv(28) @ 2045: uvm_test_top.env.pa.out_mon [OUTPUT MONITOR] BRESP = 0 RRESP = 0 RDATA = 00000000
UVM_INFO axi4_lite_driver.sv(34) @ 2045: uvm_test_top.env.aa.drv [DRV] awaddr = 00000008 wdata = 8037c827 wstrb = 4 araddr = 01d10a0c
UVM_INFO axi4_lite_scoreboard.sv(52) @ 2045: uvm_test_top.env.scb [BRESP] Matched : exp_bresp= 0 actual_bresp=0 write = 1 read = 0
UVM_INFO axi4_lite_subscriber.sv(41) @ 2065: uvm_test_top.env.sb [sb] INPUT COVERAGE = 83.33 %
UVM_INFO axi4_lite_inp_monitor.sv(44) @ 2065: uvm_test_top.env.aa.inp_mon [INPUT MONITOR]  WRITE awaddr=00000014 wdata=e015a661 wstrb=1111 
UVM_INFO axi4_lite_out_monitor.sv(28) @ 2085: uvm_test_top.env.pa.out_mon [OUTPUT MONITOR] BRESP = 0 RRESP = 0 RDATA = 00000000
UVM_INFO axi4_lite_driver.sv(34) @ 2085: uvm_test_top.env.aa.drv [DRV] awaddr = 00000014 wdata = e015a661 wstrb = f araddr = d81de21c
UVM_INFO axi4_lite_scoreboard.sv(52) @ 2085: uvm_test_top.env.scb [BRESP] Matched : exp_bresp= 0 actual_bresp=0 write = 1 read = 0
UVM_INFO axi4_lite_subscriber.sv(41) @ 2105: uvm_test_top.env.sb [sb] INPUT COVERAGE = 83.33 %
UVM_INFO axi4_lite_inp_monitor.sv(44) @ 2105: uvm_test_top.env.aa.inp_mon [INPUT MONITOR]  WRITE awaddr=00000020 wdata=95efe4cf wstrb=0111 
UVM_INFO axi4_lite_out_monitor.sv(28) @ 2125: uvm_test_top.env.pa.out_mon [OUTPUT MONITOR] BRESP = 0 RRESP = 0 RDATA = 00000000
UVM_INFO axi4_lite_driver.sv(34) @ 2125: uvm_test_top.env.aa.drv [DRV] awaddr = 00000020 wdata = 95efe4cf wstrb = 7 araddr = ab1a9a34
UVM_INFO axi4_lite_scoreboard.sv(52) @ 2125: uvm_test_top.env.scb [BRESP] Matched : exp_bresp= 0 actual_bresp=0 write = 1 read = 0
UVM_INFO axi4_lite_subscriber.sv(41) @ 2145: uvm_test_top.env.sb [sb] INPUT COVERAGE = 83.33 %
UVM_INFO axi4_lite_inp_monitor.sv(44) @ 2145: uvm_test_top.env.aa.inp_mon [INPUT MONITOR]  WRITE awaddr=00000038 wdata=e5cbea4b wstrb=1000 
UVM_INFO axi4_lite_out_monitor.sv(28) @ 2165: uvm_test_top.env.pa.out_mon [OUTPUT MONITOR] BRESP = 0 RRESP = 0 RDATA = 00000000
UVM_INFO axi4_lite_driver.sv(34) @ 2165: uvm_test_top.env.aa.drv [DRV] awaddr = 00000038 wdata = e5cbea4b wstrb = 8 araddr = 1caa88d0
UVM_INFO axi4_lite_scoreboard.sv(52) @ 2165: uvm_test_top.env.scb [BRESP] Matched : exp_bresp= 0 actual_bresp=0 write = 1 read = 0
UVM_INFO axi4_lite_subscriber.sv(41) @ 2185: uvm_test_top.env.sb [sb] INPUT COVERAGE = 83.33 %
UVM_INFO axi4_lite_inp_monitor.sv(44) @ 2185: uvm_test_top.env.aa.inp_mon [INPUT MONITOR]  WRITE awaddr=00000024 wdata=e33b9f98 wstrb=0111 
UVM_INFO axi4_lite_out_monitor.sv(28) @ 2205: uvm_test_top.env.pa.out_mon [OUTPUT MONITOR] BRESP = 0 RRESP = 0 RDATA = 00000000
UVM_INFO axi4_lite_driver.sv(34) @ 2205: uvm_test_top.env.aa.drv [DRV] awaddr = 00000024 wdata = e33b9f98 wstrb = 7 araddr = 3f261f64
UVM_INFO axi4_lite_scoreboard.sv(52) @ 2205: uvm_test_top.env.scb [BRESP] Matched : exp_bresp= 0 actual_bresp=0 write = 1 read = 0
UVM_INFO axi4_lite_subscriber.sv(41) @ 2255: uvm_test_top.env.sb [sb] INPUT COVERAGE = 83.33 %
UVM_INFO axi4_lite_inp_monitor.sv(44) @ 2255: uvm_test_top.env.aa.inp_mon [INPUT MONITOR]  WRITE awaddr=00000014 wdata=ebe1c717 wstrb=1100 
UVM_INFO axi4_lite_out_monitor.sv(28) @ 2275: uvm_test_top.env.pa.out_mon [OUTPUT MONITOR] BRESP = 0 RRESP = 0 RDATA = 00000000
UVM_INFO axi4_lite_driver.sv(34) @ 2275: uvm_test_top.env.aa.drv [DRV] awaddr = 00000014 wdata = ebe1c717 wstrb = c araddr = bb517c08
UVM_INFO axi4_lite_scoreboard.sv(52) @ 2275: uvm_test_top.env.scb [BRESP] Matched : exp_bresp= 0 actual_bresp=0 write = 1 read = 0
UVM_INFO axi4_lite_subscriber.sv(41) @ 2295: uvm_test_top.env.sb [sb] INPUT COVERAGE = 83.33 %
UVM_INFO axi4_lite_inp_monitor.sv(44) @ 2295: uvm_test_top.env.aa.inp_mon [INPUT MONITOR]  WRITE awaddr=0000000c wdata=95365006 wstrb=1010 
UVM_INFO axi4_lite_out_monitor.sv(28) @ 2315: uvm_test_top.env.pa.out_mon [OUTPUT MONITOR] BRESP = 0 RRESP = 0 RDATA = 00000000
UVM_INFO axi4_lite_driver.sv(34) @ 2315: uvm_test_top.env.aa.drv [DRV] awaddr = 0000000c wdata = 95365006 wstrb = a araddr = 91be1e94
UVM_INFO axi4_lite_scoreboard.sv(52) @ 2315: uvm_test_top.env.scb [BRESP] Matched : exp_bresp= 0 actual_bresp=0 write = 1 read = 0
UVM_INFO axi4_lite_subscriber.sv(41) @ 2355: uvm_test_top.env.sb [sb] INPUT COVERAGE = 83.33 %
UVM_INFO axi4_lite_inp_monitor.sv(44) @ 2355: uvm_test_top.env.aa.inp_mon [INPUT MONITOR]  WRITE awaddr=00000034 wdata=8ce821e5 wstrb=0000 
UVM_INFO axi4_lite_out_monitor.sv(28) @ 2375: uvm_test_top.env.pa.out_mon [OUTPUT MONITOR] BRESP = 0 RRESP = 0 RDATA = 00000000
UVM_INFO axi4_lite_driver.sv(34) @ 2375: uvm_test_top.env.aa.drv [DRV] awaddr = 00000034 wdata = 8ce821e5 wstrb = 0 araddr = 55088830
UVM_INFO axi4_lite_scoreboard.sv(52) @ 2375: uvm_test_top.env.scb [BRESP] Matched : exp_bresp= 0 actual_bresp=0 write = 1 read = 0
UVM_INFO axi4_lite_subscriber.sv(41) @ 2425: uvm_test_top.env.sb [sb] INPUT COVERAGE = 83.33 %
UVM_INFO axi4_lite_inp_monitor.sv(44) @ 2425: uvm_test_top.env.aa.inp_mon [INPUT MONITOR]  WRITE awaddr=00000034 wdata=ebe2749d wstrb=1100 
UVM_INFO axi4_lite_out_monitor.sv(28) @ 2445: uvm_test_top.env.pa.out_mon [OUTPUT MONITOR] BRESP = 0 RRESP = 0 RDATA = 00000000
UVM_INFO axi4_lite_driver.sv(34) @ 2445: uvm_test_top.env.aa.drv [DRV] awaddr = 00000034 wdata = ebe2749d wstrb = c araddr = 14648c34
UVM_INFO axi4_lite_scoreboard.sv(52) @ 2445: uvm_test_top.env.scb [BRESP] Matched : exp_bresp= 0 actual_bresp=0 write = 1 read = 0
UVM_INFO axi4_lite_subscriber.sv(41) @ 2495: uvm_test_top.env.sb [sb] INPUT COVERAGE = 83.33 %
UVM_INFO axi4_lite_inp_monitor.sv(44) @ 2495: uvm_test_top.env.aa.inp_mon [INPUT MONITOR]  WRITE awaddr=00000028 wdata=98770784 wstrb=0010 
UVM_INFO axi4_lite_out_monitor.sv(28) @ 2515: uvm_test_top.env.pa.out_mon [OUTPUT MONITOR] BRESP = 2 RRESP = 0 RDATA = 00000000
UVM_INFO axi4_lite_driver.sv(34) @ 2515: uvm_test_top.env.aa.drv [DRV] awaddr = 00000028 wdata = 98770784 wstrb = 2 araddr = c6df42f0
UVM_INFO axi4_lite_scoreboard.sv(52) @ 2515: uvm_test_top.env.scb [BRESP] Matched : exp_bresp= 2 actual_bresp=2 write = 1 read = 0
UVM_INFO axi4_lite_subscriber.sv(41) @ 2565: uvm_test_top.env.sb [sb] INPUT COVERAGE = 83.33 %
UVM_INFO axi4_lite_inp_monitor.sv(44) @ 2565: uvm_test_top.env.aa.inp_mon [INPUT MONITOR]  WRITE awaddr=00000028 wdata=b2c4f440 wstrb=1001 
UVM_INFO axi4_lite_out_monitor.sv(28) @ 2585: uvm_test_top.env.pa.out_mon [OUTPUT MONITOR] BRESP = 2 RRESP = 0 RDATA = 00000000
UVM_INFO axi4_lite_driver.sv(34) @ 2585: uvm_test_top.env.aa.drv [DRV] awaddr = 00000028 wdata = b2c4f440 wstrb = 9 araddr = e9bbcce0
UVM_INFO axi4_lite_scoreboard.sv(52) @ 2585: uvm_test_top.env.scb [BRESP] Matched : exp_bresp= 2 actual_bresp=2 write = 1 read = 0
UVM_INFO axi4_lite_subscriber.sv(41) @ 2635: uvm_test_top.env.sb [sb] INPUT COVERAGE = 83.33 %
UVM_INFO axi4_lite_inp_monitor.sv(44) @ 2635: uvm_test_top.env.aa.inp_mon [INPUT MONITOR]  WRITE awaddr=00000024 wdata=00c567bf wstrb=1100 
UVM_INFO axi4_lite_out_monitor.sv(28) @ 2655: uvm_test_top.env.pa.out_mon [OUTPUT MONITOR] BRESP = 0 RRESP = 0 RDATA = 00000000
UVM_INFO axi4_lite_driver.sv(34) @ 2655: uvm_test_top.env.aa.drv [DRV] awaddr = 00000024 wdata = 00c567bf wstrb = c araddr = 3d5b844c
UVM_INFO axi4_lite_scoreboard.sv(52) @ 2655: uvm_test_top.env.scb [BRESP] Matched : exp_bresp= 0 actual_bresp=0 write = 1 read = 0
UVM_INFO axi4_lite_subscriber.sv(41) @ 2705: uvm_test_top.env.sb [sb] INPUT COVERAGE = 83.33 %
UVM_INFO axi4_lite_inp_monitor.sv(44) @ 2705: uvm_test_top.env.aa.inp_mon [INPUT MONITOR]  WRITE awaddr=00000038 wdata=7c81930d wstrb=1101 
UVM_INFO axi4_lite_out_monitor.sv(28) @ 2725: uvm_test_top.env.pa.out_mon [OUTPUT MONITOR] BRESP = 0 RRESP = 0 RDATA = 00000000
UVM_INFO axi4_lite_driver.sv(34) @ 2725: uvm_test_top.env.aa.drv [DRV] awaddr = 00000038 wdata = 7c81930d wstrb = d araddr = 49349fe4
UVM_INFO axi4_lite_scoreboard.sv(52) @ 2725: uvm_test_top.env.scb [BRESP] Matched : exp_bresp= 0 actual_bresp=0 write = 1 read = 0
UVM_INFO axi4_lite_subscriber.sv(41) @ 2755: uvm_test_top.env.sb [sb] INPUT COVERAGE = 83.33 %
UVM_INFO axi4_lite_inp_monitor.sv(44) @ 2755: uvm_test_top.env.aa.inp_mon [INPUT MONITOR]  WRITE awaddr=00000010 wdata=8de17e88 wstrb=1101 
UVM_INFO axi4_lite_out_monitor.sv(28) @ 2775: uvm_test_top.env.pa.out_mon [OUTPUT MONITOR] BRESP = 0 RRESP = 0 RDATA = 00000000
UVM_INFO axi4_lite_driver.sv(34) @ 2775: uvm_test_top.env.aa.drv [DRV] awaddr = 00000010 wdata = 8de17e88 wstrb = d araddr = 724884dc
UVM_INFO axi4_lite_scoreboard.sv(52) @ 2775: uvm_test_top.env.scb [BRESP] Matched : exp_bresp= 0 actual_bresp=0 write = 1 read = 0
UVM_INFO axi4_lite_subscriber.sv(41) @ 2815: uvm_test_top.env.sb [sb] INPUT COVERAGE = 83.33 %
UVM_INFO axi4_lite_inp_monitor.sv(44) @ 2815: uvm_test_top.env.aa.inp_mon [INPUT MONITOR]  WRITE awaddr=00000020 wdata=be416c24 wstrb=1101 
UVM_INFO axi4_lite_out_monitor.sv(28) @ 2835: uvm_test_top.env.pa.out_mon [OUTPUT MONITOR] BRESP = 0 RRESP = 0 RDATA = 00000000
UVM_INFO axi4_lite_driver.sv(34) @ 2835: uvm_test_top.env.aa.drv [DRV] awaddr = 00000020 wdata = be416c24 wstrb = d araddr = 3752c8f0
UVM_INFO axi4_lite_scoreboard.sv(52) @ 2835: uvm_test_top.env.scb [BRESP] Matched : exp_bresp= 0 actual_bresp=0 write = 1 read = 0
UVM_INFO axi4_lite_subscriber.sv(41) @ 2885: uvm_test_top.env.sb [sb] INPUT COVERAGE = 83.33 %
UVM_INFO axi4_lite_inp_monitor.sv(44) @ 2885: uvm_test_top.env.aa.inp_mon [INPUT MONITOR]  WRITE awaddr=00000038 wdata=627ff4f2 wstrb=0111 
UVM_INFO axi4_lite_out_monitor.sv(28) @ 2905: uvm_test_top.env.pa.out_mon [OUTPUT MONITOR] BRESP = 0 RRESP = 0 RDATA = 00000000
UVM_INFO axi4_lite_driver.sv(34) @ 2905: uvm_test_top.env.aa.drv [DRV] awaddr = 00000038 wdata = 627ff4f2 wstrb = 7 araddr = e2ff49d8
UVM_INFO axi4_lite_scoreboard.sv(52) @ 2905: uvm_test_top.env.scb [BRESP] Matched : exp_bresp= 0 actual_bresp=0 write = 1 read = 0
UVM_INFO axi4_lite_subscriber.sv(41) @ 2945: uvm_test_top.env.sb [sb] INPUT COVERAGE = 83.33 %
UVM_INFO axi4_lite_inp_monitor.sv(44) @ 2945: uvm_test_top.env.aa.inp_mon [INPUT MONITOR]  WRITE awaddr=0000002c wdata=089bc5f1 wstrb=1000 
UVM_INFO axi4_lite_out_monitor.sv(28) @ 2965: uvm_test_top.env.pa.out_mon [OUTPUT MONITOR] BRESP = 2 RRESP = 0 RDATA = 00000000
UVM_INFO axi4_lite_driver.sv(34) @ 2965: uvm_test_top.env.aa.drv [DRV] awaddr = 0000002c wdata = 089bc5f1 wstrb = 8 araddr = 6fdb05dc
UVM_INFO axi4_lite_scoreboard.sv(52) @ 2965: uvm_test_top.env.scb [BRESP] Matched : exp_bresp= 2 actual_bresp=2 write = 1 read = 0
UVM_INFO axi4_lite_subscriber.sv(41) @ 2995: uvm_test_top.env.sb [sb] INPUT COVERAGE = 83.33 %
UVM_INFO axi4_lite_inp_monitor.sv(44) @ 2995: uvm_test_top.env.aa.inp_mon [INPUT MONITOR]  WRITE awaddr=00000008 wdata=d0ea5c53 wstrb=1010 
UVM_INFO axi4_lite_out_monitor.sv(28) @ 3015: uvm_test_top.env.pa.out_mon [OUTPUT MONITOR] BRESP = 0 RRESP = 0 RDATA = 00000000
UVM_INFO axi4_lite_driver.sv(34) @ 3015: uvm_test_top.env.aa.drv [DRV] awaddr = 00000008 wdata = d0ea5c53 wstrb = a araddr = 1dba5b8c
UVM_INFO axi4_lite_scoreboard.sv(52) @ 3015: uvm_test_top.env.scb [BRESP] Matched : exp_bresp= 0 actual_bresp=0 write = 1 read = 0
UVM_INFO axi4_lite_subscriber.sv(41) @ 3035: uvm_test_top.env.sb [sb] INPUT COVERAGE = 83.33 %
UVM_INFO axi4_lite_inp_monitor.sv(44) @ 3035: uvm_test_top.env.aa.inp_mon [INPUT MONITOR]  WRITE awaddr=00000010 wdata=7045c07b wstrb=1011 
UVM_INFO axi4_lite_out_monitor.sv(28) @ 3055: uvm_test_top.env.pa.out_mon [OUTPUT MONITOR] BRESP = 0 RRESP = 0 RDATA = 00000000
UVM_INFO axi4_lite_driver.sv(34) @ 3055: uvm_test_top.env.aa.drv [DRV] awaddr = 00000010 wdata = 7045c07b wstrb = b araddr = 9e89ad64
UVM_INFO axi4_lite_scoreboard.sv(52) @ 3055: uvm_test_top.env.scb [BRESP] Matched : exp_bresp= 0 actual_bresp=0 write = 1 read = 0
UVM_INFO axi4_lite_subscriber.sv(41) @ 3075: uvm_test_top.env.sb [sb] INPUT COVERAGE = 83.33 %
UVM_INFO axi4_lite_inp_monitor.sv(44) @ 3075: uvm_test_top.env.aa.inp_mon [INPUT MONITOR]  WRITE awaddr=00000018 wdata=4860b8af wstrb=1000 
UVM_INFO axi4_lite_out_monitor.sv(28) @ 3095: uvm_test_top.env.pa.out_mon [OUTPUT MONITOR] BRESP = 0 RRESP = 0 RDATA = 00000000
UVM_INFO axi4_lite_driver.sv(34) @ 3095: uvm_test_top.env.aa.drv [DRV] awaddr = 00000018 wdata = 4860b8af wstrb = 8 araddr = 94feb1b8
UVM_INFO axi4_lite_scoreboard.sv(52) @ 3095: uvm_test_top.env.scb [BRESP] Matched : exp_bresp= 0 actual_bresp=0 write = 1 read = 0
UVM_INFO axi4_lite_subscriber.sv(41) @ 3125: uvm_test_top.env.sb [sb] INPUT COVERAGE = 83.33 %
UVM_INFO axi4_lite_inp_monitor.sv(44) @ 3125: uvm_test_top.env.aa.inp_mon [INPUT MONITOR]  WRITE awaddr=00000018 wdata=4cc57b62 wstrb=1010 
UVM_INFO axi4_lite_out_monitor.sv(28) @ 3145: uvm_test_top.env.pa.out_mon [OUTPUT MONITOR] BRESP = 0 RRESP = 0 RDATA = 00000000
UVM_INFO axi4_lite_driver.sv(34) @ 3145: uvm_test_top.env.aa.drv [DRV] awaddr = 00000018 wdata = 4cc57b62 wstrb = a araddr = b3d9ee6c
UVM_INFO axi4_lite_scoreboard.sv(52) @ 3145: uvm_test_top.env.scb [BRESP] Matched : exp_bresp= 0 actual_bresp=0 write = 1 read = 0
UVM_INFO axi4_lite_subscriber.sv(41) @ 3195: uvm_test_top.env.sb [sb] INPUT COVERAGE = 83.33 %
UVM_INFO axi4_lite_inp_monitor.sv(44) @ 3195: uvm_test_top.env.aa.inp_mon [INPUT MONITOR]  WRITE awaddr=00000018 wdata=289b2cfe wstrb=0100 
UVM_INFO axi4_lite_out_monitor.sv(28) @ 3215: uvm_test_top.env.pa.out_mon [OUTPUT MONITOR] BRESP = 0 RRESP = 0 RDATA = 00000000
UVM_INFO axi4_lite_driver.sv(34) @ 3215: uvm_test_top.env.aa.drv [DRV] awaddr = 00000018 wdata = 289b2cfe wstrb = 4 araddr = e40b485c
UVM_INFO axi4_lite_scoreboard.sv(52) @ 3215: uvm_test_top.env.scb [BRESP] Matched : exp_bresp= 0 actual_bresp=0 write = 1 read = 0
UVM_INFO axi4_lite_subscriber.sv(41) @ 3235: uvm_test_top.env.sb [sb] INPUT COVERAGE = 83.33 %
UVM_INFO axi4_lite_inp_monitor.sv(44) @ 3235: uvm_test_top.env.aa.inp_mon [INPUT MONITOR]  WRITE awaddr=00000010 wdata=6b73bc0a wstrb=1110 
UVM_INFO axi4_lite_out_monitor.sv(28) @ 3255: uvm_test_top.env.pa.out_mon [OUTPUT MONITOR] BRESP = 0 RRESP = 0 RDATA = 00000000
UVM_INFO axi4_lite_driver.sv(34) @ 3255: uvm_test_top.env.aa.drv [DRV] awaddr = 00000010 wdata = 6b73bc0a wstrb = e araddr = 08a776cc
UVM_INFO axi4_lite_scoreboard.sv(52) @ 3255: uvm_test_top.env.scb [BRESP] Matched : exp_bresp= 0 actual_bresp=0 write = 1 read = 0
UVM_INFO axi4_lite_subscriber.sv(41) @ 3275: uvm_test_top.env.sb [sb] INPUT COVERAGE = 83.33 %
UVM_INFO axi4_lite_inp_monitor.sv(44) @ 3275: uvm_test_top.env.aa.inp_mon [INPUT MONITOR]  WRITE awaddr=00000024 wdata=15fbca83 wstrb=0100 
UVM_INFO axi4_lite_out_monitor.sv(28) @ 3295: uvm_test_top.env.pa.out_mon [OUTPUT MONITOR] BRESP = 0 RRESP = 0 RDATA = 00000000
UVM_INFO axi4_lite_driver.sv(34) @ 3295: uvm_test_top.env.aa.drv [DRV] awaddr = 00000024 wdata = 15fbca83 wstrb = 4 araddr = 117373c4
UVM_INFO axi4_lite_scoreboard.sv(52) @ 3295: uvm_test_top.env.scb [BRESP] Matched : exp_bresp= 0 actual_bresp=0 write = 1 read = 0
UVM_INFO axi4_lite_subscriber.sv(41) @ 3325: uvm_test_top.env.sb [sb] INPUT COVERAGE = 83.33 %
UVM_INFO axi4_lite_inp_monitor.sv(44) @ 3325: uvm_test_top.env.aa.inp_mon [INPUT MONITOR]  WRITE awaddr=00000028 wdata=59984c0f wstrb=0110 
UVM_INFO axi4_lite_out_monitor.sv(28) @ 3345: uvm_test_top.env.pa.out_mon [OUTPUT MONITOR] BRESP = 2 RRESP = 0 RDATA = 00000000
UVM_INFO axi4_lite_driver.sv(34) @ 3345: uvm_test_top.env.aa.drv [DRV] awaddr = 00000028 wdata = 59984c0f wstrb = 6 araddr = 90ca9634
UVM_INFO axi4_lite_scoreboard.sv(52) @ 3345: uvm_test_top.env.scb [BRESP] Matched : exp_bresp= 2 actual_bresp=2 write = 1 read = 0
UVM_INFO axi4_lite_subscriber.sv(41) @ 3395: uvm_test_top.env.sb [sb] INPUT COVERAGE = 83.33 %
UVM_INFO axi4_lite_inp_monitor.sv(44) @ 3395: uvm_test_top.env.aa.inp_mon [INPUT MONITOR]  WRITE awaddr=00000020 wdata=287fdbd6 wstrb=0100 
UVM_INFO axi4_lite_out_monitor.sv(28) @ 3415: uvm_test_top.env.pa.out_mon [OUTPUT MONITOR] BRESP = 0 RRESP = 0 RDATA = 00000000
UVM_INFO axi4_lite_driver.sv(34) @ 3415: uvm_test_top.env.aa.drv [DRV] awaddr = 00000020 wdata = 287fdbd6 wstrb = 4 araddr = 61d8bc6c
UVM_INFO axi4_lite_scoreboard.sv(52) @ 3415: uvm_test_top.env.scb [BRESP] Matched : exp_bresp= 0 actual_bresp=0 write = 1 read = 0
UVM_INFO axi4_lite_subscriber.sv(41) @ 3465: uvm_test_top.env.sb [sb] INPUT COVERAGE = 83.33 %
UVM_INFO axi4_lite_inp_monitor.sv(44) @ 3465: uvm_test_top.env.aa.inp_mon [INPUT MONITOR]  WRITE awaddr=00000014 wdata=d7b8ff4b wstrb=0100 
UVM_INFO axi4_lite_out_monitor.sv(28) @ 3485: uvm_test_top.env.pa.out_mon [OUTPUT MONITOR] BRESP = 0 RRESP = 0 RDATA = 00000000
UVM_INFO axi4_lite_driver.sv(34) @ 3485: uvm_test_top.env.aa.drv [DRV] awaddr = 00000014 wdata = d7b8ff4b wstrb = 4 araddr = 8a2800c0
UVM_INFO axi4_lite_scoreboard.sv(52) @ 3485: uvm_test_top.env.scb [BRESP] Matched : exp_bresp= 0 actual_bresp=0 write = 1 read = 0
UVM_INFO axi4_lite_subscriber.sv(41) @ 3515: uvm_test_top.env.sb [sb] INPUT COVERAGE = 83.33 %
UVM_INFO axi4_lite_inp_monitor.sv(44) @ 3515: uvm_test_top.env.aa.inp_mon [INPUT MONITOR]  WRITE awaddr=00000010 wdata=14493410 wstrb=0010 
UVM_INFO axi4_lite_out_monitor.sv(28) @ 3535: uvm_test_top.env.pa.out_mon [OUTPUT MONITOR] BRESP = 0 RRESP = 0 RDATA = 00000000
UVM_INFO axi4_lite_driver.sv(34) @ 3535: uvm_test_top.env.aa.drv [DRV] awaddr = 00000010 wdata = 14493410 wstrb = 2 araddr = 5e33b170
UVM_INFO axi4_lite_scoreboard.sv(52) @ 3535: uvm_test_top.env.scb [BRESP] Matched : exp_bresp= 0 actual_bresp=0 write = 1 read = 0
UVM_INFO axi4_lite_subscriber.sv(41) @ 3585: uvm_test_top.env.sb [sb] INPUT COVERAGE = 83.33 %
UVM_INFO axi4_lite_inp_monitor.sv(44) @ 3585: uvm_test_top.env.aa.inp_mon [INPUT MONITOR]  WRITE awaddr=00000000 wdata=61f5cc93 wstrb=1001 
UVM_INFO axi4_lite_out_monitor.sv(28) @ 3605: uvm_test_top.env.pa.out_mon [OUTPUT MONITOR] BRESP = 0 RRESP = 0 RDATA = 00000000
UVM_INFO axi4_lite_driver.sv(34) @ 3605: uvm_test_top.env.aa.drv [DRV] awaddr = 00000000 wdata = 61f5cc93 wstrb = 9 araddr = 09ace9a4
UVM_INFO axi4_lite_scoreboard.sv(52) @ 3605: uvm_test_top.env.scb [BRESP] Matched : exp_bresp= 0 actual_bresp=0 write = 1 read = 0
UVM_INFO axi4_lite_subscriber.sv(41) @ 3645: uvm_test_top.env.sb [sb] INPUT COVERAGE = 83.33 %
UVM_INFO axi4_lite_inp_monitor.sv(44) @ 3645: uvm_test_top.env.aa.inp_mon [INPUT MONITOR]  WRITE awaddr=0000000c wdata=a3fb81f9 wstrb=0011 
UVM_INFO axi4_lite_out_monitor.sv(28) @ 3665: uvm_test_top.env.pa.out_mon [OUTPUT MONITOR] BRESP = 0 RRESP = 0 RDATA = 00000000
UVM_INFO axi4_lite_driver.sv(34) @ 3665: uvm_test_top.env.aa.drv [DRV] awaddr = 0000000c wdata = a3fb81f9 wstrb = 3 araddr = 77537be0
UVM_INFO axi4_lite_scoreboard.sv(52) @ 3665: uvm_test_top.env.scb [BRESP] Matched : exp_bresp= 0 actual_bresp=0 write = 1 read = 0
UVM_INFO axi4_lite_subscriber.sv(41) @ 3685: uvm_test_top.env.sb [sb] INPUT COVERAGE = 83.33 %
UVM_INFO axi4_lite_inp_monitor.sv(44) @ 3685: uvm_test_top.env.aa.inp_mon [INPUT MONITOR]  WRITE awaddr=00000010 wdata=17cbe242 wstrb=1010 
UVM_INFO axi4_lite_out_monitor.sv(28) @ 3705: uvm_test_top.env.pa.out_mon [OUTPUT MONITOR] BRESP = 0 RRESP = 0 RDATA = 00000000
UVM_INFO axi4_lite_driver.sv(34) @ 3705: uvm_test_top.env.aa.drv [DRV] awaddr = 00000010 wdata = 17cbe242 wstrb = a araddr = b60cdc88
UVM_INFO axi4_lite_scoreboard.sv(52) @ 3705: uvm_test_top.env.scb [BRESP] Matched : exp_bresp= 0 actual_bresp=0 write = 1 read = 0
UVM_INFO axi4_lite_subscriber.sv(41) @ 3745: uvm_test_top.env.sb [sb] INPUT COVERAGE = 83.33 %
UVM_INFO axi4_lite_inp_monitor.sv(44) @ 3745: uvm_test_top.env.aa.inp_mon [INPUT MONITOR]  WRITE awaddr=00000030 wdata=0a5ebb1a wstrb=1000 
UVM_INFO axi4_lite_out_monitor.sv(28) @ 3765: uvm_test_top.env.pa.out_mon [OUTPUT MONITOR] BRESP = 2 RRESP = 0 RDATA = 00000000
UVM_INFO axi4_lite_driver.sv(34) @ 3765: uvm_test_top.env.aa.drv [DRV] awaddr = 00000030 wdata = 0a5ebb1a wstrb = 8 araddr = a57507fc
UVM_INFO axi4_lite_scoreboard.sv(52) @ 3765: uvm_test_top.env.scb [BRESP] Matched : exp_bresp= 2 actual_bresp=2 write = 1 read = 0
UVM_INFO axi4_lite_subscriber.sv(41) @ 3785: uvm_test_top.env.sb [sb] INPUT COVERAGE = 83.33 %
UVM_INFO axi4_lite_inp_monitor.sv(44) @ 3785: uvm_test_top.env.aa.inp_mon [INPUT MONITOR]  WRITE awaddr=00000020 wdata=c5f2b51b wstrb=0110 
UVM_INFO axi4_lite_out_monitor.sv(28) @ 3805: uvm_test_top.env.pa.out_mon [OUTPUT MONITOR] BRESP = 0 RRESP = 0 RDATA = 00000000
UVM_INFO axi4_lite_driver.sv(34) @ 3805: uvm_test_top.env.aa.drv [DRV] awaddr = 00000020 wdata = c5f2b51b wstrb = 6 araddr = 8ae66b8c
UVM_INFO axi4_lite_scoreboard.sv(52) @ 3805: uvm_test_top.env.scb [BRESP] Matched : exp_bresp= 0 actual_bresp=0 write = 1 read = 0
UVM_INFO axi4_lite_subscriber.sv(41) @ 3845: uvm_test_top.env.sb [sb] INPUT COVERAGE = 83.33 %
UVM_INFO axi4_lite_inp_monitor.sv(44) @ 3845: uvm_test_top.env.aa.inp_mon [INPUT MONITOR]  WRITE awaddr=00000008 wdata=53cf6a8c wstrb=0011 
UVM_INFO axi4_lite_out_monitor.sv(28) @ 3865: uvm_test_top.env.pa.out_mon [OUTPUT MONITOR] BRESP = 0 RRESP = 0 RDATA = 00000000
UVM_INFO axi4_lite_driver.sv(34) @ 3865: uvm_test_top.env.aa.drv [DRV] awaddr = 00000008 wdata = 53cf6a8c wstrb = 3 araddr = 8183b354
UVM_INFO axi4_lite_scoreboard.sv(52) @ 3865: uvm_test_top.env.scb [BRESP] Matched : exp_bresp= 0 actual_bresp=0 write = 1 read = 0
UVM_INFO axi4_lite_subscriber.sv(41) @ 3895: uvm_test_top.env.sb [sb] INPUT COVERAGE = 83.33 %
UVM_INFO axi4_lite_inp_monitor.sv(44) @ 3895: uvm_test_top.env.aa.inp_mon [INPUT MONITOR]  WRITE awaddr=0000002c wdata=806d7e78 wstrb=1101 
UVM_INFO axi4_lite_out_monitor.sv(28) @ 3915: uvm_test_top.env.pa.out_mon [OUTPUT MONITOR] BRESP = 2 RRESP = 0 RDATA = 00000000
UVM_INFO axi4_lite_driver.sv(34) @ 3915: uvm_test_top.env.aa.drv [DRV] awaddr = 0000002c wdata = 806d7e78 wstrb = d araddr = 359d83b0
UVM_INFO axi4_lite_scoreboard.sv(52) @ 3915: uvm_test_top.env.scb [BRESP] Matched : exp_bresp= 2 actual_bresp=2 write = 1 read = 0
UVM_INFO axi4_lite_subscriber.sv(41) @ 3965: uvm_test_top.env.sb [sb] INPUT COVERAGE = 83.33 %
UVM_INFO axi4_lite_inp_monitor.sv(44) @ 3965: uvm_test_top.env.aa.inp_mon [INPUT MONITOR]  WRITE awaddr=00000034 wdata=081f0808 wstrb=0110 
UVM_INFO axi4_lite_out_monitor.sv(28) @ 3985: uvm_test_top.env.pa.out_mon [OUTPUT MONITOR] BRESP = 0 RRESP = 0 RDATA = 00000000
UVM_INFO axi4_lite_driver.sv(34) @ 3985: uvm_test_top.env.aa.drv [DRV] awaddr = 00000034 wdata = 081f0808 wstrb = 6 araddr = e1395d98
UVM_INFO axi4_lite_scoreboard.sv(52) @ 3985: uvm_test_top.env.scb [BRESP] Matched : exp_bresp= 0 actual_bresp=0 write = 1 read = 0
UVM_INFO axi4_lite_subscriber.sv(41) @ 4005: uvm_test_top.env.sb [sb] INPUT COVERAGE = 83.33 %
UVM_INFO axi4_lite_inp_monitor.sv(44) @ 4005: uvm_test_top.env.aa.inp_mon [INPUT MONITOR]  WRITE awaddr=00000020 wdata=b722a4cd wstrb=0111 
UVM_INFO axi4_lite_out_monitor.sv(28) @ 4025: uvm_test_top.env.pa.out_mon [OUTPUT MONITOR] BRESP = 0 RRESP = 0 RDATA = 00000000
UVM_INFO axi4_lite_driver.sv(34) @ 4025: uvm_test_top.env.aa.drv [DRV] awaddr = 00000020 wdata = b722a4cd wstrb = 7 araddr = 9dda8e88
UVM_INFO axi4_lite_scoreboard.sv(52) @ 4025: uvm_test_top.env.scb [BRESP] Matched : exp_bresp= 0 actual_bresp=0 write = 1 read = 0
UVM_INFO axi4_lite_subscriber.sv(41) @ 4075: uvm_test_top.env.sb [sb] INPUT COVERAGE = 83.33 %
UVM_INFO axi4_lite_inp_monitor.sv(44) @ 4075: uvm_test_top.env.aa.inp_mon [INPUT MONITOR]  WRITE awaddr=00000034 wdata=4077e8bf wstrb=1111 
UVM_INFO axi4_lite_out_monitor.sv(28) @ 4095: uvm_test_top.env.pa.out_mon [OUTPUT MONITOR] BRESP = 0 RRESP = 0 RDATA = 00000000
UVM_INFO axi4_lite_driver.sv(34) @ 4095: uvm_test_top.env.aa.drv [DRV] awaddr = 00000034 wdata = 4077e8bf wstrb = f araddr = 4850438c
UVM_INFO axi4_lite_scoreboard.sv(52) @ 4095: uvm_test_top.env.scb [BRESP] Matched : exp_bresp= 0 actual_bresp=0 write = 1 read = 0
UVM_INFO axi4_lite_subscriber.sv(41) @ 4145: uvm_test_top.env.sb [sb] INPUT COVERAGE = 83.33 %
UVM_INFO axi4_lite_inp_monitor.sv(44) @ 4145: uvm_test_top.env.aa.inp_mon [INPUT MONITOR]  WRITE awaddr=0000001c wdata=d95bf93c wstrb=0110 
UVM_INFO axi4_lite_out_monitor.sv(28) @ 4165: uvm_test_top.env.pa.out_mon [OUTPUT MONITOR] BRESP = 0 RRESP = 0 RDATA = 00000000
UVM_INFO axi4_lite_driver.sv(34) @ 4165: uvm_test_top.env.aa.drv [DRV] awaddr = 0000001c wdata = d95bf93c wstrb = 6 araddr = 65616b2c
UVM_INFO axi4_lite_scoreboard.sv(52) @ 4165: uvm_test_top.env.scb [BRESP] Matched : exp_bresp= 0 actual_bresp=0 write = 1 read = 0
UVM_INFO axi4_lite_subscriber.sv(41) @ 4185: uvm_test_top.env.sb [sb] INPUT COVERAGE = 83.33 %
UVM_INFO axi4_lite_inp_monitor.sv(44) @ 4185: uvm_test_top.env.aa.inp_mon [INPUT MONITOR]  WRITE awaddr=00000018 wdata=c4dfbfb0 wstrb=1000 
UVM_INFO axi4_lite_out_monitor.sv(28) @ 4205: uvm_test_top.env.pa.out_mon [OUTPUT MONITOR] BRESP = 0 RRESP = 0 RDATA = 00000000
UVM_INFO axi4_lite_driver.sv(34) @ 4205: uvm_test_top.env.aa.drv [DRV] awaddr = 00000018 wdata = c4dfbfb0 wstrb = 8 araddr = 8bac73e8
UVM_INFO axi4_lite_scoreboard.sv(52) @ 4205: uvm_test_top.env.scb [BRESP] Matched : exp_bresp= 0 actual_bresp=0 write = 1 read = 0
UVM_INFO axi4_lite_subscriber.sv(41) @ 4255: uvm_test_top.env.sb [sb] INPUT COVERAGE = 83.33 %
UVM_INFO axi4_lite_inp_monitor.sv(44) @ 4255: uvm_test_top.env.aa.inp_mon [INPUT MONITOR]  WRITE awaddr=00000024 wdata=ab5b82be wstrb=0101 
UVM_INFO axi4_lite_out_monitor.sv(28) @ 4275: uvm_test_top.env.pa.out_mon [OUTPUT MONITOR] BRESP = 0 RRESP = 0 RDATA = 00000000
UVM_INFO axi4_lite_driver.sv(34) @ 4275: uvm_test_top.env.aa.drv [DRV] awaddr = 00000024 wdata = ab5b82be wstrb = 5 araddr = 6ca4ffec
UVM_INFO axi4_lite_scoreboard.sv(52) @ 4275: uvm_test_top.env.scb [BRESP] Matched : exp_bresp= 0 actual_bresp=0 write = 1 read = 0
UVM_INFO axi4_lite_subscriber.sv(41) @ 4305: uvm_test_top.env.sb [sb] INPUT COVERAGE = 83.33 %
UVM_INFO axi4_lite_inp_monitor.sv(44) @ 4305: uvm_test_top.env.aa.inp_mon [INPUT MONITOR]  WRITE awaddr=00000018 wdata=08cfdf17 wstrb=0110 
UVM_INFO axi4_lite_out_monitor.sv(28) @ 4325: uvm_test_top.env.pa.out_mon [OUTPUT MONITOR] BRESP = 0 RRESP = 0 RDATA = 00000000
UVM_INFO axi4_lite_driver.sv(34) @ 4325: uvm_test_top.env.aa.drv [DRV] awaddr = 00000018 wdata = 08cfdf17 wstrb = 6 araddr = 41b25124
UVM_INFO axi4_lite_scoreboard.sv(52) @ 4325: uvm_test_top.env.scb [BRESP] Matched : exp_bresp= 0 actual_bresp=0 write = 1 read = 0
UVM_INFO axi4_lite_subscriber.sv(41) @ 4375: uvm_test_top.env.sb [sb] INPUT COVERAGE = 83.33 %
UVM_INFO axi4_lite_inp_monitor.sv(44) @ 4375: uvm_test_top.env.aa.inp_mon [INPUT MONITOR]  WRITE awaddr=00000010 wdata=caf933d0 wstrb=0110 
UVM_INFO axi4_lite_out_monitor.sv(28) @ 4395: uvm_test_top.env.pa.out_mon [OUTPUT MONITOR] BRESP = 0 RRESP = 0 RDATA = 00000000
UVM_INFO axi4_lite_driver.sv(34) @ 4395: uvm_test_top.env.aa.drv [DRV] awaddr = 00000010 wdata = caf933d0 wstrb = 6 araddr = ff7e5b70
UVM_INFO axi4_lite_scoreboard.sv(52) @ 4395: uvm_test_top.env.scb [BRESP] Matched : exp_bresp= 0 actual_bresp=0 write = 1 read = 0
UVM_INFO axi4_lite_subscriber.sv(41) @ 4445: uvm_test_top.env.sb [sb] INPUT COVERAGE = 83.33 %
UVM_INFO axi4_lite_inp_monitor.sv(44) @ 4445: uvm_test_top.env.aa.inp_mon [INPUT MONITOR]  WRITE awaddr=00000004 wdata=742bff84 wstrb=1101 
UVM_INFO axi4_lite_out_monitor.sv(28) @ 4465: uvm_test_top.env.pa.out_mon [OUTPUT MONITOR] BRESP = 0 RRESP = 0 RDATA = 00000000
UVM_INFO axi4_lite_driver.sv(34) @ 4465: uvm_test_top.env.aa.drv [DRV] awaddr = 00000004 wdata = 742bff84 wstrb = d araddr = d3fb8318
UVM_INFO axi4_lite_scoreboard.sv(52) @ 4465: uvm_test_top.env.scb [BRESP] Matched : exp_bresp= 0 actual_bresp=0 write = 1 read = 0
UVM_INFO axi4_lite_subscriber.sv(41) @ 4505: uvm_test_top.env.sb [sb] INPUT COVERAGE = 83.33 %
UVM_INFO axi4_lite_inp_monitor.sv(44) @ 4505: uvm_test_top.env.aa.inp_mon [INPUT MONITOR]  WRITE awaddr=00000024 wdata=944e44a6 wstrb=1111 
UVM_INFO axi4_lite_out_monitor.sv(28) @ 4525: uvm_test_top.env.pa.out_mon [OUTPUT MONITOR] BRESP = 0 RRESP = 0 RDATA = 00000000
UVM_INFO axi4_lite_driver.sv(34) @ 4525: uvm_test_top.env.aa.drv [DRV] awaddr = 00000024 wdata = 944e44a6 wstrb = f araddr = 85df47dc
UVM_INFO axi4_lite_scoreboard.sv(52) @ 4525: uvm_test_top.env.scb [BRESP] Matched : exp_bresp= 0 actual_bresp=0 write = 1 read = 0
UVM_INFO axi4_lite_subscriber.sv(41) @ 4545: uvm_test_top.env.sb [sb] INPUT COVERAGE = 83.33 %
UVM_INFO axi4_lite_inp_monitor.sv(44) @ 4545: uvm_test_top.env.aa.inp_mon [INPUT MONITOR]  WRITE awaddr=00000004 wdata=6fc82174 wstrb=1000 
UVM_INFO axi4_lite_out_monitor.sv(28) @ 4565: uvm_test_top.env.pa.out_mon [OUTPUT MONITOR] BRESP = 0 RRESP = 0 RDATA = 00000000
UVM_INFO axi4_lite_driver.sv(34) @ 4565: uvm_test_top.env.aa.drv [DRV] awaddr = 00000004 wdata = 6fc82174 wstrb = 8 araddr = 23136dd4
UVM_INFO axi4_lite_scoreboard.sv(52) @ 4565: uvm_test_top.env.scb [BRESP] Matched : exp_bresp= 0 actual_bresp=0 write = 1 read = 0
UVM_INFO axi4_lite_subscriber.sv(41) @ 4595: uvm_test_top.env.sb [sb] INPUT COVERAGE = 83.33 %
UVM_INFO axi4_lite_inp_monitor.sv(44) @ 4595: uvm_test_top.env.aa.inp_mon [INPUT MONITOR]  WRITE awaddr=00000034 wdata=6304d1fb wstrb=0110 
UVM_INFO axi4_lite_out_monitor.sv(28) @ 4615: uvm_test_top.env.pa.out_mon [OUTPUT MONITOR] BRESP = 0 RRESP = 0 RDATA = 00000000
UVM_INFO axi4_lite_driver.sv(34) @ 4615: uvm_test_top.env.aa.drv [DRV] awaddr = 00000034 wdata = 6304d1fb wstrb = 6 araddr = fd62a674
UVM_INFO axi4_lite_scoreboard.sv(52) @ 4615: uvm_test_top.env.scb [BRESP] Matched : exp_bresp= 0 actual_bresp=0 write = 1 read = 0
UVM_INFO axi4_lite_subscriber.sv(41) @ 4655: uvm_test_top.env.sb [sb] INPUT COVERAGE = 83.33 %
UVM_INFO axi4_lite_inp_monitor.sv(44) @ 4655: uvm_test_top.env.aa.inp_mon [INPUT MONITOR]  WRITE awaddr=00000014 wdata=4118cae6 wstrb=0111 
UVM_INFO axi4_lite_out_monitor.sv(28) @ 4675: uvm_test_top.env.pa.out_mon [OUTPUT MONITOR] BRESP = 0 RRESP = 0 RDATA = 00000000
UVM_INFO axi4_lite_driver.sv(34) @ 4675: uvm_test_top.env.aa.drv [DRV] awaddr = 00000014 wdata = 4118cae6 wstrb = 7 araddr = ff6ee9e8
UVM_INFO axi4_lite_scoreboard.sv(52) @ 4675: uvm_test_top.env.scb [BRESP] Matched : exp_bresp= 0 actual_bresp=0 write = 1 read = 0
UVM_INFO axi4_lite_subscriber.sv(41) @ 4715: uvm_test_top.env.sb [sb] INPUT COVERAGE = 83.33 %
UVM_INFO axi4_lite_inp_monitor.sv(44) @ 4715: uvm_test_top.env.aa.inp_mon [INPUT MONITOR]  WRITE awaddr=00000018 wdata=6d3934fe wstrb=1110 
UVM_INFO axi4_lite_out_monitor.sv(28) @ 4735: uvm_test_top.env.pa.out_mon [OUTPUT MONITOR] BRESP = 0 RRESP = 0 RDATA = 00000000
UVM_INFO axi4_lite_driver.sv(34) @ 4735: uvm_test_top.env.aa.drv [DRV] awaddr = 00000018 wdata = 6d3934fe wstrb = e araddr = 15938efc
UVM_INFO axi4_lite_scoreboard.sv(52) @ 4735: uvm_test_top.env.scb [BRESP] Matched : exp_bresp= 0 actual_bresp=0 write = 1 read = 0
UVM_INFO axi4_lite_subscriber.sv(41) @ 4775: uvm_test_top.env.sb [sb] INPUT COVERAGE = 83.33 %
UVM_INFO axi4_lite_inp_monitor.sv(44) @ 4775: uvm_test_top.env.aa.inp_mon [INPUT MONITOR]  WRITE awaddr=0000002c wdata=92a0021b wstrb=0111 
UVM_INFO axi4_lite_out_monitor.sv(28) @ 4795: uvm_test_top.env.pa.out_mon [OUTPUT MONITOR] BRESP = 2 RRESP = 0 RDATA = 00000000
UVM_INFO axi4_lite_driver.sv(34) @ 4795: uvm_test_top.env.aa.drv [DRV] awaddr = 0000002c wdata = 92a0021b wstrb = 7 araddr = b4bab36c
UVM_INFO axi4_lite_scoreboard.sv(52) @ 4795: uvm_test_top.env.scb [BRESP] Matched : exp_bresp= 2 actual_bresp=2 write = 1 read = 0
UVM_INFO axi4_lite_subscriber.sv(41) @ 4825: uvm_test_top.env.sb [sb] INPUT COVERAGE = 83.33 %
UVM_INFO axi4_lite_inp_monitor.sv(44) @ 4825: uvm_test_top.env.aa.inp_mon [INPUT MONITOR]  WRITE awaddr=00000024 wdata=80196cca wstrb=0000 
UVM_INFO axi4_lite_out_monitor.sv(28) @ 4845: uvm_test_top.env.pa.out_mon [OUTPUT MONITOR] BRESP = 0 RRESP = 0 RDATA = 00000000
UVM_INFO axi4_lite_driver.sv(34) @ 4845: uvm_test_top.env.aa.drv [DRV] awaddr = 00000024 wdata = 80196cca wstrb = 0 araddr = 2ba3e70c
UVM_INFO axi4_lite_scoreboard.sv(52) @ 4845: uvm_test_top.env.scb [BRESP] Matched : exp_bresp= 0 actual_bresp=0 write = 1 read = 0
UVM_INFO axi4_lite_subscriber.sv(41) @ 4895: uvm_test_top.env.sb [sb] INPUT COVERAGE = 83.33 %
UVM_INFO axi4_lite_inp_monitor.sv(44) @ 4895: uvm_test_top.env.aa.inp_mon [INPUT MONITOR]  WRITE awaddr=00000010 wdata=6410db88 wstrb=0110 
UVM_INFO axi4_lite_out_monitor.sv(28) @ 4915: uvm_test_top.env.pa.out_mon [OUTPUT MONITOR] BRESP = 0 RRESP = 0 RDATA = 00000000
UVM_INFO axi4_lite_driver.sv(34) @ 4915: uvm_test_top.env.aa.drv [DRV] awaddr = 00000010 wdata = 6410db88 wstrb = 6 araddr = 618bf3a4
UVM_INFO axi4_lite_scoreboard.sv(52) @ 4915: uvm_test_top.env.scb [BRESP] Matched : exp_bresp= 0 actual_bresp=0 write = 1 read = 0
UVM_INFO axi4_lite_subscriber.sv(41) @ 4945: uvm_test_top.env.sb [sb] INPUT COVERAGE = 83.33 %
UVM_INFO axi4_lite_inp_monitor.sv(44) @ 4945: uvm_test_top.env.aa.inp_mon [INPUT MONITOR]  WRITE awaddr=00000034 wdata=10f9e084 wstrb=0000 
UVM_INFO axi4_lite_out_monitor.sv(28) @ 4965: uvm_test_top.env.pa.out_mon [OUTPUT MONITOR] BRESP = 0 RRESP = 0 RDATA = 00000000
UVM_INFO axi4_lite_driver.sv(34) @ 4965: uvm_test_top.env.aa.drv [DRV] awaddr = 00000034 wdata = 10f9e084 wstrb = 0 araddr = 6e9d28c4
UVM_INFO axi4_lite_scoreboard.sv(52) @ 4965: uvm_test_top.env.scb [BRESP] Matched : exp_bresp= 0 actual_bresp=0 write = 1 read = 0
UVM_INFO axi4_lite_subscriber.sv(41) @ 4995: uvm_test_top.env.sb [sb] INPUT COVERAGE = 83.33 %
UVM_INFO axi4_lite_inp_monitor.sv(44) @ 4995: uvm_test_top.env.aa.inp_mon [INPUT MONITOR]  WRITE awaddr=00000004 wdata=36cf1a54 wstrb=1100 
UVM_INFO axi4_lite_out_monitor.sv(28) @ 5015: uvm_test_top.env.pa.out_mon [OUTPUT MONITOR] BRESP = 0 RRESP = 0 RDATA = 00000000
UVM_INFO axi4_lite_driver.sv(34) @ 5015: uvm_test_top.env.aa.drv [DRV] awaddr = 00000004 wdata = 36cf1a54 wstrb = c araddr = cd9fe004
UVM_INFO axi4_lite_scoreboard.sv(52) @ 5015: uvm_test_top.env.scb [BRESP] Matched : exp_bresp= 0 actual_bresp=0 write = 1 read = 0
UVM_INFO axi4_lite_subscriber.sv(41) @ 5035: uvm_test_top.env.sb [sb] INPUT COVERAGE = 83.33 %
UVM_INFO axi4_lite_inp_monitor.sv(44) @ 5035: uvm_test_top.env.aa.inp_mon [INPUT MONITOR]  WRITE awaddr=00000004 wdata=f03cc808 wstrb=1010 
UVM_INFO axi4_lite_out_monitor.sv(28) @ 5055: uvm_test_top.env.pa.out_mon [OUTPUT MONITOR] BRESP = 0 RRESP = 0 RDATA = 00000000
UVM_INFO axi4_lite_driver.sv(34) @ 5055: uvm_test_top.env.aa.drv [DRV] awaddr = 00000004 wdata = f03cc808 wstrb = a araddr = 1fbe2d04
UVM_INFO axi4_lite_scoreboard.sv(52) @ 5055: uvm_test_top.env.scb [BRESP] Matched : exp_bresp= 0 actual_bresp=0 write = 1 read = 0
UVM_INFO axi4_lite_subscriber.sv(41) @ 5085: uvm_test_top.env.sb [sb] INPUT COVERAGE = 83.33 %
UVM_INFO axi4_lite_inp_monitor.sv(44) @ 5085: uvm_test_top.env.aa.inp_mon [INPUT MONITOR]  WRITE awaddr=00000000 wdata=fd69bbdc wstrb=0001 
UVM_INFO axi4_lite_out_monitor.sv(28) @ 5105: uvm_test_top.env.pa.out_mon [OUTPUT MONITOR] BRESP = 0 RRESP = 0 RDATA = 00000000
UVM_INFO axi4_lite_driver.sv(34) @ 5105: uvm_test_top.env.aa.drv [DRV] awaddr = 00000000 wdata = fd69bbdc wstrb = 1 araddr = e0c8ef4c
UVM_INFO axi4_lite_scoreboard.sv(52) @ 5105: uvm_test_top.env.scb [BRESP] Matched : exp_bresp= 0 actual_bresp=0 write = 1 read = 0
UVM_INFO axi4_lite_subscriber.sv(41) @ 5145: uvm_test_top.env.sb [sb] INPUT COVERAGE = 83.33 %
UVM_INFO axi4_lite_inp_monitor.sv(44) @ 5145: uvm_test_top.env.aa.inp_mon [INPUT MONITOR]  WRITE awaddr=00000008 wdata=ff8f0962 wstrb=0111 
UVM_INFO axi4_lite_out_monitor.sv(28) @ 5165: uvm_test_top.env.pa.out_mon [OUTPUT MONITOR] BRESP = 0 RRESP = 0 RDATA = 00000000
UVM_INFO axi4_lite_driver.sv(34) @ 5165: uvm_test_top.env.aa.drv [DRV] awaddr = 00000008 wdata = ff8f0962 wstrb = 7 araddr = 29f0b720
UVM_INFO axi4_lite_scoreboard.sv(52) @ 5165: uvm_test_top.env.scb [BRESP] Matched : exp_bresp= 0 actual_bresp=0 write = 1 read = 0
UVM_INFO axi4_lite_subscriber.sv(41) @ 5185: uvm_test_top.env.sb [sb] INPUT COVERAGE = 83.33 %
UVM_INFO axi4_lite_inp_monitor.sv(44) @ 5185: uvm_test_top.env.aa.inp_mon [INPUT MONITOR]  WRITE awaddr=00000034 wdata=054eda46 wstrb=1110 
UVM_INFO axi4_lite_out_monitor.sv(28) @ 5205: uvm_test_top.env.pa.out_mon [OUTPUT MONITOR] BRESP = 0 RRESP = 0 RDATA = 00000000
UVM_INFO axi4_lite_driver.sv(34) @ 5205: uvm_test_top.env.aa.drv [DRV] awaddr = 00000034 wdata = 054eda46 wstrb = e araddr = b51d31bc
UVM_INFO axi4_lite_scoreboard.sv(52) @ 5205: uvm_test_top.env.scb [BRESP] Matched : exp_bresp= 0 actual_bresp=0 write = 1 read = 0
UVM_INFO axi4_lite_subscriber.sv(41) @ 5225: uvm_test_top.env.sb [sb] INPUT COVERAGE = 83.33 %
UVM_INFO axi4_lite_inp_monitor.sv(44) @ 5225: uvm_test_top.env.aa.inp_mon [INPUT MONITOR]  WRITE awaddr=00000038 wdata=c4f1302e wstrb=0100 
UVM_INFO axi4_lite_out_monitor.sv(28) @ 5245: uvm_test_top.env.pa.out_mon [OUTPUT MONITOR] BRESP = 0 RRESP = 0 RDATA = 00000000
UVM_INFO axi4_lite_driver.sv(34) @ 5245: uvm_test_top.env.aa.drv [DRV] awaddr = 00000038 wdata = c4f1302e wstrb = 4 araddr = cd316774
UVM_INFO axi4_lite_scoreboard.sv(52) @ 5245: uvm_test_top.env.scb [BRESP] Matched : exp_bresp= 0 actual_bresp=0 write = 1 read = 0
UVM_INFO axi4_lite_subscriber.sv(41) @ 5275: uvm_test_top.env.sb [sb] INPUT COVERAGE = 83.33 %
UVM_INFO axi4_lite_inp_monitor.sv(44) @ 5275: uvm_test_top.env.aa.inp_mon [INPUT MONITOR]  WRITE awaddr=00000014 wdata=54f84925 wstrb=0111 
UVM_INFO axi4_lite_out_monitor.sv(28) @ 5295: uvm_test_top.env.pa.out_mon [OUTPUT MONITOR] BRESP = 0 RRESP = 0 RDATA = 00000000
UVM_INFO axi4_lite_driver.sv(34) @ 5295: uvm_test_top.env.aa.drv [DRV] awaddr = 00000014 wdata = 54f84925 wstrb = 7 araddr = 914256ac
UVM_INFO axi4_lite_scoreboard.sv(52) @ 5295: uvm_test_top.env.scb [BRESP] Matched : exp_bresp= 0 actual_bresp=0 write = 1 read = 0
UVM_INFO axi4_lite_subscriber.sv(41) @ 5345: uvm_test_top.env.sb [sb] INPUT COVERAGE = 83.33 %
UVM_INFO axi4_lite_inp_monitor.sv(44) @ 5345: uvm_test_top.env.aa.inp_mon [INPUT MONITOR]  WRITE awaddr=00000038 wdata=9ca535c3 wstrb=0000 
UVM_INFO axi4_lite_out_monitor.sv(28) @ 5365: uvm_test_top.env.pa.out_mon [OUTPUT MONITOR] BRESP = 0 RRESP = 0 RDATA = 00000000
UVM_INFO axi4_lite_driver.sv(34) @ 5365: uvm_test_top.env.aa.drv [DRV] awaddr = 00000038 wdata = 9ca535c3 wstrb = 0 araddr = 2fe80224
UVM_INFO axi4_lite_scoreboard.sv(52) @ 5365: uvm_test_top.env.scb [BRESP] Matched : exp_bresp= 0 actual_bresp=0 write = 1 read = 0
UVM_INFO axi4_lite_subscriber.sv(41) @ 5415: uvm_test_top.env.sb [sb] INPUT COVERAGE = 83.33 %
UVM_INFO axi4_lite_inp_monitor.sv(44) @ 5415: uvm_test_top.env.aa.inp_mon [INPUT MONITOR]  WRITE awaddr=00000004 wdata=521a1a00 wstrb=0100 
UVM_INFO axi4_lite_out_monitor.sv(28) @ 5435: uvm_test_top.env.pa.out_mon [OUTPUT MONITOR] BRESP = 0 RRESP = 0 RDATA = 00000000
UVM_INFO axi4_lite_driver.sv(34) @ 5435: uvm_test_top.env.aa.drv [DRV] awaddr = 00000004 wdata = 521a1a00 wstrb = 4 araddr = b1297a50
UVM_INFO axi4_lite_scoreboard.sv(52) @ 5435: uvm_test_top.env.scb [BRESP] Matched : exp_bresp= 0 actual_bresp=0 write = 1 read = 0
UVM_INFO axi4_lite_subscriber.sv(41) @ 5455: uvm_test_top.env.sb [sb] INPUT COVERAGE = 83.33 %
UVM_INFO axi4_lite_inp_monitor.sv(44) @ 5455: uvm_test_top.env.aa.inp_mon [INPUT MONITOR]  WRITE awaddr=00000008 wdata=c2d651a9 wstrb=0010 
UVM_INFO axi4_lite_out_monitor.sv(28) @ 5475: uvm_test_top.env.pa.out_mon [OUTPUT MONITOR] BRESP = 0 RRESP = 0 RDATA = 00000000
UVM_INFO axi4_lite_driver.sv(34) @ 5475: uvm_test_top.env.aa.drv [DRV] awaddr = 00000008 wdata = c2d651a9 wstrb = 2 araddr = f956bb38
UVM_INFO axi4_lite_scoreboard.sv(52) @ 5475: uvm_test_top.env.scb [BRESP] Matched : exp_bresp= 0 actual_bresp=0 write = 1 read = 0
UVM_INFO axi4_lite_subscriber.sv(41) @ 5515: uvm_test_top.env.sb [sb] INPUT COVERAGE = 83.33 %
UVM_INFO axi4_lite_inp_monitor.sv(44) @ 5515: uvm_test_top.env.aa.inp_mon [INPUT MONITOR]  WRITE awaddr=00000028 wdata=f74c646c wstrb=1111 
UVM_INFO axi4_lite_out_monitor.sv(28) @ 5535: uvm_test_top.env.pa.out_mon [OUTPUT MONITOR] BRESP = 2 RRESP = 0 RDATA = 00000000
UVM_INFO axi4_lite_driver.sv(34) @ 5535: uvm_test_top.env.aa.drv [DRV] awaddr = 00000028 wdata = f74c646c wstrb = f araddr = c0c42760
UVM_INFO axi4_lite_scoreboard.sv(52) @ 5535: uvm_test_top.env.scb [BRESP] Matched : exp_bresp= 2 actual_bresp=2 write = 1 read = 0
UVM_INFO axi4_lite_subscriber.sv(41) @ 5585: uvm_test_top.env.sb [sb] INPUT COVERAGE = 83.33 %
UVM_INFO axi4_lite_inp_monitor.sv(44) @ 5585: uvm_test_top.env.aa.inp_mon [INPUT MONITOR]  WRITE awaddr=00000014 wdata=86a8d27b wstrb=0100 
UVM_INFO axi4_lite_out_monitor.sv(28) @ 5605: uvm_test_top.env.pa.out_mon [OUTPUT MONITOR] BRESP = 0 RRESP = 0 RDATA = 00000000
UVM_INFO axi4_lite_driver.sv(34) @ 5605: uvm_test_top.env.aa.drv [DRV] awaddr = 00000014 wdata = 86a8d27b wstrb = 4 araddr = 97fa0dd4
UVM_INFO axi4_lite_scoreboard.sv(52) @ 5605: uvm_test_top.env.scb [BRESP] Matched : exp_bresp= 0 actual_bresp=0 write = 1 read = 0
UVM_INFO axi4_lite_test.sv(163) @ 5605: uvm_test_top [TEST] Addr with data delay completed
UVM_INFO /fetools/synopsys/installed_tools/vcs/vcs/Q-2020.03-SP2-8/etc/uvm/base/uvm_objection.svh(1274) @ 5605: reporter [TEST_DONE] 'run' phase is ready to proceed to the 'extract' phase

--- UVM Report Summary ---

** Report counts by severity
UVM_INFO :  504
UVM_WARNING :    0
UVM_ERROR :    0
UVM_FATAL :    0
** Report counts by id
[BRESP]   100
[DRV]   100
[INPUT MONITOR]   100
[OUTPUT MONITOR]   100
[RNTST]     1
[TEST]     1
[TEST_DONE]     1
[UVMTOP]     1
[sb]   100
$finish called from file "/fetools/synopsys/installed_tools/vcs/vcs/Q-2020.03-SP2-8/etc/uvm/base/uvm_root.svh", line 437.
$finish at simulation time                 5605

---------------------------------------------------------------------------
VCS Coverage Metrics: during simulation line, cond, FSM, branch, tgl was monitored
---------------------------------------------------------------------------
           V C S   S i m u l a t i o n   R e p o r t 
Time: 5605 ns
CPU Time:      0.530 seconds;       Data structure size:   0.4Mb
Thu Sep 17 16:19:41 2026
