Command: /fetools/work_area/frontend/Batch_11/ananyaganesh/system_verilog/AXI4_LITE_SLAVE/src/work/simv +UVM_TESTNAME=axi4_lite_test_read_wo +UVM_VERBOSITY=UVM_HIGH +ntb_random_seed=26966 -cm line+cond+fsm+tgl+branch+assert -cm_dir work/regression.vdb -cm_name axi4_lite_test_read_wo_26966 -l work/logs/axi4_lite_test_read_wo_26966.log +UVM_NO_RELNOTES
Chronologic VCS simulator copyright 1991-2020
Contains Synopsys proprietary information.
Compiler version Q-2020.03-SP2-8_Full64; Runtime version Q-2020.03-SP2-8_Full64;  Sep 18 14:20 2026
----------------------------------------------------------------
UVM-1.1d.Synopsys
(C) 2007-2013 Mentor Graphics Corporation
(C) 2007-2013 Cadence Design Systems, Inc.
(C) 2006-2013 Synopsys, Inc.
(C) 2011-2013 Cypress Semiconductor Corp.
----------------------------------------------------------------
UVM_INFO @ 0: reporter [RNTST] Running test axi4_lite_test_read_wo...
UVM_INFO @ 0: reporter [UVMTOP] UVM testbench topology:
---------------------------------------------------------------
Name                       Type                     Size  Value
---------------------------------------------------------------
uvm_test_top               axi4_lite_test_read_wo   -     @469 
  env                      axi4_lite_environment    -     @477 
    aa                     axi4_lite_active_agent   -     @489 
      drv                  axi4_lite_driver         -     @569 
        rsp_port           uvm_analysis_port        -     @586 
        seq_item_port      uvm_seq_item_pull_port   -     @577 
      inp_mon              axi4_lite_inp_monitor    -     @552 
        inp_mon_port       uvm_analysis_port        -     @560 
      seqr                 axi4_lite_seqr           -     @595 
        rsp_export         uvm_analysis_export      -     @603 
        seq_item_export    uvm_seq_item_pull_imp    -     @709 
        arbitration_queue  array                    0     -    
        lock_queue         array                    0     -    
        num_last_reqs      integral                 32    'd1  
        num_last_rsps      integral                 32    'd1  
    pa                     axi4_lite_passive_agent  -     @497 
      out_mon              axi4_lite_out_monitor    -     @726 
        out_mon_port       uvm_analysis_port        -     @734 
    sb                     axi4_lite_subscriber     -     @531 
      analysis_imp         uvm_analysis_imp         -     @539 
    scb                    axi4_lite_scoreboard     -     @505 
      inp_port             uvm_analysis_imp_in      -     @513 
      out_port             uvm_analysis_imp_out     -     @522 
---------------------------------------------------------------

UVM_INFO axi4_lite_subscriber.sv(41) @ 15: uvm_test_top.env.sb [sb] INPUT COVERAGE = 28.12 %
UVM_INFO axi4_lite_inp_monitor.sv(38) @ 15: uvm_test_top.env.aa.inp_mon [INPUT MONITOR] READ araddr=00000038
UVM_INFO axi4_lite_out_monitor.sv(28) @ 25: uvm_test_top.env.pa.out_mon [OUTPUT MONITOR] BRESP = 0 RRESP = 2 RDATA = 00000000
UVM_INFO axi4_lite_driver.sv(34) @ 25: uvm_test_top.env.aa.drv [DRV] awaddr = 45c35ba4 wdata = 8d116265 wstrb = c araddr = 00000038
UVM_INFO axi4_lite_scoreboard.sv(68) @ 25: uvm_test_top.env.scb [RRESP] Matched : exp_rresp=2 actual_rresp =2 write = 0 read = 1
UVM_INFO axi4_lite_scoreboard.sv(72) @ 25: uvm_test_top.env.scb [RDATA] Matched : exp_rdata=00000000 actual_rdata =00000000
UVM_INFO axi4_lite_subscriber.sv(41) @ 45: uvm_test_top.env.sb [sb] INPUT COVERAGE = 28.12 %
UVM_INFO axi4_lite_inp_monitor.sv(38) @ 45: uvm_test_top.env.aa.inp_mon [INPUT MONITOR] READ araddr=00000038
UVM_INFO axi4_lite_out_monitor.sv(28) @ 55: uvm_test_top.env.pa.out_mon [OUTPUT MONITOR] BRESP = 0 RRESP = 2 RDATA = 00000000
UVM_INFO axi4_lite_driver.sv(34) @ 55: uvm_test_top.env.aa.drv [DRV] awaddr = ee5ce900 wdata = dca5e010 wstrb = e araddr = 00000038
UVM_INFO axi4_lite_scoreboard.sv(68) @ 55: uvm_test_top.env.scb [RRESP] Matched : exp_rresp=2 actual_rresp =2 write = 0 read = 1
UVM_INFO axi4_lite_scoreboard.sv(72) @ 55: uvm_test_top.env.scb [RDATA] Matched : exp_rdata=00000000 actual_rdata =00000000
UVM_INFO axi4_lite_subscriber.sv(41) @ 75: uvm_test_top.env.sb [sb] INPUT COVERAGE = 28.12 %
UVM_INFO axi4_lite_inp_monitor.sv(38) @ 75: uvm_test_top.env.aa.inp_mon [INPUT MONITOR] READ araddr=00000034
UVM_INFO axi4_lite_out_monitor.sv(28) @ 85: uvm_test_top.env.pa.out_mon [OUTPUT MONITOR] BRESP = 0 RRESP = 2 RDATA = 00000000
UVM_INFO axi4_lite_driver.sv(34) @ 85: uvm_test_top.env.aa.drv [DRV] awaddr = b7e1f898 wdata = 4fb969c5 wstrb = a araddr = 00000034
UVM_INFO axi4_lite_scoreboard.sv(68) @ 85: uvm_test_top.env.scb [RRESP] Matched : exp_rresp=2 actual_rresp =2 write = 0 read = 1
UVM_INFO axi4_lite_scoreboard.sv(72) @ 85: uvm_test_top.env.scb [RDATA] Matched : exp_rdata=00000000 actual_rdata =00000000
UVM_INFO axi4_lite_subscriber.sv(41) @ 105: uvm_test_top.env.sb [sb] INPUT COVERAGE = 28.12 %
UVM_INFO axi4_lite_inp_monitor.sv(38) @ 105: uvm_test_top.env.aa.inp_mon [INPUT MONITOR] READ araddr=00000038
UVM_INFO axi4_lite_out_monitor.sv(28) @ 115: uvm_test_top.env.pa.out_mon [OUTPUT MONITOR] BRESP = 0 RRESP = 2 RDATA = 00000000
UVM_INFO axi4_lite_driver.sv(34) @ 115: uvm_test_top.env.aa.drv [DRV] awaddr = d9e3beb8 wdata = c25919cc wstrb = a araddr = 00000038
UVM_INFO axi4_lite_scoreboard.sv(68) @ 115: uvm_test_top.env.scb [RRESP] Matched : exp_rresp=2 actual_rresp =2 write = 0 read = 1
UVM_INFO axi4_lite_scoreboard.sv(72) @ 115: uvm_test_top.env.scb [RDATA] Matched : exp_rdata=00000000 actual_rdata =00000000
UVM_INFO axi4_lite_subscriber.sv(41) @ 135: uvm_test_top.env.sb [sb] INPUT COVERAGE = 28.12 %
UVM_INFO axi4_lite_inp_monitor.sv(38) @ 135: uvm_test_top.env.aa.inp_mon [INPUT MONITOR] READ araddr=00000034
UVM_INFO axi4_lite_out_monitor.sv(28) @ 145: uvm_test_top.env.pa.out_mon [OUTPUT MONITOR] BRESP = 0 RRESP = 2 RDATA = 00000000
UVM_INFO axi4_lite_driver.sv(34) @ 145: uvm_test_top.env.aa.drv [DRV] awaddr = afedc784 wdata = 3daa6921 wstrb = f araddr = 00000034
UVM_INFO axi4_lite_scoreboard.sv(68) @ 145: uvm_test_top.env.scb [RRESP] Matched : exp_rresp=2 actual_rresp =2 write = 0 read = 1
UVM_INFO axi4_lite_scoreboard.sv(72) @ 145: uvm_test_top.env.scb [RDATA] Matched : exp_rdata=00000000 actual_rdata =00000000
UVM_INFO axi4_lite_subscriber.sv(41) @ 165: uvm_test_top.env.sb [sb] INPUT COVERAGE = 28.12 %
UVM_INFO axi4_lite_inp_monitor.sv(38) @ 165: uvm_test_top.env.aa.inp_mon [INPUT MONITOR] READ araddr=00000038
UVM_INFO axi4_lite_out_monitor.sv(28) @ 175: uvm_test_top.env.pa.out_mon [OUTPUT MONITOR] BRESP = 0 RRESP = 2 RDATA = 00000000
UVM_INFO axi4_lite_driver.sv(34) @ 175: uvm_test_top.env.aa.drv [DRV] awaddr = 18afb148 wdata = 9544b43a wstrb = f araddr = 00000038
UVM_INFO axi4_lite_scoreboard.sv(68) @ 175: uvm_test_top.env.scb [RRESP] Matched : exp_rresp=2 actual_rresp =2 write = 0 read = 1
UVM_INFO axi4_lite_scoreboard.sv(72) @ 175: uvm_test_top.env.scb [RDATA] Matched : exp_rdata=00000000 actual_rdata =00000000
UVM_INFO axi4_lite_subscriber.sv(41) @ 195: uvm_test_top.env.sb [sb] INPUT COVERAGE = 28.12 %
UVM_INFO axi4_lite_inp_monitor.sv(38) @ 195: uvm_test_top.env.aa.inp_mon [INPUT MONITOR] READ araddr=00000038
UVM_INFO axi4_lite_out_monitor.sv(28) @ 205: uvm_test_top.env.pa.out_mon [OUTPUT MONITOR] BRESP = 0 RRESP = 2 RDATA = 00000000
UVM_INFO axi4_lite_driver.sv(34) @ 205: uvm_test_top.env.aa.drv [DRV] awaddr = f40d60dc wdata = 0df72352 wstrb = a araddr = 00000038
UVM_INFO axi4_lite_scoreboard.sv(68) @ 205: uvm_test_top.env.scb [RRESP] Matched : exp_rresp=2 actual_rresp =2 write = 0 read = 1
UVM_INFO axi4_lite_scoreboard.sv(72) @ 205: uvm_test_top.env.scb [RDATA] Matched : exp_rdata=00000000 actual_rdata =00000000
UVM_INFO axi4_lite_subscriber.sv(41) @ 225: uvm_test_top.env.sb [sb] INPUT COVERAGE = 28.12 %
UVM_INFO axi4_lite_inp_monitor.sv(38) @ 225: uvm_test_top.env.aa.inp_mon [INPUT MONITOR] READ araddr=00000038
UVM_INFO axi4_lite_out_monitor.sv(28) @ 235: uvm_test_top.env.pa.out_mon [OUTPUT MONITOR] BRESP = 0 RRESP = 2 RDATA = 00000000
UVM_INFO axi4_lite_driver.sv(34) @ 235: uvm_test_top.env.aa.drv [DRV] awaddr = 179d5238 wdata = 7b4e21ab wstrb = 4 araddr = 00000038
UVM_INFO axi4_lite_scoreboard.sv(68) @ 235: uvm_test_top.env.scb [RRESP] Matched : exp_rresp=2 actual_rresp =2 write = 0 read = 1
UVM_INFO axi4_lite_scoreboard.sv(72) @ 235: uvm_test_top.env.scb [RDATA] Matched : exp_rdata=00000000 actual_rdata =00000000
UVM_INFO axi4_lite_subscriber.sv(41) @ 255: uvm_test_top.env.sb [sb] INPUT COVERAGE = 28.12 %
UVM_INFO axi4_lite_inp_monitor.sv(38) @ 255: uvm_test_top.env.aa.inp_mon [INPUT MONITOR] READ araddr=00000038
UVM_INFO axi4_lite_out_monitor.sv(28) @ 265: uvm_test_top.env.pa.out_mon [OUTPUT MONITOR] BRESP = 0 RRESP = 2 RDATA = 00000000
UVM_INFO axi4_lite_driver.sv(34) @ 265: uvm_test_top.env.aa.drv [DRV] awaddr = 854d2d8c wdata = 229b9a41 wstrb = 5 araddr = 00000038
UVM_INFO axi4_lite_scoreboard.sv(68) @ 265: uvm_test_top.env.scb [RRESP] Matched : exp_rresp=2 actual_rresp =2 write = 0 read = 1
UVM_INFO axi4_lite_scoreboard.sv(72) @ 265: uvm_test_top.env.scb [RDATA] Matched : exp_rdata=00000000 actual_rdata =00000000
UVM_INFO axi4_lite_subscriber.sv(41) @ 285: uvm_test_top.env.sb [sb] INPUT COVERAGE = 28.12 %
UVM_INFO axi4_lite_inp_monitor.sv(38) @ 285: uvm_test_top.env.aa.inp_mon [INPUT MONITOR] READ araddr=00000038
UVM_INFO axi4_lite_out_monitor.sv(28) @ 295: uvm_test_top.env.pa.out_mon [OUTPUT MONITOR] BRESP = 0 RRESP = 2 RDATA = 00000000
UVM_INFO axi4_lite_driver.sv(34) @ 295: uvm_test_top.env.aa.drv [DRV] awaddr = 4a21df88 wdata = 557eab6a wstrb = b araddr = 00000038
UVM_INFO axi4_lite_scoreboard.sv(68) @ 295: uvm_test_top.env.scb [RRESP] Matched : exp_rresp=2 actual_rresp =2 write = 0 read = 1
UVM_INFO axi4_lite_scoreboard.sv(72) @ 295: uvm_test_top.env.scb [RDATA] Matched : exp_rdata=00000000 actual_rdata =00000000
UVM_INFO axi4_lite_subscriber.sv(41) @ 315: uvm_test_top.env.sb [sb] INPUT COVERAGE = 28.12 %
UVM_INFO axi4_lite_inp_monitor.sv(38) @ 315: uvm_test_top.env.aa.inp_mon [INPUT MONITOR] READ araddr=00000034
UVM_INFO axi4_lite_out_monitor.sv(28) @ 325: uvm_test_top.env.pa.out_mon [OUTPUT MONITOR] BRESP = 0 RRESP = 2 RDATA = 00000000
UVM_INFO axi4_lite_driver.sv(34) @ 325: uvm_test_top.env.aa.drv [DRV] awaddr = 404c527c wdata = 406d8019 wstrb = a araddr = 00000034
UVM_INFO axi4_lite_scoreboard.sv(68) @ 325: uvm_test_top.env.scb [RRESP] Matched : exp_rresp=2 actual_rresp =2 write = 0 read = 1
UVM_INFO axi4_lite_scoreboard.sv(72) @ 325: uvm_test_top.env.scb [RDATA] Matched : exp_rdata=00000000 actual_rdata =00000000
UVM_INFO axi4_lite_subscriber.sv(41) @ 345: uvm_test_top.env.sb [sb] INPUT COVERAGE = 28.12 %
UVM_INFO axi4_lite_inp_monitor.sv(38) @ 345: uvm_test_top.env.aa.inp_mon [INPUT MONITOR] READ araddr=00000038
UVM_INFO axi4_lite_out_monitor.sv(28) @ 355: uvm_test_top.env.pa.out_mon [OUTPUT MONITOR] BRESP = 0 RRESP = 2 RDATA = 00000000
UVM_INFO axi4_lite_driver.sv(34) @ 355: uvm_test_top.env.aa.drv [DRV] awaddr = 3bcc0794 wdata = 9b4689cc wstrb = 5 araddr = 00000038
UVM_INFO axi4_lite_scoreboard.sv(68) @ 355: uvm_test_top.env.scb [RRESP] Matched : exp_rresp=2 actual_rresp =2 write = 0 read = 1
UVM_INFO axi4_lite_scoreboard.sv(72) @ 355: uvm_test_top.env.scb [RDATA] Matched : exp_rdata=00000000 actual_rdata =00000000
UVM_INFO axi4_lite_subscriber.sv(41) @ 375: uvm_test_top.env.sb [sb] INPUT COVERAGE = 28.12 %
UVM_INFO axi4_lite_inp_monitor.sv(38) @ 375: uvm_test_top.env.aa.inp_mon [INPUT MONITOR] READ araddr=00000038
UVM_INFO axi4_lite_out_monitor.sv(28) @ 385: uvm_test_top.env.pa.out_mon [OUTPUT MONITOR] BRESP = 0 RRESP = 2 RDATA = 00000000
UVM_INFO axi4_lite_driver.sv(34) @ 385: uvm_test_top.env.aa.drv [DRV] awaddr = 71ffbf78 wdata = 11cf8e1c wstrb = d araddr = 00000038
UVM_INFO axi4_lite_scoreboard.sv(68) @ 385: uvm_test_top.env.scb [RRESP] Matched : exp_rresp=2 actual_rresp =2 write = 0 read = 1
UVM_INFO axi4_lite_scoreboard.sv(72) @ 385: uvm_test_top.env.scb [RDATA] Matched : exp_rdata=00000000 actual_rdata =00000000
UVM_INFO axi4_lite_subscriber.sv(41) @ 405: uvm_test_top.env.sb [sb] INPUT COVERAGE = 28.12 %
UVM_INFO axi4_lite_inp_monitor.sv(38) @ 405: uvm_test_top.env.aa.inp_mon [INPUT MONITOR] READ araddr=00000034
UVM_INFO axi4_lite_out_monitor.sv(28) @ 415: uvm_test_top.env.pa.out_mon [OUTPUT MONITOR] BRESP = 0 RRESP = 2 RDATA = 00000000
UVM_INFO axi4_lite_driver.sv(34) @ 415: uvm_test_top.env.aa.drv [DRV] awaddr = 7b719f08 wdata = 0b0a739a wstrb = 8 araddr = 00000034
UVM_INFO axi4_lite_scoreboard.sv(68) @ 415: uvm_test_top.env.scb [RRESP] Matched : exp_rresp=2 actual_rresp =2 write = 0 read = 1
UVM_INFO axi4_lite_scoreboard.sv(72) @ 415: uvm_test_top.env.scb [RDATA] Matched : exp_rdata=00000000 actual_rdata =00000000
UVM_INFO axi4_lite_subscriber.sv(41) @ 435: uvm_test_top.env.sb [sb] INPUT COVERAGE = 28.12 %
UVM_INFO axi4_lite_inp_monitor.sv(38) @ 435: uvm_test_top.env.aa.inp_mon [INPUT MONITOR] READ araddr=00000038
UVM_INFO axi4_lite_out_monitor.sv(28) @ 445: uvm_test_top.env.pa.out_mon [OUTPUT MONITOR] BRESP = 0 RRESP = 2 RDATA = 00000000
UVM_INFO axi4_lite_driver.sv(34) @ 445: uvm_test_top.env.aa.drv [DRV] awaddr = e9ed1e30 wdata = 3e7f0ca4 wstrb = e araddr = 00000038
UVM_INFO axi4_lite_scoreboard.sv(68) @ 445: uvm_test_top.env.scb [RRESP] Matched : exp_rresp=2 actual_rresp =2 write = 0 read = 1
UVM_INFO axi4_lite_scoreboard.sv(72) @ 445: uvm_test_top.env.scb [RDATA] Matched : exp_rdata=00000000 actual_rdata =00000000
UVM_INFO axi4_lite_subscriber.sv(41) @ 465: uvm_test_top.env.sb [sb] INPUT COVERAGE = 28.12 %
UVM_INFO axi4_lite_inp_monitor.sv(38) @ 465: uvm_test_top.env.aa.inp_mon [INPUT MONITOR] READ araddr=00000034
UVM_INFO axi4_lite_out_monitor.sv(28) @ 475: uvm_test_top.env.pa.out_mon [OUTPUT MONITOR] BRESP = 0 RRESP = 2 RDATA = 00000000
UVM_INFO axi4_lite_driver.sv(34) @ 475: uvm_test_top.env.aa.drv [DRV] awaddr = 4d7ff0e0 wdata = 5264115a wstrb = 2 araddr = 00000034
UVM_INFO axi4_lite_scoreboard.sv(68) @ 475: uvm_test_top.env.scb [RRESP] Matched : exp_rresp=2 actual_rresp =2 write = 0 read = 1
UVM_INFO axi4_lite_scoreboard.sv(72) @ 475: uvm_test_top.env.scb [RDATA] Matched : exp_rdata=00000000 actual_rdata =00000000
UVM_INFO axi4_lite_subscriber.sv(41) @ 495: uvm_test_top.env.sb [sb] INPUT COVERAGE = 28.12 %
UVM_INFO axi4_lite_inp_monitor.sv(38) @ 495: uvm_test_top.env.aa.inp_mon [INPUT MONITOR] READ araddr=00000034
UVM_INFO axi4_lite_out_monitor.sv(28) @ 505: uvm_test_top.env.pa.out_mon [OUTPUT MONITOR] BRESP = 0 RRESP = 2 RDATA = 00000000
UVM_INFO axi4_lite_driver.sv(34) @ 505: uvm_test_top.env.aa.drv [DRV] awaddr = 2be2f17c wdata = 84a4872d wstrb = 6 araddr = 00000034
UVM_INFO axi4_lite_scoreboard.sv(68) @ 505: uvm_test_top.env.scb [RRESP] Matched : exp_rresp=2 actual_rresp =2 write = 0 read = 1
UVM_INFO axi4_lite_scoreboard.sv(72) @ 505: uvm_test_top.env.scb [RDATA] Matched : exp_rdata=00000000 actual_rdata =00000000
UVM_INFO axi4_lite_subscriber.sv(41) @ 525: uvm_test_top.env.sb [sb] INPUT COVERAGE = 28.12 %
UVM_INFO axi4_lite_inp_monitor.sv(38) @ 525: uvm_test_top.env.aa.inp_mon [INPUT MONITOR] READ araddr=00000034
UVM_INFO axi4_lite_out_monitor.sv(28) @ 535: uvm_test_top.env.pa.out_mon [OUTPUT MONITOR] BRESP = 0 RRESP = 2 RDATA = 00000000
UVM_INFO axi4_lite_driver.sv(34) @ 535: uvm_test_top.env.aa.drv [DRV] awaddr = c49921bc wdata = 50953baf wstrb = a araddr = 00000034
UVM_INFO axi4_lite_scoreboard.sv(68) @ 535: uvm_test_top.env.scb [RRESP] Matched : exp_rresp=2 actual_rresp =2 write = 0 read = 1
UVM_INFO axi4_lite_scoreboard.sv(72) @ 535: uvm_test_top.env.scb [RDATA] Matched : exp_rdata=00000000 actual_rdata =00000000
UVM_INFO axi4_lite_subscriber.sv(41) @ 555: uvm_test_top.env.sb [sb] INPUT COVERAGE = 28.12 %
UVM_INFO axi4_lite_inp_monitor.sv(38) @ 555: uvm_test_top.env.aa.inp_mon [INPUT MONITOR] READ araddr=00000038
UVM_INFO axi4_lite_out_monitor.sv(28) @ 565: uvm_test_top.env.pa.out_mon [OUTPUT MONITOR] BRESP = 0 RRESP = 2 RDATA = 00000000
UVM_INFO axi4_lite_driver.sv(34) @ 565: uvm_test_top.env.aa.drv [DRV] awaddr = ff850048 wdata = a194a0dd wstrb = 2 araddr = 00000038
UVM_INFO axi4_lite_scoreboard.sv(68) @ 565: uvm_test_top.env.scb [RRESP] Matched : exp_rresp=2 actual_rresp =2 write = 0 read = 1
UVM_INFO axi4_lite_scoreboard.sv(72) @ 565: uvm_test_top.env.scb [RDATA] Matched : exp_rdata=00000000 actual_rdata =00000000
UVM_INFO axi4_lite_subscriber.sv(41) @ 585: uvm_test_top.env.sb [sb] INPUT COVERAGE = 28.12 %
UVM_INFO axi4_lite_inp_monitor.sv(38) @ 585: uvm_test_top.env.aa.inp_mon [INPUT MONITOR] READ araddr=00000034
UVM_INFO axi4_lite_out_monitor.sv(28) @ 595: uvm_test_top.env.pa.out_mon [OUTPUT MONITOR] BRESP = 0 RRESP = 2 RDATA = 00000000
UVM_INFO axi4_lite_driver.sv(34) @ 595: uvm_test_top.env.aa.drv [DRV] awaddr = 86610534 wdata = 580df960 wstrb = e araddr = 00000034
UVM_INFO axi4_lite_scoreboard.sv(68) @ 595: uvm_test_top.env.scb [RRESP] Matched : exp_rresp=2 actual_rresp =2 write = 0 read = 1
UVM_INFO axi4_lite_scoreboard.sv(72) @ 595: uvm_test_top.env.scb [RDATA] Matched : exp_rdata=00000000 actual_rdata =00000000
UVM_INFO axi4_lite_subscriber.sv(41) @ 615: uvm_test_top.env.sb [sb] INPUT COVERAGE = 28.12 %
UVM_INFO axi4_lite_inp_monitor.sv(38) @ 615: uvm_test_top.env.aa.inp_mon [INPUT MONITOR] READ araddr=00000034
UVM_INFO axi4_lite_out_monitor.sv(28) @ 625: uvm_test_top.env.pa.out_mon [OUTPUT MONITOR] BRESP = 0 RRESP = 2 RDATA = 00000000
UVM_INFO axi4_lite_driver.sv(34) @ 625: uvm_test_top.env.aa.drv [DRV] awaddr = 11bdf194 wdata = 5c22cf10 wstrb = 6 araddr = 00000034
UVM_INFO axi4_lite_scoreboard.sv(68) @ 625: uvm_test_top.env.scb [RRESP] Matched : exp_rresp=2 actual_rresp =2 write = 0 read = 1
UVM_INFO axi4_lite_scoreboard.sv(72) @ 625: uvm_test_top.env.scb [RDATA] Matched : exp_rdata=00000000 actual_rdata =00000000
UVM_INFO axi4_lite_subscriber.sv(41) @ 645: uvm_test_top.env.sb [sb] INPUT COVERAGE = 28.12 %
UVM_INFO axi4_lite_inp_monitor.sv(38) @ 645: uvm_test_top.env.aa.inp_mon [INPUT MONITOR] READ araddr=00000034
UVM_INFO axi4_lite_out_monitor.sv(28) @ 655: uvm_test_top.env.pa.out_mon [OUTPUT MONITOR] BRESP = 0 RRESP = 2 RDATA = 00000000
UVM_INFO axi4_lite_driver.sv(34) @ 655: uvm_test_top.env.aa.drv [DRV] awaddr = 76933128 wdata = bbfa3837 wstrb = a araddr = 00000034
UVM_INFO axi4_lite_scoreboard.sv(68) @ 655: uvm_test_top.env.scb [RRESP] Matched : exp_rresp=2 actual_rresp =2 write = 0 read = 1
UVM_INFO axi4_lite_scoreboard.sv(72) @ 655: uvm_test_top.env.scb [RDATA] Matched : exp_rdata=00000000 actual_rdata =00000000
UVM_INFO axi4_lite_subscriber.sv(41) @ 675: uvm_test_top.env.sb [sb] INPUT COVERAGE = 28.12 %
UVM_INFO axi4_lite_inp_monitor.sv(38) @ 675: uvm_test_top.env.aa.inp_mon [INPUT MONITOR] READ araddr=00000034
UVM_INFO axi4_lite_out_monitor.sv(28) @ 685: uvm_test_top.env.pa.out_mon [OUTPUT MONITOR] BRESP = 0 RRESP = 2 RDATA = 00000000
UVM_INFO axi4_lite_driver.sv(34) @ 685: uvm_test_top.env.aa.drv [DRV] awaddr = 632018f0 wdata = 3ed7ac3a wstrb = 5 araddr = 00000034
UVM_INFO axi4_lite_scoreboard.sv(68) @ 685: uvm_test_top.env.scb [RRESP] Matched : exp_rresp=2 actual_rresp =2 write = 0 read = 1
UVM_INFO axi4_lite_scoreboard.sv(72) @ 685: uvm_test_top.env.scb [RDATA] Matched : exp_rdata=00000000 actual_rdata =00000000
UVM_INFO axi4_lite_subscriber.sv(41) @ 705: uvm_test_top.env.sb [sb] INPUT COVERAGE = 28.12 %
UVM_INFO axi4_lite_inp_monitor.sv(38) @ 705: uvm_test_top.env.aa.inp_mon [INPUT MONITOR] READ araddr=00000038
UVM_INFO axi4_lite_out_monitor.sv(28) @ 715: uvm_test_top.env.pa.out_mon [OUTPUT MONITOR] BRESP = 0 RRESP = 2 RDATA = 00000000
UVM_INFO axi4_lite_driver.sv(34) @ 715: uvm_test_top.env.aa.drv [DRV] awaddr = 2eda50b4 wdata = 65fbdf2a wstrb = 6 araddr = 00000038
UVM_INFO axi4_lite_scoreboard.sv(68) @ 715: uvm_test_top.env.scb [RRESP] Matched : exp_rresp=2 actual_rresp =2 write = 0 read = 1
UVM_INFO axi4_lite_scoreboard.sv(72) @ 715: uvm_test_top.env.scb [RDATA] Matched : exp_rdata=00000000 actual_rdata =00000000
UVM_INFO axi4_lite_subscriber.sv(41) @ 735: uvm_test_top.env.sb [sb] INPUT COVERAGE = 28.12 %
UVM_INFO axi4_lite_inp_monitor.sv(38) @ 735: uvm_test_top.env.aa.inp_mon [INPUT MONITOR] READ araddr=00000034
UVM_INFO axi4_lite_out_monitor.sv(28) @ 745: uvm_test_top.env.pa.out_mon [OUTPUT MONITOR] BRESP = 0 RRESP = 2 RDATA = 00000000
UVM_INFO axi4_lite_driver.sv(34) @ 745: uvm_test_top.env.aa.drv [DRV] awaddr = 53737100 wdata = 7a54b157 wstrb = f araddr = 00000034
UVM_INFO axi4_lite_scoreboard.sv(68) @ 745: uvm_test_top.env.scb [RRESP] Matched : exp_rresp=2 actual_rresp =2 write = 0 read = 1
UVM_INFO axi4_lite_scoreboard.sv(72) @ 745: uvm_test_top.env.scb [RDATA] Matched : exp_rdata=00000000 actual_rdata =00000000
UVM_INFO axi4_lite_subscriber.sv(41) @ 765: uvm_test_top.env.sb [sb] INPUT COVERAGE = 28.12 %
UVM_INFO axi4_lite_inp_monitor.sv(38) @ 765: uvm_test_top.env.aa.inp_mon [INPUT MONITOR] READ araddr=00000034
UVM_INFO axi4_lite_out_monitor.sv(28) @ 775: uvm_test_top.env.pa.out_mon [OUTPUT MONITOR] BRESP = 0 RRESP = 2 RDATA = 00000000
UVM_INFO axi4_lite_driver.sv(34) @ 775: uvm_test_top.env.aa.drv [DRV] awaddr = 0dc0a908 wdata = b045c28e wstrb = 2 araddr = 00000034
UVM_INFO axi4_lite_scoreboard.sv(68) @ 775: uvm_test_top.env.scb [RRESP] Matched : exp_rresp=2 actual_rresp =2 write = 0 read = 1
UVM_INFO axi4_lite_scoreboard.sv(72) @ 775: uvm_test_top.env.scb [RDATA] Matched : exp_rdata=00000000 actual_rdata =00000000
UVM_INFO axi4_lite_subscriber.sv(41) @ 795: uvm_test_top.env.sb [sb] INPUT COVERAGE = 28.12 %
UVM_INFO axi4_lite_inp_monitor.sv(38) @ 795: uvm_test_top.env.aa.inp_mon [INPUT MONITOR] READ araddr=00000034
UVM_INFO axi4_lite_out_monitor.sv(28) @ 805: uvm_test_top.env.pa.out_mon [OUTPUT MONITOR] BRESP = 0 RRESP = 2 RDATA = 00000000
UVM_INFO axi4_lite_driver.sv(34) @ 805: uvm_test_top.env.aa.drv [DRV] awaddr = 94ab27f4 wdata = 1e9e1aef wstrb = 5 araddr = 00000034
UVM_INFO axi4_lite_scoreboard.sv(68) @ 805: uvm_test_top.env.scb [RRESP] Matched : exp_rresp=2 actual_rresp =2 write = 0 read = 1
UVM_INFO axi4_lite_scoreboard.sv(72) @ 805: uvm_test_top.env.scb [RDATA] Matched : exp_rdata=00000000 actual_rdata =00000000
UVM_INFO axi4_lite_subscriber.sv(41) @ 825: uvm_test_top.env.sb [sb] INPUT COVERAGE = 28.12 %
UVM_INFO axi4_lite_inp_monitor.sv(38) @ 825: uvm_test_top.env.aa.inp_mon [INPUT MONITOR] READ araddr=00000038
UVM_INFO axi4_lite_out_monitor.sv(28) @ 835: uvm_test_top.env.pa.out_mon [OUTPUT MONITOR] BRESP = 0 RRESP = 2 RDATA = 00000000
UVM_INFO axi4_lite_driver.sv(34) @ 835: uvm_test_top.env.aa.drv [DRV] awaddr = c930ac10 wdata = fc3b66b1 wstrb = 4 araddr = 00000038
UVM_INFO axi4_lite_scoreboard.sv(68) @ 835: uvm_test_top.env.scb [RRESP] Matched : exp_rresp=2 actual_rresp =2 write = 0 read = 1
UVM_INFO axi4_lite_scoreboard.sv(72) @ 835: uvm_test_top.env.scb [RDATA] Matched : exp_rdata=00000000 actual_rdata =00000000
UVM_INFO axi4_lite_subscriber.sv(41) @ 855: uvm_test_top.env.sb [sb] INPUT COVERAGE = 28.12 %
UVM_INFO axi4_lite_inp_monitor.sv(38) @ 855: uvm_test_top.env.aa.inp_mon [INPUT MONITOR] READ araddr=00000034
UVM_INFO axi4_lite_out_monitor.sv(28) @ 865: uvm_test_top.env.pa.out_mon [OUTPUT MONITOR] BRESP = 0 RRESP = 2 RDATA = 00000000
UVM_INFO axi4_lite_driver.sv(34) @ 865: uvm_test_top.env.aa.drv [DRV] awaddr = 429f2b0c wdata = 0688e9c0 wstrb = a araddr = 00000034
UVM_INFO axi4_lite_scoreboard.sv(68) @ 865: uvm_test_top.env.scb [RRESP] Matched : exp_rresp=2 actual_rresp =2 write = 0 read = 1
UVM_INFO axi4_lite_scoreboard.sv(72) @ 865: uvm_test_top.env.scb [RDATA] Matched : exp_rdata=00000000 actual_rdata =00000000
UVM_INFO axi4_lite_subscriber.sv(41) @ 885: uvm_test_top.env.sb [sb] INPUT COVERAGE = 28.12 %
UVM_INFO axi4_lite_inp_monitor.sv(38) @ 885: uvm_test_top.env.aa.inp_mon [INPUT MONITOR] READ araddr=00000038
UVM_INFO axi4_lite_out_monitor.sv(28) @ 895: uvm_test_top.env.pa.out_mon [OUTPUT MONITOR] BRESP = 0 RRESP = 2 RDATA = 00000000
UVM_INFO axi4_lite_driver.sv(34) @ 895: uvm_test_top.env.aa.drv [DRV] awaddr = 5b540784 wdata = dfb79157 wstrb = a araddr = 00000038
UVM_INFO axi4_lite_scoreboard.sv(68) @ 895: uvm_test_top.env.scb [RRESP] Matched : exp_rresp=2 actual_rresp =2 write = 0 read = 1
UVM_INFO axi4_lite_scoreboard.sv(72) @ 895: uvm_test_top.env.scb [RDATA] Matched : exp_rdata=00000000 actual_rdata =00000000
UVM_INFO axi4_lite_subscriber.sv(41) @ 915: uvm_test_top.env.sb [sb] INPUT COVERAGE = 28.12 %
UVM_INFO axi4_lite_inp_monitor.sv(38) @ 915: uvm_test_top.env.aa.inp_mon [INPUT MONITOR] READ araddr=00000034
UVM_INFO axi4_lite_out_monitor.sv(28) @ 925: uvm_test_top.env.pa.out_mon [OUTPUT MONITOR] BRESP = 0 RRESP = 2 RDATA = 00000000
UVM_INFO axi4_lite_driver.sv(34) @ 925: uvm_test_top.env.aa.drv [DRV] awaddr = 53ad02a4 wdata = 4be82100 wstrb = 5 araddr = 00000034
UVM_INFO axi4_lite_scoreboard.sv(68) @ 925: uvm_test_top.env.scb [RRESP] Matched : exp_rresp=2 actual_rresp =2 write = 0 read = 1
UVM_INFO axi4_lite_scoreboard.sv(72) @ 925: uvm_test_top.env.scb [RDATA] Matched : exp_rdata=00000000 actual_rdata =00000000
UVM_INFO axi4_lite_subscriber.sv(41) @ 945: uvm_test_top.env.sb [sb] INPUT COVERAGE = 28.12 %
UVM_INFO axi4_lite_inp_monitor.sv(38) @ 945: uvm_test_top.env.aa.inp_mon [INPUT MONITOR] READ araddr=00000038
UVM_INFO axi4_lite_out_monitor.sv(28) @ 955: uvm_test_top.env.pa.out_mon [OUTPUT MONITOR] BRESP = 0 RRESP = 2 RDATA = 00000000
UVM_INFO axi4_lite_driver.sv(34) @ 955: uvm_test_top.env.aa.drv [DRV] awaddr = 022a043c wdata = 933b6ddd wstrb = 8 araddr = 00000038
UVM_INFO axi4_lite_scoreboard.sv(68) @ 955: uvm_test_top.env.scb [RRESP] Matched : exp_rresp=2 actual_rresp =2 write = 0 read = 1
UVM_INFO axi4_lite_scoreboard.sv(72) @ 955: uvm_test_top.env.scb [RDATA] Matched : exp_rdata=00000000 actual_rdata =00000000
UVM_INFO axi4_lite_subscriber.sv(41) @ 975: uvm_test_top.env.sb [sb] INPUT COVERAGE = 28.12 %
UVM_INFO axi4_lite_inp_monitor.sv(38) @ 975: uvm_test_top.env.aa.inp_mon [INPUT MONITOR] READ araddr=00000034
UVM_INFO axi4_lite_out_monitor.sv(28) @ 985: uvm_test_top.env.pa.out_mon [OUTPUT MONITOR] BRESP = 0 RRESP = 2 RDATA = 00000000
UVM_INFO axi4_lite_driver.sv(34) @ 985: uvm_test_top.env.aa.drv [DRV] awaddr = 4041046c wdata = 30f9a7b2 wstrb = 3 araddr = 00000034
UVM_INFO axi4_lite_scoreboard.sv(68) @ 985: uvm_test_top.env.scb [RRESP] Matched : exp_rresp=2 actual_rresp =2 write = 0 read = 1
UVM_INFO axi4_lite_scoreboard.sv(72) @ 985: uvm_test_top.env.scb [RDATA] Matched : exp_rdata=00000000 actual_rdata =00000000
UVM_INFO axi4_lite_subscriber.sv(41) @ 1005: uvm_test_top.env.sb [sb] INPUT COVERAGE = 28.12 %
UVM_INFO axi4_lite_inp_monitor.sv(38) @ 1005: uvm_test_top.env.aa.inp_mon [INPUT MONITOR] READ araddr=00000034
UVM_INFO axi4_lite_out_monitor.sv(28) @ 1015: uvm_test_top.env.pa.out_mon [OUTPUT MONITOR] BRESP = 0 RRESP = 2 RDATA = 00000000
UVM_INFO axi4_lite_driver.sv(34) @ 1015: uvm_test_top.env.aa.drv [DRV] awaddr = 90c479c0 wdata = d71b9768 wstrb = 4 araddr = 00000034
UVM_INFO axi4_lite_scoreboard.sv(68) @ 1015: uvm_test_top.env.scb [RRESP] Matched : exp_rresp=2 actual_rresp =2 write = 0 read = 1
UVM_INFO axi4_lite_scoreboard.sv(72) @ 1015: uvm_test_top.env.scb [RDATA] Matched : exp_rdata=00000000 actual_rdata =00000000
UVM_INFO axi4_lite_subscriber.sv(41) @ 1035: uvm_test_top.env.sb [sb] INPUT COVERAGE = 28.12 %
UVM_INFO axi4_lite_inp_monitor.sv(38) @ 1035: uvm_test_top.env.aa.inp_mon [INPUT MONITOR] READ araddr=00000038
UVM_INFO axi4_lite_out_monitor.sv(28) @ 1045: uvm_test_top.env.pa.out_mon [OUTPUT MONITOR] BRESP = 0 RRESP = 2 RDATA = 00000000
UVM_INFO axi4_lite_driver.sv(34) @ 1045: uvm_test_top.env.aa.drv [DRV] awaddr = f77b7408 wdata = ac86cbab wstrb = 2 araddr = 00000038
UVM_INFO axi4_lite_scoreboard.sv(68) @ 1045: uvm_test_top.env.scb [RRESP] Matched : exp_rresp=2 actual_rresp =2 write = 0 read = 1
UVM_INFO axi4_lite_scoreboard.sv(72) @ 1045: uvm_test_top.env.scb [RDATA] Matched : exp_rdata=00000000 actual_rdata =00000000
UVM_INFO axi4_lite_subscriber.sv(41) @ 1065: uvm_test_top.env.sb [sb] INPUT COVERAGE = 28.12 %
UVM_INFO axi4_lite_inp_monitor.sv(38) @ 1065: uvm_test_top.env.aa.inp_mon [INPUT MONITOR] READ araddr=00000034
UVM_INFO axi4_lite_out_monitor.sv(28) @ 1075: uvm_test_top.env.pa.out_mon [OUTPUT MONITOR] BRESP = 0 RRESP = 2 RDATA = 00000000
UVM_INFO axi4_lite_driver.sv(34) @ 1075: uvm_test_top.env.aa.drv [DRV] awaddr = 7f89e524 wdata = ccae057f wstrb = 0 araddr = 00000034
UVM_INFO axi4_lite_scoreboard.sv(68) @ 1075: uvm_test_top.env.scb [RRESP] Matched : exp_rresp=2 actual_rresp =2 write = 0 read = 1
UVM_INFO axi4_lite_scoreboard.sv(72) @ 1075: uvm_test_top.env.scb [RDATA] Matched : exp_rdata=00000000 actual_rdata =00000000
UVM_INFO axi4_lite_subscriber.sv(41) @ 1095: uvm_test_top.env.sb [sb] INPUT COVERAGE = 28.12 %
UVM_INFO axi4_lite_inp_monitor.sv(38) @ 1095: uvm_test_top.env.aa.inp_mon [INPUT MONITOR] READ araddr=00000034
UVM_INFO axi4_lite_out_monitor.sv(28) @ 1105: uvm_test_top.env.pa.out_mon [OUTPUT MONITOR] BRESP = 0 RRESP = 2 RDATA = 00000000
UVM_INFO axi4_lite_driver.sv(34) @ 1105: uvm_test_top.env.aa.drv [DRV] awaddr = fdf42714 wdata = db3773bd wstrb = 8 araddr = 00000034
UVM_INFO axi4_lite_scoreboard.sv(68) @ 1105: uvm_test_top.env.scb [RRESP] Matched : exp_rresp=2 actual_rresp =2 write = 0 read = 1
UVM_INFO axi4_lite_scoreboard.sv(72) @ 1105: uvm_test_top.env.scb [RDATA] Matched : exp_rdata=00000000 actual_rdata =00000000
UVM_INFO axi4_lite_subscriber.sv(41) @ 1125: uvm_test_top.env.sb [sb] INPUT COVERAGE = 28.12 %
UVM_INFO axi4_lite_inp_monitor.sv(38) @ 1125: uvm_test_top.env.aa.inp_mon [INPUT MONITOR] READ araddr=00000038
UVM_INFO axi4_lite_out_monitor.sv(28) @ 1135: uvm_test_top.env.pa.out_mon [OUTPUT MONITOR] BRESP = 0 RRESP = 2 RDATA = 00000000
UVM_INFO axi4_lite_driver.sv(34) @ 1135: uvm_test_top.env.aa.drv [DRV] awaddr = a2840d54 wdata = a7572ffe wstrb = e araddr = 00000038
UVM_INFO axi4_lite_scoreboard.sv(68) @ 1135: uvm_test_top.env.scb [RRESP] Matched : exp_rresp=2 actual_rresp =2 write = 0 read = 1
UVM_INFO axi4_lite_scoreboard.sv(72) @ 1135: uvm_test_top.env.scb [RDATA] Matched : exp_rdata=00000000 actual_rdata =00000000
UVM_INFO axi4_lite_subscriber.sv(41) @ 1155: uvm_test_top.env.sb [sb] INPUT COVERAGE = 28.12 %
UVM_INFO axi4_lite_inp_monitor.sv(38) @ 1155: uvm_test_top.env.aa.inp_mon [INPUT MONITOR] READ araddr=00000038
UVM_INFO axi4_lite_out_monitor.sv(28) @ 1165: uvm_test_top.env.pa.out_mon [OUTPUT MONITOR] BRESP = 0 RRESP = 2 RDATA = 00000000
UVM_INFO axi4_lite_driver.sv(34) @ 1165: uvm_test_top.env.aa.drv [DRV] awaddr = 9645dd38 wdata = 069258ce wstrb = d araddr = 00000038
UVM_INFO axi4_lite_scoreboard.sv(68) @ 1165: uvm_test_top.env.scb [RRESP] Matched : exp_rresp=2 actual_rresp =2 write = 0 read = 1
UVM_INFO axi4_lite_scoreboard.sv(72) @ 1165: uvm_test_top.env.scb [RDATA] Matched : exp_rdata=00000000 actual_rdata =00000000
UVM_INFO axi4_lite_subscriber.sv(41) @ 1185: uvm_test_top.env.sb [sb] INPUT COVERAGE = 28.12 %
UVM_INFO axi4_lite_inp_monitor.sv(38) @ 1185: uvm_test_top.env.aa.inp_mon [INPUT MONITOR] READ araddr=00000038
UVM_INFO axi4_lite_out_monitor.sv(28) @ 1195: uvm_test_top.env.pa.out_mon [OUTPUT MONITOR] BRESP = 0 RRESP = 2 RDATA = 00000000
UVM_INFO axi4_lite_driver.sv(34) @ 1195: uvm_test_top.env.aa.drv [DRV] awaddr = 366cc96c wdata = c3da5f17 wstrb = 1 araddr = 00000038
UVM_INFO axi4_lite_scoreboard.sv(68) @ 1195: uvm_test_top.env.scb [RRESP] Matched : exp_rresp=2 actual_rresp =2 write = 0 read = 1
UVM_INFO axi4_lite_scoreboard.sv(72) @ 1195: uvm_test_top.env.scb [RDATA] Matched : exp_rdata=00000000 actual_rdata =00000000
UVM_INFO axi4_lite_subscriber.sv(41) @ 1215: uvm_test_top.env.sb [sb] INPUT COVERAGE = 28.12 %
UVM_INFO axi4_lite_inp_monitor.sv(38) @ 1215: uvm_test_top.env.aa.inp_mon [INPUT MONITOR] READ araddr=00000038
UVM_INFO axi4_lite_out_monitor.sv(28) @ 1225: uvm_test_top.env.pa.out_mon [OUTPUT MONITOR] BRESP = 0 RRESP = 2 RDATA = 00000000
UVM_INFO axi4_lite_driver.sv(34) @ 1225: uvm_test_top.env.aa.drv [DRV] awaddr = e50e38bc wdata = bb6ddcb4 wstrb = 6 araddr = 00000038
UVM_INFO axi4_lite_scoreboard.sv(68) @ 1225: uvm_test_top.env.scb [RRESP] Matched : exp_rresp=2 actual_rresp =2 write = 0 read = 1
UVM_INFO axi4_lite_scoreboard.sv(72) @ 1225: uvm_test_top.env.scb [RDATA] Matched : exp_rdata=00000000 actual_rdata =00000000
UVM_INFO axi4_lite_subscriber.sv(41) @ 1245: uvm_test_top.env.sb [sb] INPUT COVERAGE = 28.12 %
UVM_INFO axi4_lite_inp_monitor.sv(38) @ 1245: uvm_test_top.env.aa.inp_mon [INPUT MONITOR] READ araddr=00000034
UVM_INFO axi4_lite_out_monitor.sv(28) @ 1255: uvm_test_top.env.pa.out_mon [OUTPUT MONITOR] BRESP = 0 RRESP = 2 RDATA = 00000000
UVM_INFO axi4_lite_driver.sv(34) @ 1255: uvm_test_top.env.aa.drv [DRV] awaddr = 533ad8d4 wdata = e76c674b wstrb = 9 araddr = 00000034
UVM_INFO axi4_lite_scoreboard.sv(68) @ 1255: uvm_test_top.env.scb [RRESP] Matched : exp_rresp=2 actual_rresp =2 write = 0 read = 1
UVM_INFO axi4_lite_scoreboard.sv(72) @ 1255: uvm_test_top.env.scb [RDATA] Matched : exp_rdata=00000000 actual_rdata =00000000
UVM_INFO axi4_lite_subscriber.sv(41) @ 1275: uvm_test_top.env.sb [sb] INPUT COVERAGE = 28.12 %
UVM_INFO axi4_lite_inp_monitor.sv(38) @ 1275: uvm_test_top.env.aa.inp_mon [INPUT MONITOR] READ araddr=00000038
UVM_INFO axi4_lite_out_monitor.sv(28) @ 1285: uvm_test_top.env.pa.out_mon [OUTPUT MONITOR] BRESP = 0 RRESP = 2 RDATA = 00000000
UVM_INFO axi4_lite_driver.sv(34) @ 1285: uvm_test_top.env.aa.drv [DRV] awaddr = c8e45950 wdata = dc669f41 wstrb = 1 araddr = 00000038
UVM_INFO axi4_lite_scoreboard.sv(68) @ 1285: uvm_test_top.env.scb [RRESP] Matched : exp_rresp=2 actual_rresp =2 write = 0 read = 1
UVM_INFO axi4_lite_scoreboard.sv(72) @ 1285: uvm_test_top.env.scb [RDATA] Matched : exp_rdata=00000000 actual_rdata =00000000
UVM_INFO axi4_lite_subscriber.sv(41) @ 1305: uvm_test_top.env.sb [sb] INPUT COVERAGE = 28.12 %
UVM_INFO axi4_lite_inp_monitor.sv(38) @ 1305: uvm_test_top.env.aa.inp_mon [INPUT MONITOR] READ araddr=00000034
UVM_INFO axi4_lite_out_monitor.sv(28) @ 1315: uvm_test_top.env.pa.out_mon [OUTPUT MONITOR] BRESP = 0 RRESP = 2 RDATA = 00000000
UVM_INFO axi4_lite_driver.sv(34) @ 1315: uvm_test_top.env.aa.drv [DRV] awaddr = c0717c70 wdata = 7baead7a wstrb = 2 araddr = 00000034
UVM_INFO axi4_lite_scoreboard.sv(68) @ 1315: uvm_test_top.env.scb [RRESP] Matched : exp_rresp=2 actual_rresp =2 write = 0 read = 1
UVM_INFO axi4_lite_scoreboard.sv(72) @ 1315: uvm_test_top.env.scb [RDATA] Matched : exp_rdata=00000000 actual_rdata =00000000
UVM_INFO axi4_lite_subscriber.sv(41) @ 1335: uvm_test_top.env.sb [sb] INPUT COVERAGE = 28.12 %
UVM_INFO axi4_lite_inp_monitor.sv(38) @ 1335: uvm_test_top.env.aa.inp_mon [INPUT MONITOR] READ araddr=00000034
UVM_INFO axi4_lite_out_monitor.sv(28) @ 1345: uvm_test_top.env.pa.out_mon [OUTPUT MONITOR] BRESP = 0 RRESP = 2 RDATA = 00000000
UVM_INFO axi4_lite_driver.sv(34) @ 1345: uvm_test_top.env.aa.drv [DRV] awaddr = b359eba4 wdata = 70fa01de wstrb = 4 araddr = 00000034
UVM_INFO axi4_lite_scoreboard.sv(68) @ 1345: uvm_test_top.env.scb [RRESP] Matched : exp_rresp=2 actual_rresp =2 write = 0 read = 1
UVM_INFO axi4_lite_scoreboard.sv(72) @ 1345: uvm_test_top.env.scb [RDATA] Matched : exp_rdata=00000000 actual_rdata =00000000
UVM_INFO axi4_lite_subscriber.sv(41) @ 1365: uvm_test_top.env.sb [sb] INPUT COVERAGE = 28.12 %
UVM_INFO axi4_lite_inp_monitor.sv(38) @ 1365: uvm_test_top.env.aa.inp_mon [INPUT MONITOR] READ araddr=00000038
UVM_INFO axi4_lite_out_monitor.sv(28) @ 1375: uvm_test_top.env.pa.out_mon [OUTPUT MONITOR] BRESP = 0 RRESP = 2 RDATA = 00000000
UVM_INFO axi4_lite_driver.sv(34) @ 1375: uvm_test_top.env.aa.drv [DRV] awaddr = 825d9230 wdata = 3d678167 wstrb = 1 araddr = 00000038
UVM_INFO axi4_lite_scoreboard.sv(68) @ 1375: uvm_test_top.env.scb [RRESP] Matched : exp_rresp=2 actual_rresp =2 write = 0 read = 1
UVM_INFO axi4_lite_scoreboard.sv(72) @ 1375: uvm_test_top.env.scb [RDATA] Matched : exp_rdata=00000000 actual_rdata =00000000
UVM_INFO axi4_lite_subscriber.sv(41) @ 1395: uvm_test_top.env.sb [sb] INPUT COVERAGE = 28.12 %
UVM_INFO axi4_lite_inp_monitor.sv(38) @ 1395: uvm_test_top.env.aa.inp_mon [INPUT MONITOR] READ araddr=00000034
UVM_INFO axi4_lite_out_monitor.sv(28) @ 1405: uvm_test_top.env.pa.out_mon [OUTPUT MONITOR] BRESP = 0 RRESP = 2 RDATA = 00000000
UVM_INFO axi4_lite_driver.sv(34) @ 1405: uvm_test_top.env.aa.drv [DRV] awaddr = 1577ae98 wdata = b7b6e9f1 wstrb = 4 araddr = 00000034
UVM_INFO axi4_lite_scoreboard.sv(68) @ 1405: uvm_test_top.env.scb [RRESP] Matched : exp_rresp=2 actual_rresp =2 write = 0 read = 1
UVM_INFO axi4_lite_scoreboard.sv(72) @ 1405: uvm_test_top.env.scb [RDATA] Matched : exp_rdata=00000000 actual_rdata =00000000
UVM_INFO axi4_lite_subscriber.sv(41) @ 1425: uvm_test_top.env.sb [sb] INPUT COVERAGE = 28.12 %
UVM_INFO axi4_lite_inp_monitor.sv(38) @ 1425: uvm_test_top.env.aa.inp_mon [INPUT MONITOR] READ araddr=00000038
UVM_INFO axi4_lite_out_monitor.sv(28) @ 1435: uvm_test_top.env.pa.out_mon [OUTPUT MONITOR] BRESP = 0 RRESP = 2 RDATA = 00000000
UVM_INFO axi4_lite_driver.sv(34) @ 1435: uvm_test_top.env.aa.drv [DRV] awaddr = f218984c wdata = a795eb99 wstrb = 9 araddr = 00000038
UVM_INFO axi4_lite_scoreboard.sv(68) @ 1435: uvm_test_top.env.scb [RRESP] Matched : exp_rresp=2 actual_rresp =2 write = 0 read = 1
UVM_INFO axi4_lite_scoreboard.sv(72) @ 1435: uvm_test_top.env.scb [RDATA] Matched : exp_rdata=00000000 actual_rdata =00000000
UVM_INFO axi4_lite_subscriber.sv(41) @ 1455: uvm_test_top.env.sb [sb] INPUT COVERAGE = 28.12 %
UVM_INFO axi4_lite_inp_monitor.sv(38) @ 1455: uvm_test_top.env.aa.inp_mon [INPUT MONITOR] READ araddr=00000038
UVM_INFO axi4_lite_out_monitor.sv(28) @ 1465: uvm_test_top.env.pa.out_mon [OUTPUT MONITOR] BRESP = 0 RRESP = 2 RDATA = 00000000
UVM_INFO axi4_lite_driver.sv(34) @ 1465: uvm_test_top.env.aa.drv [DRV] awaddr = b4baffc4 wdata = d077dfca wstrb = 3 araddr = 00000038
UVM_INFO axi4_lite_scoreboard.sv(68) @ 1465: uvm_test_top.env.scb [RRESP] Matched : exp_rresp=2 actual_rresp =2 write = 0 read = 1
UVM_INFO axi4_lite_scoreboard.sv(72) @ 1465: uvm_test_top.env.scb [RDATA] Matched : exp_rdata=00000000 actual_rdata =00000000
UVM_INFO axi4_lite_subscriber.sv(41) @ 1485: uvm_test_top.env.sb [sb] INPUT COVERAGE = 28.12 %
UVM_INFO axi4_lite_inp_monitor.sv(38) @ 1485: uvm_test_top.env.aa.inp_mon [INPUT MONITOR] READ araddr=00000034
UVM_INFO axi4_lite_out_monitor.sv(28) @ 1495: uvm_test_top.env.pa.out_mon [OUTPUT MONITOR] BRESP = 0 RRESP = 2 RDATA = 00000000
UVM_INFO axi4_lite_driver.sv(34) @ 1495: uvm_test_top.env.aa.drv [DRV] awaddr = 1d36d808 wdata = 84f7be0a wstrb = 4 araddr = 00000034
UVM_INFO axi4_lite_scoreboard.sv(68) @ 1495: uvm_test_top.env.scb [RRESP] Matched : exp_rresp=2 actual_rresp =2 write = 0 read = 1
UVM_INFO axi4_lite_scoreboard.sv(72) @ 1495: uvm_test_top.env.scb [RDATA] Matched : exp_rdata=00000000 actual_rdata =00000000
UVM_INFO axi4_lite_subscriber.sv(41) @ 1515: uvm_test_top.env.sb [sb] INPUT COVERAGE = 28.12 %
UVM_INFO axi4_lite_inp_monitor.sv(38) @ 1515: uvm_test_top.env.aa.inp_mon [INPUT MONITOR] READ araddr=00000038
UVM_INFO axi4_lite_out_monitor.sv(28) @ 1525: uvm_test_top.env.pa.out_mon [OUTPUT MONITOR] BRESP = 0 RRESP = 2 RDATA = 00000000
UVM_INFO axi4_lite_driver.sv(34) @ 1525: uvm_test_top.env.aa.drv [DRV] awaddr = 519829a4 wdata = cce94125 wstrb = 9 araddr = 00000038
UVM_INFO axi4_lite_scoreboard.sv(68) @ 1525: uvm_test_top.env.scb [RRESP] Matched : exp_rresp=2 actual_rresp =2 write = 0 read = 1
UVM_INFO axi4_lite_scoreboard.sv(72) @ 1525: uvm_test_top.env.scb [RDATA] Matched : exp_rdata=00000000 actual_rdata =00000000
UVM_INFO axi4_lite_subscriber.sv(41) @ 1545: uvm_test_top.env.sb [sb] INPUT COVERAGE = 28.12 %
UVM_INFO axi4_lite_inp_monitor.sv(38) @ 1545: uvm_test_top.env.aa.inp_mon [INPUT MONITOR] READ araddr=00000038
UVM_INFO axi4_lite_out_monitor.sv(28) @ 1555: uvm_test_top.env.pa.out_mon [OUTPUT MONITOR] BRESP = 0 RRESP = 2 RDATA = 00000000
UVM_INFO axi4_lite_driver.sv(34) @ 1555: uvm_test_top.env.aa.drv [DRV] awaddr = 4d31bb9c wdata = 36d38b25 wstrb = 4 araddr = 00000038
UVM_INFO axi4_lite_scoreboard.sv(68) @ 1555: uvm_test_top.env.scb [RRESP] Matched : exp_rresp=2 actual_rresp =2 write = 0 read = 1
UVM_INFO axi4_lite_scoreboard.sv(72) @ 1555: uvm_test_top.env.scb [RDATA] Matched : exp_rdata=00000000 actual_rdata =00000000
UVM_INFO axi4_lite_subscriber.sv(41) @ 1575: uvm_test_top.env.sb [sb] INPUT COVERAGE = 28.12 %
UVM_INFO axi4_lite_inp_monitor.sv(38) @ 1575: uvm_test_top.env.aa.inp_mon [INPUT MONITOR] READ araddr=00000038
UVM_INFO axi4_lite_out_monitor.sv(28) @ 1585: uvm_test_top.env.pa.out_mon [OUTPUT MONITOR] BRESP = 0 RRESP = 2 RDATA = 00000000
UVM_INFO axi4_lite_driver.sv(34) @ 1585: uvm_test_top.env.aa.drv [DRV] awaddr = f37be024 wdata = 51016edd wstrb = e araddr = 00000038
UVM_INFO axi4_lite_scoreboard.sv(68) @ 1585: uvm_test_top.env.scb [RRESP] Matched : exp_rresp=2 actual_rresp =2 write = 0 read = 1
UVM_INFO axi4_lite_scoreboard.sv(72) @ 1585: uvm_test_top.env.scb [RDATA] Matched : exp_rdata=00000000 actual_rdata =00000000
UVM_INFO axi4_lite_subscriber.sv(41) @ 1605: uvm_test_top.env.sb [sb] INPUT COVERAGE = 28.12 %
UVM_INFO axi4_lite_inp_monitor.sv(38) @ 1605: uvm_test_top.env.aa.inp_mon [INPUT MONITOR] READ araddr=00000038
UVM_INFO axi4_lite_out_monitor.sv(28) @ 1615: uvm_test_top.env.pa.out_mon [OUTPUT MONITOR] BRESP = 0 RRESP = 2 RDATA = 00000000
UVM_INFO axi4_lite_driver.sv(34) @ 1615: uvm_test_top.env.aa.drv [DRV] awaddr = 539d1dd4 wdata = d408c7ca wstrb = 7 araddr = 00000038
UVM_INFO axi4_lite_scoreboard.sv(68) @ 1615: uvm_test_top.env.scb [RRESP] Matched : exp_rresp=2 actual_rresp =2 write = 0 read = 1
UVM_INFO axi4_lite_scoreboard.sv(72) @ 1615: uvm_test_top.env.scb [RDATA] Matched : exp_rdata=00000000 actual_rdata =00000000
UVM_INFO axi4_lite_subscriber.sv(41) @ 1635: uvm_test_top.env.sb [sb] INPUT COVERAGE = 28.12 %
UVM_INFO axi4_lite_inp_monitor.sv(38) @ 1635: uvm_test_top.env.aa.inp_mon [INPUT MONITOR] READ araddr=00000034
UVM_INFO axi4_lite_out_monitor.sv(28) @ 1645: uvm_test_top.env.pa.out_mon [OUTPUT MONITOR] BRESP = 0 RRESP = 2 RDATA = 00000000
UVM_INFO axi4_lite_driver.sv(34) @ 1645: uvm_test_top.env.aa.drv [DRV] awaddr = 00910d88 wdata = 5b634587 wstrb = a araddr = 00000034
UVM_INFO axi4_lite_scoreboard.sv(68) @ 1645: uvm_test_top.env.scb [RRESP] Matched : exp_rresp=2 actual_rresp =2 write = 0 read = 1
UVM_INFO axi4_lite_scoreboard.sv(72) @ 1645: uvm_test_top.env.scb [RDATA] Matched : exp_rdata=00000000 actual_rdata =00000000
UVM_INFO axi4_lite_subscriber.sv(41) @ 1665: uvm_test_top.env.sb [sb] INPUT COVERAGE = 28.12 %
UVM_INFO axi4_lite_inp_monitor.sv(38) @ 1665: uvm_test_top.env.aa.inp_mon [INPUT MONITOR] READ araddr=00000038
UVM_INFO axi4_lite_out_monitor.sv(28) @ 1675: uvm_test_top.env.pa.out_mon [OUTPUT MONITOR] BRESP = 0 RRESP = 2 RDATA = 00000000
UVM_INFO axi4_lite_driver.sv(34) @ 1675: uvm_test_top.env.aa.drv [DRV] awaddr = 8a8b70e8 wdata = d619807a wstrb = 9 araddr = 00000038
UVM_INFO axi4_lite_scoreboard.sv(68) @ 1675: uvm_test_top.env.scb [RRESP] Matched : exp_rresp=2 actual_rresp =2 write = 0 read = 1
UVM_INFO axi4_lite_scoreboard.sv(72) @ 1675: uvm_test_top.env.scb [RDATA] Matched : exp_rdata=00000000 actual_rdata =00000000
UVM_INFO axi4_lite_subscriber.sv(41) @ 1695: uvm_test_top.env.sb [sb] INPUT COVERAGE = 28.12 %
UVM_INFO axi4_lite_inp_monitor.sv(38) @ 1695: uvm_test_top.env.aa.inp_mon [INPUT MONITOR] READ araddr=00000034
UVM_INFO axi4_lite_out_monitor.sv(28) @ 1705: uvm_test_top.env.pa.out_mon [OUTPUT MONITOR] BRESP = 0 RRESP = 2 RDATA = 00000000
UVM_INFO axi4_lite_driver.sv(34) @ 1705: uvm_test_top.env.aa.drv [DRV] awaddr = e9897afc wdata = e8a246da wstrb = 4 araddr = 00000034
UVM_INFO axi4_lite_scoreboard.sv(68) @ 1705: uvm_test_top.env.scb [RRESP] Matched : exp_rresp=2 actual_rresp =2 write = 0 read = 1
UVM_INFO axi4_lite_scoreboard.sv(72) @ 1705: uvm_test_top.env.scb [RDATA] Matched : exp_rdata=00000000 actual_rdata =00000000
UVM_INFO axi4_lite_subscriber.sv(41) @ 1725: uvm_test_top.env.sb [sb] INPUT COVERAGE = 28.12 %
UVM_INFO axi4_lite_inp_monitor.sv(38) @ 1725: uvm_test_top.env.aa.inp_mon [INPUT MONITOR] READ araddr=00000034
UVM_INFO axi4_lite_out_monitor.sv(28) @ 1735: uvm_test_top.env.pa.out_mon [OUTPUT MONITOR] BRESP = 0 RRESP = 2 RDATA = 00000000
UVM_INFO axi4_lite_driver.sv(34) @ 1735: uvm_test_top.env.aa.drv [DRV] awaddr = eba9ab34 wdata = 69999d4a wstrb = 7 araddr = 00000034
UVM_INFO axi4_lite_scoreboard.sv(68) @ 1735: uvm_test_top.env.scb [RRESP] Matched : exp_rresp=2 actual_rresp =2 write = 0 read = 1
UVM_INFO axi4_lite_scoreboard.sv(72) @ 1735: uvm_test_top.env.scb [RDATA] Matched : exp_rdata=00000000 actual_rdata =00000000
UVM_INFO axi4_lite_subscriber.sv(41) @ 1755: uvm_test_top.env.sb [sb] INPUT COVERAGE = 28.12 %
UVM_INFO axi4_lite_inp_monitor.sv(38) @ 1755: uvm_test_top.env.aa.inp_mon [INPUT MONITOR] READ araddr=00000034
UVM_INFO axi4_lite_out_monitor.sv(28) @ 1765: uvm_test_top.env.pa.out_mon [OUTPUT MONITOR] BRESP = 0 RRESP = 2 RDATA = 00000000
UVM_INFO axi4_lite_driver.sv(34) @ 1765: uvm_test_top.env.aa.drv [DRV] awaddr = 12bdff8c wdata = 352504c3 wstrb = 3 araddr = 00000034
UVM_INFO axi4_lite_scoreboard.sv(68) @ 1765: uvm_test_top.env.scb [RRESP] Matched : exp_rresp=2 actual_rresp =2 write = 0 read = 1
UVM_INFO axi4_lite_scoreboard.sv(72) @ 1765: uvm_test_top.env.scb [RDATA] Matched : exp_rdata=00000000 actual_rdata =00000000
UVM_INFO axi4_lite_subscriber.sv(41) @ 1785: uvm_test_top.env.sb [sb] INPUT COVERAGE = 28.12 %
UVM_INFO axi4_lite_inp_monitor.sv(38) @ 1785: uvm_test_top.env.aa.inp_mon [INPUT MONITOR] READ araddr=00000034
UVM_INFO axi4_lite_out_monitor.sv(28) @ 1795: uvm_test_top.env.pa.out_mon [OUTPUT MONITOR] BRESP = 0 RRESP = 2 RDATA = 00000000
UVM_INFO axi4_lite_driver.sv(34) @ 1795: uvm_test_top.env.aa.drv [DRV] awaddr = 7e2781ec wdata = 95e81c89 wstrb = 2 araddr = 00000034
UVM_INFO axi4_lite_scoreboard.sv(68) @ 1795: uvm_test_top.env.scb [RRESP] Matched : exp_rresp=2 actual_rresp =2 write = 0 read = 1
UVM_INFO axi4_lite_scoreboard.sv(72) @ 1795: uvm_test_top.env.scb [RDATA] Matched : exp_rdata=00000000 actual_rdata =00000000
UVM_INFO axi4_lite_subscriber.sv(41) @ 1815: uvm_test_top.env.sb [sb] INPUT COVERAGE = 28.12 %
UVM_INFO axi4_lite_inp_monitor.sv(38) @ 1815: uvm_test_top.env.aa.inp_mon [INPUT MONITOR] READ araddr=00000038
UVM_INFO axi4_lite_out_monitor.sv(28) @ 1825: uvm_test_top.env.pa.out_mon [OUTPUT MONITOR] BRESP = 0 RRESP = 2 RDATA = 00000000
UVM_INFO axi4_lite_driver.sv(34) @ 1825: uvm_test_top.env.aa.drv [DRV] awaddr = 97154bb8 wdata = da19c1c4 wstrb = 3 araddr = 00000038
UVM_INFO axi4_lite_scoreboard.sv(68) @ 1825: uvm_test_top.env.scb [RRESP] Matched : exp_rresp=2 actual_rresp =2 write = 0 read = 1
UVM_INFO axi4_lite_scoreboard.sv(72) @ 1825: uvm_test_top.env.scb [RDATA] Matched : exp_rdata=00000000 actual_rdata =00000000
UVM_INFO axi4_lite_subscriber.sv(41) @ 1845: uvm_test_top.env.sb [sb] INPUT COVERAGE = 28.12 %
UVM_INFO axi4_lite_inp_monitor.sv(38) @ 1845: uvm_test_top.env.aa.inp_mon [INPUT MONITOR] READ araddr=00000034
UVM_INFO axi4_lite_out_monitor.sv(28) @ 1855: uvm_test_top.env.pa.out_mon [OUTPUT MONITOR] BRESP = 0 RRESP = 2 RDATA = 00000000
UVM_INFO axi4_lite_driver.sv(34) @ 1855: uvm_test_top.env.aa.drv [DRV] awaddr = adefc604 wdata = 5fc25039 wstrb = a araddr = 00000034
UVM_INFO axi4_lite_scoreboard.sv(68) @ 1855: uvm_test_top.env.scb [RRESP] Matched : exp_rresp=2 actual_rresp =2 write = 0 read = 1
UVM_INFO axi4_lite_scoreboard.sv(72) @ 1855: uvm_test_top.env.scb [RDATA] Matched : exp_rdata=00000000 actual_rdata =00000000
UVM_INFO axi4_lite_subscriber.sv(41) @ 1875: uvm_test_top.env.sb [sb] INPUT COVERAGE = 28.12 %
UVM_INFO axi4_lite_inp_monitor.sv(38) @ 1875: uvm_test_top.env.aa.inp_mon [INPUT MONITOR] READ araddr=00000038
UVM_INFO axi4_lite_out_monitor.sv(28) @ 1885: uvm_test_top.env.pa.out_mon [OUTPUT MONITOR] BRESP = 0 RRESP = 2 RDATA = 00000000
UVM_INFO axi4_lite_driver.sv(34) @ 1885: uvm_test_top.env.aa.drv [DRV] awaddr = d79980b0 wdata = 6a296e25 wstrb = 1 araddr = 00000038
UVM_INFO axi4_lite_scoreboard.sv(68) @ 1885: uvm_test_top.env.scb [RRESP] Matched : exp_rresp=2 actual_rresp =2 write = 0 read = 1
UVM_INFO axi4_lite_scoreboard.sv(72) @ 1885: uvm_test_top.env.scb [RDATA] Matched : exp_rdata=00000000 actual_rdata =00000000
UVM_INFO axi4_lite_subscriber.sv(41) @ 1905: uvm_test_top.env.sb [sb] INPUT COVERAGE = 28.12 %
UVM_INFO axi4_lite_inp_monitor.sv(38) @ 1905: uvm_test_top.env.aa.inp_mon [INPUT MONITOR] READ araddr=00000038
UVM_INFO axi4_lite_out_monitor.sv(28) @ 1915: uvm_test_top.env.pa.out_mon [OUTPUT MONITOR] BRESP = 0 RRESP = 2 RDATA = 00000000
UVM_INFO axi4_lite_driver.sv(34) @ 1915: uvm_test_top.env.aa.drv [DRV] awaddr = f1349a08 wdata = e8ddeed7 wstrb = f araddr = 00000038
UVM_INFO axi4_lite_scoreboard.sv(68) @ 1915: uvm_test_top.env.scb [RRESP] Matched : exp_rresp=2 actual_rresp =2 write = 0 read = 1
UVM_INFO axi4_lite_scoreboard.sv(72) @ 1915: uvm_test_top.env.scb [RDATA] Matched : exp_rdata=00000000 actual_rdata =00000000
UVM_INFO axi4_lite_subscriber.sv(41) @ 1935: uvm_test_top.env.sb [sb] INPUT COVERAGE = 28.12 %
UVM_INFO axi4_lite_inp_monitor.sv(38) @ 1935: uvm_test_top.env.aa.inp_mon [INPUT MONITOR] READ araddr=00000034
UVM_INFO axi4_lite_out_monitor.sv(28) @ 1945: uvm_test_top.env.pa.out_mon [OUTPUT MONITOR] BRESP = 0 RRESP = 2 RDATA = 00000000
UVM_INFO axi4_lite_driver.sv(34) @ 1945: uvm_test_top.env.aa.drv [DRV] awaddr = 587ae310 wdata = 6206adc2 wstrb = c araddr = 00000034
UVM_INFO axi4_lite_scoreboard.sv(68) @ 1945: uvm_test_top.env.scb [RRESP] Matched : exp_rresp=2 actual_rresp =2 write = 0 read = 1
UVM_INFO axi4_lite_scoreboard.sv(72) @ 1945: uvm_test_top.env.scb [RDATA] Matched : exp_rdata=00000000 actual_rdata =00000000
UVM_INFO axi4_lite_subscriber.sv(41) @ 1965: uvm_test_top.env.sb [sb] INPUT COVERAGE = 28.12 %
UVM_INFO axi4_lite_inp_monitor.sv(38) @ 1965: uvm_test_top.env.aa.inp_mon [INPUT MONITOR] READ araddr=00000038
UVM_INFO axi4_lite_out_monitor.sv(28) @ 1975: uvm_test_top.env.pa.out_mon [OUTPUT MONITOR] BRESP = 0 RRESP = 2 RDATA = 00000000
UVM_INFO axi4_lite_driver.sv(34) @ 1975: uvm_test_top.env.aa.drv [DRV] awaddr = 031b582c wdata = 10737034 wstrb = 4 araddr = 00000038
UVM_INFO axi4_lite_scoreboard.sv(68) @ 1975: uvm_test_top.env.scb [RRESP] Matched : exp_rresp=2 actual_rresp =2 write = 0 read = 1
UVM_INFO axi4_lite_scoreboard.sv(72) @ 1975: uvm_test_top.env.scb [RDATA] Matched : exp_rdata=00000000 actual_rdata =00000000
UVM_INFO axi4_lite_subscriber.sv(41) @ 1995: uvm_test_top.env.sb [sb] INPUT COVERAGE = 28.12 %
UVM_INFO axi4_lite_inp_monitor.sv(38) @ 1995: uvm_test_top.env.aa.inp_mon [INPUT MONITOR] READ araddr=00000034
UVM_INFO axi4_lite_out_monitor.sv(28) @ 2005: uvm_test_top.env.pa.out_mon [OUTPUT MONITOR] BRESP = 0 RRESP = 2 RDATA = 00000000
UVM_INFO axi4_lite_driver.sv(34) @ 2005: uvm_test_top.env.aa.drv [DRV] awaddr = ef372340 wdata = 24d9d0f7 wstrb = 8 araddr = 00000034
UVM_INFO axi4_lite_scoreboard.sv(68) @ 2005: uvm_test_top.env.scb [RRESP] Matched : exp_rresp=2 actual_rresp =2 write = 0 read = 1
UVM_INFO axi4_lite_scoreboard.sv(72) @ 2005: uvm_test_top.env.scb [RDATA] Matched : exp_rdata=00000000 actual_rdata =00000000
UVM_INFO axi4_lite_subscriber.sv(41) @ 2025: uvm_test_top.env.sb [sb] INPUT COVERAGE = 28.12 %
UVM_INFO axi4_lite_inp_monitor.sv(38) @ 2025: uvm_test_top.env.aa.inp_mon [INPUT MONITOR] READ araddr=00000034
UVM_INFO axi4_lite_out_monitor.sv(28) @ 2035: uvm_test_top.env.pa.out_mon [OUTPUT MONITOR] BRESP = 0 RRESP = 2 RDATA = 00000000
UVM_INFO axi4_lite_driver.sv(34) @ 2035: uvm_test_top.env.aa.drv [DRV] awaddr = ddc516f4 wdata = a12b0994 wstrb = f araddr = 00000034
UVM_INFO axi4_lite_scoreboard.sv(68) @ 2035: uvm_test_top.env.scb [RRESP] Matched : exp_rresp=2 actual_rresp =2 write = 0 read = 1
UVM_INFO axi4_lite_scoreboard.sv(72) @ 2035: uvm_test_top.env.scb [RDATA] Matched : exp_rdata=00000000 actual_rdata =00000000
UVM_INFO axi4_lite_subscriber.sv(41) @ 2055: uvm_test_top.env.sb [sb] INPUT COVERAGE = 28.12 %
UVM_INFO axi4_lite_inp_monitor.sv(38) @ 2055: uvm_test_top.env.aa.inp_mon [INPUT MONITOR] READ araddr=00000034
UVM_INFO axi4_lite_out_monitor.sv(28) @ 2065: uvm_test_top.env.pa.out_mon [OUTPUT MONITOR] BRESP = 0 RRESP = 2 RDATA = 00000000
UVM_INFO axi4_lite_driver.sv(34) @ 2065: uvm_test_top.env.aa.drv [DRV] awaddr = 63f6a184 wdata = 3d09486a wstrb = f araddr = 00000034
UVM_INFO axi4_lite_scoreboard.sv(68) @ 2065: uvm_test_top.env.scb [RRESP] Matched : exp_rresp=2 actual_rresp =2 write = 0 read = 1
UVM_INFO axi4_lite_scoreboard.sv(72) @ 2065: uvm_test_top.env.scb [RDATA] Matched : exp_rdata=00000000 actual_rdata =00000000
UVM_INFO axi4_lite_subscriber.sv(41) @ 2085: uvm_test_top.env.sb [sb] INPUT COVERAGE = 28.12 %
UVM_INFO axi4_lite_inp_monitor.sv(38) @ 2085: uvm_test_top.env.aa.inp_mon [INPUT MONITOR] READ araddr=00000038
UVM_INFO axi4_lite_out_monitor.sv(28) @ 2095: uvm_test_top.env.pa.out_mon [OUTPUT MONITOR] BRESP = 0 RRESP = 2 RDATA = 00000000
UVM_INFO axi4_lite_driver.sv(34) @ 2095: uvm_test_top.env.aa.drv [DRV] awaddr = 781bef48 wdata = 61a40dfc wstrb = a araddr = 00000038
UVM_INFO axi4_lite_scoreboard.sv(68) @ 2095: uvm_test_top.env.scb [RRESP] Matched : exp_rresp=2 actual_rresp =2 write = 0 read = 1
UVM_INFO axi4_lite_scoreboard.sv(72) @ 2095: uvm_test_top.env.scb [RDATA] Matched : exp_rdata=00000000 actual_rdata =00000000
UVM_INFO axi4_lite_subscriber.sv(41) @ 2115: uvm_test_top.env.sb [sb] INPUT COVERAGE = 28.12 %
UVM_INFO axi4_lite_inp_monitor.sv(38) @ 2115: uvm_test_top.env.aa.inp_mon [INPUT MONITOR] READ araddr=00000034
UVM_INFO axi4_lite_out_monitor.sv(28) @ 2125: uvm_test_top.env.pa.out_mon [OUTPUT MONITOR] BRESP = 0 RRESP = 2 RDATA = 00000000
UVM_INFO axi4_lite_driver.sv(34) @ 2125: uvm_test_top.env.aa.drv [DRV] awaddr = 525517fc wdata = d4b5acf7 wstrb = b araddr = 00000034
UVM_INFO axi4_lite_scoreboard.sv(68) @ 2125: uvm_test_top.env.scb [RRESP] Matched : exp_rresp=2 actual_rresp =2 write = 0 read = 1
UVM_INFO axi4_lite_scoreboard.sv(72) @ 2125: uvm_test_top.env.scb [RDATA] Matched : exp_rdata=00000000 actual_rdata =00000000
UVM_INFO axi4_lite_subscriber.sv(41) @ 2145: uvm_test_top.env.sb [sb] INPUT COVERAGE = 28.12 %
UVM_INFO axi4_lite_inp_monitor.sv(38) @ 2145: uvm_test_top.env.aa.inp_mon [INPUT MONITOR] READ araddr=00000038
UVM_INFO axi4_lite_out_monitor.sv(28) @ 2155: uvm_test_top.env.pa.out_mon [OUTPUT MONITOR] BRESP = 0 RRESP = 2 RDATA = 00000000
UVM_INFO axi4_lite_driver.sv(34) @ 2155: uvm_test_top.env.aa.drv [DRV] awaddr = 39fe7d54 wdata = b8fb1510 wstrb = 3 araddr = 00000038
UVM_INFO axi4_lite_scoreboard.sv(68) @ 2155: uvm_test_top.env.scb [RRESP] Matched : exp_rresp=2 actual_rresp =2 write = 0 read = 1
UVM_INFO axi4_lite_scoreboard.sv(72) @ 2155: uvm_test_top.env.scb [RDATA] Matched : exp_rdata=00000000 actual_rdata =00000000
UVM_INFO axi4_lite_subscriber.sv(41) @ 2175: uvm_test_top.env.sb [sb] INPUT COVERAGE = 28.12 %
UVM_INFO axi4_lite_inp_monitor.sv(38) @ 2175: uvm_test_top.env.aa.inp_mon [INPUT MONITOR] READ araddr=00000034
UVM_INFO axi4_lite_out_monitor.sv(28) @ 2185: uvm_test_top.env.pa.out_mon [OUTPUT MONITOR] BRESP = 0 RRESP = 2 RDATA = 00000000
UVM_INFO axi4_lite_driver.sv(34) @ 2185: uvm_test_top.env.aa.drv [DRV] awaddr = e9ccb6e8 wdata = c9bd00aa wstrb = f araddr = 00000034
UVM_INFO axi4_lite_scoreboard.sv(68) @ 2185: uvm_test_top.env.scb [RRESP] Matched : exp_rresp=2 actual_rresp =2 write = 0 read = 1
UVM_INFO axi4_lite_scoreboard.sv(72) @ 2185: uvm_test_top.env.scb [RDATA] Matched : exp_rdata=00000000 actual_rdata =00000000
UVM_INFO axi4_lite_subscriber.sv(41) @ 2205: uvm_test_top.env.sb [sb] INPUT COVERAGE = 28.12 %
UVM_INFO axi4_lite_inp_monitor.sv(38) @ 2205: uvm_test_top.env.aa.inp_mon [INPUT MONITOR] READ araddr=00000034
UVM_INFO axi4_lite_out_monitor.sv(28) @ 2215: uvm_test_top.env.pa.out_mon [OUTPUT MONITOR] BRESP = 0 RRESP = 2 RDATA = 00000000
UVM_INFO axi4_lite_driver.sv(34) @ 2215: uvm_test_top.env.aa.drv [DRV] awaddr = 3dbbf7d4 wdata = acac8c46 wstrb = f araddr = 00000034
UVM_INFO axi4_lite_scoreboard.sv(68) @ 2215: uvm_test_top.env.scb [RRESP] Matched : exp_rresp=2 actual_rresp =2 write = 0 read = 1
UVM_INFO axi4_lite_scoreboard.sv(72) @ 2215: uvm_test_top.env.scb [RDATA] Matched : exp_rdata=00000000 actual_rdata =00000000
UVM_INFO axi4_lite_subscriber.sv(41) @ 2235: uvm_test_top.env.sb [sb] INPUT COVERAGE = 28.12 %
UVM_INFO axi4_lite_inp_monitor.sv(38) @ 2235: uvm_test_top.env.aa.inp_mon [INPUT MONITOR] READ araddr=00000038
UVM_INFO axi4_lite_out_monitor.sv(28) @ 2245: uvm_test_top.env.pa.out_mon [OUTPUT MONITOR] BRESP = 0 RRESP = 2 RDATA = 00000000
UVM_INFO axi4_lite_driver.sv(34) @ 2245: uvm_test_top.env.aa.drv [DRV] awaddr = e5a8952c wdata = 191310f0 wstrb = 5 araddr = 00000038
UVM_INFO axi4_lite_scoreboard.sv(68) @ 2245: uvm_test_top.env.scb [RRESP] Matched : exp_rresp=2 actual_rresp =2 write = 0 read = 1
UVM_INFO axi4_lite_scoreboard.sv(72) @ 2245: uvm_test_top.env.scb [RDATA] Matched : exp_rdata=00000000 actual_rdata =00000000
UVM_INFO axi4_lite_subscriber.sv(41) @ 2265: uvm_test_top.env.sb [sb] INPUT COVERAGE = 28.12 %
UVM_INFO axi4_lite_inp_monitor.sv(38) @ 2265: uvm_test_top.env.aa.inp_mon [INPUT MONITOR] READ araddr=00000034
UVM_INFO axi4_lite_out_monitor.sv(28) @ 2275: uvm_test_top.env.pa.out_mon [OUTPUT MONITOR] BRESP = 0 RRESP = 2 RDATA = 00000000
UVM_INFO axi4_lite_driver.sv(34) @ 2275: uvm_test_top.env.aa.drv [DRV] awaddr = 71c83a1c wdata = c966e043 wstrb = 1 araddr = 00000034
UVM_INFO axi4_lite_scoreboard.sv(68) @ 2275: uvm_test_top.env.scb [RRESP] Matched : exp_rresp=2 actual_rresp =2 write = 0 read = 1
UVM_INFO axi4_lite_scoreboard.sv(72) @ 2275: uvm_test_top.env.scb [RDATA] Matched : exp_rdata=00000000 actual_rdata =00000000
UVM_INFO axi4_lite_subscriber.sv(41) @ 2295: uvm_test_top.env.sb [sb] INPUT COVERAGE = 28.12 %
UVM_INFO axi4_lite_inp_monitor.sv(38) @ 2295: uvm_test_top.env.aa.inp_mon [INPUT MONITOR] READ araddr=00000034
UVM_INFO axi4_lite_out_monitor.sv(28) @ 2305: uvm_test_top.env.pa.out_mon [OUTPUT MONITOR] BRESP = 0 RRESP = 2 RDATA = 00000000
UVM_INFO axi4_lite_driver.sv(34) @ 2305: uvm_test_top.env.aa.drv [DRV] awaddr = af590694 wdata = b3f936d6 wstrb = a araddr = 00000034
UVM_INFO axi4_lite_scoreboard.sv(68) @ 2305: uvm_test_top.env.scb [RRESP] Matched : exp_rresp=2 actual_rresp =2 write = 0 read = 1
UVM_INFO axi4_lite_scoreboard.sv(72) @ 2305: uvm_test_top.env.scb [RDATA] Matched : exp_rdata=00000000 actual_rdata =00000000
UVM_INFO axi4_lite_subscriber.sv(41) @ 2325: uvm_test_top.env.sb [sb] INPUT COVERAGE = 28.12 %
UVM_INFO axi4_lite_inp_monitor.sv(38) @ 2325: uvm_test_top.env.aa.inp_mon [INPUT MONITOR] READ araddr=00000034
UVM_INFO axi4_lite_out_monitor.sv(28) @ 2335: uvm_test_top.env.pa.out_mon [OUTPUT MONITOR] BRESP = 0 RRESP = 2 RDATA = 00000000
UVM_INFO axi4_lite_driver.sv(34) @ 2335: uvm_test_top.env.aa.drv [DRV] awaddr = 635f285c wdata = 803062ec wstrb = 5 araddr = 00000034
UVM_INFO axi4_lite_scoreboard.sv(68) @ 2335: uvm_test_top.env.scb [RRESP] Matched : exp_rresp=2 actual_rresp =2 write = 0 read = 1
UVM_INFO axi4_lite_scoreboard.sv(72) @ 2335: uvm_test_top.env.scb [RDATA] Matched : exp_rdata=00000000 actual_rdata =00000000
UVM_INFO axi4_lite_subscriber.sv(41) @ 2355: uvm_test_top.env.sb [sb] INPUT COVERAGE = 28.12 %
UVM_INFO axi4_lite_inp_monitor.sv(38) @ 2355: uvm_test_top.env.aa.inp_mon [INPUT MONITOR] READ araddr=00000038
UVM_INFO axi4_lite_out_monitor.sv(28) @ 2365: uvm_test_top.env.pa.out_mon [OUTPUT MONITOR] BRESP = 0 RRESP = 2 RDATA = 00000000
UVM_INFO axi4_lite_driver.sv(34) @ 2365: uvm_test_top.env.aa.drv [DRV] awaddr = edef6918 wdata = 19efe4b2 wstrb = e araddr = 00000038
UVM_INFO axi4_lite_scoreboard.sv(68) @ 2365: uvm_test_top.env.scb [RRESP] Matched : exp_rresp=2 actual_rresp =2 write = 0 read = 1
UVM_INFO axi4_lite_scoreboard.sv(72) @ 2365: uvm_test_top.env.scb [RDATA] Matched : exp_rdata=00000000 actual_rdata =00000000
UVM_INFO axi4_lite_subscriber.sv(41) @ 2385: uvm_test_top.env.sb [sb] INPUT COVERAGE = 28.12 %
UVM_INFO axi4_lite_inp_monitor.sv(38) @ 2385: uvm_test_top.env.aa.inp_mon [INPUT MONITOR] READ araddr=00000038
UVM_INFO axi4_lite_out_monitor.sv(28) @ 2395: uvm_test_top.env.pa.out_mon [OUTPUT MONITOR] BRESP = 0 RRESP = 2 RDATA = 00000000
UVM_INFO axi4_lite_driver.sv(34) @ 2395: uvm_test_top.env.aa.drv [DRV] awaddr = c8ea24d0 wdata = 09cadfff wstrb = 1 araddr = 00000038
UVM_INFO axi4_lite_scoreboard.sv(68) @ 2395: uvm_test_top.env.scb [RRESP] Matched : exp_rresp=2 actual_rresp =2 write = 0 read = 1
UVM_INFO axi4_lite_scoreboard.sv(72) @ 2395: uvm_test_top.env.scb [RDATA] Matched : exp_rdata=00000000 actual_rdata =00000000
UVM_INFO axi4_lite_subscriber.sv(41) @ 2415: uvm_test_top.env.sb [sb] INPUT COVERAGE = 28.12 %
UVM_INFO axi4_lite_inp_monitor.sv(38) @ 2415: uvm_test_top.env.aa.inp_mon [INPUT MONITOR] READ araddr=00000038
UVM_INFO axi4_lite_out_monitor.sv(28) @ 2425: uvm_test_top.env.pa.out_mon [OUTPUT MONITOR] BRESP = 0 RRESP = 2 RDATA = 00000000
UVM_INFO axi4_lite_driver.sv(34) @ 2425: uvm_test_top.env.aa.drv [DRV] awaddr = 6a5e02bc wdata = 6f1b8fa7 wstrb = b araddr = 00000038
UVM_INFO axi4_lite_scoreboard.sv(68) @ 2425: uvm_test_top.env.scb [RRESP] Matched : exp_rresp=2 actual_rresp =2 write = 0 read = 1
UVM_INFO axi4_lite_scoreboard.sv(72) @ 2425: uvm_test_top.env.scb [RDATA] Matched : exp_rdata=00000000 actual_rdata =00000000
UVM_INFO axi4_lite_subscriber.sv(41) @ 2445: uvm_test_top.env.sb [sb] INPUT COVERAGE = 28.12 %
UVM_INFO axi4_lite_inp_monitor.sv(38) @ 2445: uvm_test_top.env.aa.inp_mon [INPUT MONITOR] READ araddr=00000034
UVM_INFO axi4_lite_out_monitor.sv(28) @ 2455: uvm_test_top.env.pa.out_mon [OUTPUT MONITOR] BRESP = 0 RRESP = 2 RDATA = 00000000
UVM_INFO axi4_lite_driver.sv(34) @ 2455: uvm_test_top.env.aa.drv [DRV] awaddr = 79d071a0 wdata = f1ea2404 wstrb = 1 araddr = 00000034
UVM_INFO axi4_lite_scoreboard.sv(68) @ 2455: uvm_test_top.env.scb [RRESP] Matched : exp_rresp=2 actual_rresp =2 write = 0 read = 1
UVM_INFO axi4_lite_scoreboard.sv(72) @ 2455: uvm_test_top.env.scb [RDATA] Matched : exp_rdata=00000000 actual_rdata =00000000
UVM_INFO axi4_lite_subscriber.sv(41) @ 2475: uvm_test_top.env.sb [sb] INPUT COVERAGE = 28.12 %
UVM_INFO axi4_lite_inp_monitor.sv(38) @ 2475: uvm_test_top.env.aa.inp_mon [INPUT MONITOR] READ araddr=00000038
UVM_INFO axi4_lite_out_monitor.sv(28) @ 2485: uvm_test_top.env.pa.out_mon [OUTPUT MONITOR] BRESP = 0 RRESP = 2 RDATA = 00000000
UVM_INFO axi4_lite_driver.sv(34) @ 2485: uvm_test_top.env.aa.drv [DRV] awaddr = a696ff10 wdata = 0cf9caa1 wstrb = a araddr = 00000038
UVM_INFO axi4_lite_scoreboard.sv(68) @ 2485: uvm_test_top.env.scb [RRESP] Matched : exp_rresp=2 actual_rresp =2 write = 0 read = 1
UVM_INFO axi4_lite_scoreboard.sv(72) @ 2485: uvm_test_top.env.scb [RDATA] Matched : exp_rdata=00000000 actual_rdata =00000000
UVM_INFO axi4_lite_subscriber.sv(41) @ 2505: uvm_test_top.env.sb [sb] INPUT COVERAGE = 28.12 %
UVM_INFO axi4_lite_inp_monitor.sv(38) @ 2505: uvm_test_top.env.aa.inp_mon [INPUT MONITOR] READ araddr=00000038
UVM_INFO axi4_lite_out_monitor.sv(28) @ 2515: uvm_test_top.env.pa.out_mon [OUTPUT MONITOR] BRESP = 0 RRESP = 2 RDATA = 00000000
UVM_INFO axi4_lite_driver.sv(34) @ 2515: uvm_test_top.env.aa.drv [DRV] awaddr = 87a21768 wdata = f75e1e0c wstrb = 4 araddr = 00000038
UVM_INFO axi4_lite_scoreboard.sv(68) @ 2515: uvm_test_top.env.scb [RRESP] Matched : exp_rresp=2 actual_rresp =2 write = 0 read = 1
UVM_INFO axi4_lite_scoreboard.sv(72) @ 2515: uvm_test_top.env.scb [RDATA] Matched : exp_rdata=00000000 actual_rdata =00000000
UVM_INFO axi4_lite_subscriber.sv(41) @ 2535: uvm_test_top.env.sb [sb] INPUT COVERAGE = 28.12 %
UVM_INFO axi4_lite_inp_monitor.sv(38) @ 2535: uvm_test_top.env.aa.inp_mon [INPUT MONITOR] READ araddr=00000038
UVM_INFO axi4_lite_out_monitor.sv(28) @ 2545: uvm_test_top.env.pa.out_mon [OUTPUT MONITOR] BRESP = 0 RRESP = 2 RDATA = 00000000
UVM_INFO axi4_lite_driver.sv(34) @ 2545: uvm_test_top.env.aa.drv [DRV] awaddr = 16f3e594 wdata = 681b8b6b wstrb = 8 araddr = 00000038
UVM_INFO axi4_lite_scoreboard.sv(68) @ 2545: uvm_test_top.env.scb [RRESP] Matched : exp_rresp=2 actual_rresp =2 write = 0 read = 1
UVM_INFO axi4_lite_scoreboard.sv(72) @ 2545: uvm_test_top.env.scb [RDATA] Matched : exp_rdata=00000000 actual_rdata =00000000
UVM_INFO axi4_lite_subscriber.sv(41) @ 2565: uvm_test_top.env.sb [sb] INPUT COVERAGE = 28.12 %
UVM_INFO axi4_lite_inp_monitor.sv(38) @ 2565: uvm_test_top.env.aa.inp_mon [INPUT MONITOR] READ araddr=00000038
UVM_INFO axi4_lite_out_monitor.sv(28) @ 2575: uvm_test_top.env.pa.out_mon [OUTPUT MONITOR] BRESP = 0 RRESP = 2 RDATA = 00000000
UVM_INFO axi4_lite_driver.sv(34) @ 2575: uvm_test_top.env.aa.drv [DRV] awaddr = 08ad8fb8 wdata = b61acb9c wstrb = 5 araddr = 00000038
UVM_INFO axi4_lite_scoreboard.sv(68) @ 2575: uvm_test_top.env.scb [RRESP] Matched : exp_rresp=2 actual_rresp =2 write = 0 read = 1
UVM_INFO axi4_lite_scoreboard.sv(72) @ 2575: uvm_test_top.env.scb [RDATA] Matched : exp_rdata=00000000 actual_rdata =00000000
UVM_INFO axi4_lite_subscriber.sv(41) @ 2595: uvm_test_top.env.sb [sb] INPUT COVERAGE = 28.12 %
UVM_INFO axi4_lite_inp_monitor.sv(38) @ 2595: uvm_test_top.env.aa.inp_mon [INPUT MONITOR] READ araddr=00000034
UVM_INFO axi4_lite_out_monitor.sv(28) @ 2605: uvm_test_top.env.pa.out_mon [OUTPUT MONITOR] BRESP = 0 RRESP = 2 RDATA = 00000000
UVM_INFO axi4_lite_driver.sv(34) @ 2605: uvm_test_top.env.aa.drv [DRV] awaddr = c09c273c wdata = bce6240f wstrb = f araddr = 00000034
UVM_INFO axi4_lite_scoreboard.sv(68) @ 2605: uvm_test_top.env.scb [RRESP] Matched : exp_rresp=2 actual_rresp =2 write = 0 read = 1
UVM_INFO axi4_lite_scoreboard.sv(72) @ 2605: uvm_test_top.env.scb [RDATA] Matched : exp_rdata=00000000 actual_rdata =00000000
UVM_INFO axi4_lite_subscriber.sv(41) @ 2625: uvm_test_top.env.sb [sb] INPUT COVERAGE = 28.12 %
UVM_INFO axi4_lite_inp_monitor.sv(38) @ 2625: uvm_test_top.env.aa.inp_mon [INPUT MONITOR] READ araddr=00000034
UVM_INFO axi4_lite_out_monitor.sv(28) @ 2635: uvm_test_top.env.pa.out_mon [OUTPUT MONITOR] BRESP = 0 RRESP = 2 RDATA = 00000000
UVM_INFO axi4_lite_driver.sv(34) @ 2635: uvm_test_top.env.aa.drv [DRV] awaddr = ea33cdd4 wdata = 243a7ba9 wstrb = c araddr = 00000034
UVM_INFO axi4_lite_scoreboard.sv(68) @ 2635: uvm_test_top.env.scb [RRESP] Matched : exp_rresp=2 actual_rresp =2 write = 0 read = 1
UVM_INFO axi4_lite_scoreboard.sv(72) @ 2635: uvm_test_top.env.scb [RDATA] Matched : exp_rdata=00000000 actual_rdata =00000000
UVM_INFO axi4_lite_subscriber.sv(41) @ 2655: uvm_test_top.env.sb [sb] INPUT COVERAGE = 28.12 %
UVM_INFO axi4_lite_inp_monitor.sv(38) @ 2655: uvm_test_top.env.aa.inp_mon [INPUT MONITOR] READ araddr=00000038
UVM_INFO axi4_lite_out_monitor.sv(28) @ 2665: uvm_test_top.env.pa.out_mon [OUTPUT MONITOR] BRESP = 0 RRESP = 2 RDATA = 00000000
UVM_INFO axi4_lite_driver.sv(34) @ 2665: uvm_test_top.env.aa.drv [DRV] awaddr = 3ce16d6c wdata = d62b77b9 wstrb = e araddr = 00000038
UVM_INFO axi4_lite_scoreboard.sv(68) @ 2665: uvm_test_top.env.scb [RRESP] Matched : exp_rresp=2 actual_rresp =2 write = 0 read = 1
UVM_INFO axi4_lite_scoreboard.sv(72) @ 2665: uvm_test_top.env.scb [RDATA] Matched : exp_rdata=00000000 actual_rdata =00000000
UVM_INFO axi4_lite_subscriber.sv(41) @ 2685: uvm_test_top.env.sb [sb] INPUT COVERAGE = 28.12 %
UVM_INFO axi4_lite_inp_monitor.sv(38) @ 2685: uvm_test_top.env.aa.inp_mon [INPUT MONITOR] READ araddr=00000034
UVM_INFO axi4_lite_out_monitor.sv(28) @ 2695: uvm_test_top.env.pa.out_mon [OUTPUT MONITOR] BRESP = 0 RRESP = 2 RDATA = 00000000
UVM_INFO axi4_lite_driver.sv(34) @ 2695: uvm_test_top.env.aa.drv [DRV] awaddr = aad6aec4 wdata = c179696f wstrb = 1 araddr = 00000034
UVM_INFO axi4_lite_scoreboard.sv(68) @ 2695: uvm_test_top.env.scb [RRESP] Matched : exp_rresp=2 actual_rresp =2 write = 0 read = 1
UVM_INFO axi4_lite_scoreboard.sv(72) @ 2695: uvm_test_top.env.scb [RDATA] Matched : exp_rdata=00000000 actual_rdata =00000000
UVM_INFO axi4_lite_subscriber.sv(41) @ 2715: uvm_test_top.env.sb [sb] INPUT COVERAGE = 28.12 %
UVM_INFO axi4_lite_inp_monitor.sv(38) @ 2715: uvm_test_top.env.aa.inp_mon [INPUT MONITOR] READ araddr=00000038
UVM_INFO axi4_lite_out_monitor.sv(28) @ 2725: uvm_test_top.env.pa.out_mon [OUTPUT MONITOR] BRESP = 0 RRESP = 2 RDATA = 00000000
UVM_INFO axi4_lite_driver.sv(34) @ 2725: uvm_test_top.env.aa.drv [DRV] awaddr = cdda32a8 wdata = db10a7ee wstrb = c araddr = 00000038
UVM_INFO axi4_lite_scoreboard.sv(68) @ 2725: uvm_test_top.env.scb [RRESP] Matched : exp_rresp=2 actual_rresp =2 write = 0 read = 1
UVM_INFO axi4_lite_scoreboard.sv(72) @ 2725: uvm_test_top.env.scb [RDATA] Matched : exp_rdata=00000000 actual_rdata =00000000
UVM_INFO axi4_lite_subscriber.sv(41) @ 2745: uvm_test_top.env.sb [sb] INPUT COVERAGE = 28.12 %
UVM_INFO axi4_lite_inp_monitor.sv(38) @ 2745: uvm_test_top.env.aa.inp_mon [INPUT MONITOR] READ araddr=00000038
UVM_INFO axi4_lite_out_monitor.sv(28) @ 2755: uvm_test_top.env.pa.out_mon [OUTPUT MONITOR] BRESP = 0 RRESP = 2 RDATA = 00000000
UVM_INFO axi4_lite_driver.sv(34) @ 2755: uvm_test_top.env.aa.drv [DRV] awaddr = 3ad82d50 wdata = 371c3ff3 wstrb = c araddr = 00000038
UVM_INFO axi4_lite_scoreboard.sv(68) @ 2755: uvm_test_top.env.scb [RRESP] Matched : exp_rresp=2 actual_rresp =2 write = 0 read = 1
UVM_INFO axi4_lite_scoreboard.sv(72) @ 2755: uvm_test_top.env.scb [RDATA] Matched : exp_rdata=00000000 actual_rdata =00000000
UVM_INFO axi4_lite_subscriber.sv(41) @ 2775: uvm_test_top.env.sb [sb] INPUT COVERAGE = 28.12 %
UVM_INFO axi4_lite_inp_monitor.sv(38) @ 2775: uvm_test_top.env.aa.inp_mon [INPUT MONITOR] READ araddr=00000034
UVM_INFO axi4_lite_out_monitor.sv(28) @ 2785: uvm_test_top.env.pa.out_mon [OUTPUT MONITOR] BRESP = 0 RRESP = 2 RDATA = 00000000
UVM_INFO axi4_lite_driver.sv(34) @ 2785: uvm_test_top.env.aa.drv [DRV] awaddr = 118d939c wdata = 8956c93b wstrb = c araddr = 00000034
UVM_INFO axi4_lite_scoreboard.sv(68) @ 2785: uvm_test_top.env.scb [RRESP] Matched : exp_rresp=2 actual_rresp =2 write = 0 read = 1
UVM_INFO axi4_lite_scoreboard.sv(72) @ 2785: uvm_test_top.env.scb [RDATA] Matched : exp_rdata=00000000 actual_rdata =00000000
UVM_INFO axi4_lite_subscriber.sv(41) @ 2805: uvm_test_top.env.sb [sb] INPUT COVERAGE = 28.12 %
UVM_INFO axi4_lite_inp_monitor.sv(38) @ 2805: uvm_test_top.env.aa.inp_mon [INPUT MONITOR] READ araddr=00000034
UVM_INFO axi4_lite_out_monitor.sv(28) @ 2815: uvm_test_top.env.pa.out_mon [OUTPUT MONITOR] BRESP = 0 RRESP = 2 RDATA = 00000000
UVM_INFO axi4_lite_driver.sv(34) @ 2815: uvm_test_top.env.aa.drv [DRV] awaddr = f412bd70 wdata = 7d3ea2c6 wstrb = e araddr = 00000034
UVM_INFO axi4_lite_scoreboard.sv(68) @ 2815: uvm_test_top.env.scb [RRESP] Matched : exp_rresp=2 actual_rresp =2 write = 0 read = 1
UVM_INFO axi4_lite_scoreboard.sv(72) @ 2815: uvm_test_top.env.scb [RDATA] Matched : exp_rdata=00000000 actual_rdata =00000000
UVM_INFO axi4_lite_subscriber.sv(41) @ 2835: uvm_test_top.env.sb [sb] INPUT COVERAGE = 28.12 %
UVM_INFO axi4_lite_inp_monitor.sv(38) @ 2835: uvm_test_top.env.aa.inp_mon [INPUT MONITOR] READ araddr=00000038
UVM_INFO axi4_lite_out_monitor.sv(28) @ 2845: uvm_test_top.env.pa.out_mon [OUTPUT MONITOR] BRESP = 0 RRESP = 2 RDATA = 00000000
UVM_INFO axi4_lite_driver.sv(34) @ 2845: uvm_test_top.env.aa.drv [DRV] awaddr = b33119f0 wdata = 10e372ed wstrb = 8 araddr = 00000038
UVM_INFO axi4_lite_scoreboard.sv(68) @ 2845: uvm_test_top.env.scb [RRESP] Matched : exp_rresp=2 actual_rresp =2 write = 0 read = 1
UVM_INFO axi4_lite_scoreboard.sv(72) @ 2845: uvm_test_top.env.scb [RDATA] Matched : exp_rdata=00000000 actual_rdata =00000000
UVM_INFO axi4_lite_subscriber.sv(41) @ 2865: uvm_test_top.env.sb [sb] INPUT COVERAGE = 28.12 %
UVM_INFO axi4_lite_inp_monitor.sv(38) @ 2865: uvm_test_top.env.aa.inp_mon [INPUT MONITOR] READ araddr=00000038
UVM_INFO axi4_lite_out_monitor.sv(28) @ 2875: uvm_test_top.env.pa.out_mon [OUTPUT MONITOR] BRESP = 0 RRESP = 2 RDATA = 00000000
UVM_INFO axi4_lite_driver.sv(34) @ 2875: uvm_test_top.env.aa.drv [DRV] awaddr = cee793a8 wdata = af3c3d53 wstrb = 9 araddr = 00000038
UVM_INFO axi4_lite_scoreboard.sv(68) @ 2875: uvm_test_top.env.scb [RRESP] Matched : exp_rresp=2 actual_rresp =2 write = 0 read = 1
UVM_INFO axi4_lite_scoreboard.sv(72) @ 2875: uvm_test_top.env.scb [RDATA] Matched : exp_rdata=00000000 actual_rdata =00000000
UVM_INFO axi4_lite_subscriber.sv(41) @ 2895: uvm_test_top.env.sb [sb] INPUT COVERAGE = 28.12 %
UVM_INFO axi4_lite_inp_monitor.sv(38) @ 2895: uvm_test_top.env.aa.inp_mon [INPUT MONITOR] READ araddr=00000034
UVM_INFO axi4_lite_out_monitor.sv(28) @ 2905: uvm_test_top.env.pa.out_mon [OUTPUT MONITOR] BRESP = 0 RRESP = 2 RDATA = 00000000
UVM_INFO axi4_lite_driver.sv(34) @ 2905: uvm_test_top.env.aa.drv [DRV] awaddr = b5536f94 wdata = c43eb87e wstrb = 5 araddr = 00000034
UVM_INFO axi4_lite_scoreboard.sv(68) @ 2905: uvm_test_top.env.scb [RRESP] Matched : exp_rresp=2 actual_rresp =2 write = 0 read = 1
UVM_INFO axi4_lite_scoreboard.sv(72) @ 2905: uvm_test_top.env.scb [RDATA] Matched : exp_rdata=00000000 actual_rdata =00000000
UVM_INFO axi4_lite_subscriber.sv(41) @ 2925: uvm_test_top.env.sb [sb] INPUT COVERAGE = 28.12 %
UVM_INFO axi4_lite_inp_monitor.sv(38) @ 2925: uvm_test_top.env.aa.inp_mon [INPUT MONITOR] READ araddr=00000034
UVM_INFO axi4_lite_out_monitor.sv(28) @ 2935: uvm_test_top.env.pa.out_mon [OUTPUT MONITOR] BRESP = 0 RRESP = 2 RDATA = 00000000
UVM_INFO axi4_lite_driver.sv(34) @ 2935: uvm_test_top.env.aa.drv [DRV] awaddr = 8e3391d4 wdata = ffacbfbb wstrb = 9 araddr = 00000034
UVM_INFO axi4_lite_scoreboard.sv(68) @ 2935: uvm_test_top.env.scb [RRESP] Matched : exp_rresp=2 actual_rresp =2 write = 0 read = 1
UVM_INFO axi4_lite_scoreboard.sv(72) @ 2935: uvm_test_top.env.scb [RDATA] Matched : exp_rdata=00000000 actual_rdata =00000000
UVM_INFO axi4_lite_subscriber.sv(41) @ 2955: uvm_test_top.env.sb [sb] INPUT COVERAGE = 28.12 %
UVM_INFO axi4_lite_inp_monitor.sv(38) @ 2955: uvm_test_top.env.aa.inp_mon [INPUT MONITOR] READ araddr=00000038
UVM_INFO axi4_lite_out_monitor.sv(28) @ 2965: uvm_test_top.env.pa.out_mon [OUTPUT MONITOR] BRESP = 0 RRESP = 2 RDATA = 00000000
UVM_INFO axi4_lite_driver.sv(34) @ 2965: uvm_test_top.env.aa.drv [DRV] awaddr = dd8930c4 wdata = da9687e7 wstrb = c araddr = 00000038
UVM_INFO axi4_lite_scoreboard.sv(68) @ 2965: uvm_test_top.env.scb [RRESP] Matched : exp_rresp=2 actual_rresp =2 write = 0 read = 1
UVM_INFO axi4_lite_scoreboard.sv(72) @ 2965: uvm_test_top.env.scb [RDATA] Matched : exp_rdata=00000000 actual_rdata =00000000
UVM_INFO axi4_lite_subscriber.sv(41) @ 2985: uvm_test_top.env.sb [sb] INPUT COVERAGE = 28.12 %
UVM_INFO axi4_lite_inp_monitor.sv(38) @ 2985: uvm_test_top.env.aa.inp_mon [INPUT MONITOR] READ araddr=00000034
UVM_INFO axi4_lite_out_monitor.sv(28) @ 2995: uvm_test_top.env.pa.out_mon [OUTPUT MONITOR] BRESP = 0 RRESP = 2 RDATA = 00000000
UVM_INFO axi4_lite_driver.sv(34) @ 2995: uvm_test_top.env.aa.drv [DRV] awaddr = 8ac91224 wdata = e0594cfb wstrb = 4 araddr = 00000034
UVM_INFO axi4_lite_scoreboard.sv(68) @ 2995: uvm_test_top.env.scb [RRESP] Matched : exp_rresp=2 actual_rresp =2 write = 0 read = 1
UVM_INFO axi4_lite_scoreboard.sv(72) @ 2995: uvm_test_top.env.scb [RDATA] Matched : exp_rdata=00000000 actual_rdata =00000000
UVM_INFO axi4_lite_test.sv(72) @ 2995: uvm_test_top [TEST] Read to wo completed
UVM_INFO /fetools/synopsys/installed_tools/vcs/vcs/Q-2020.03-SP2-8/etc/uvm/base/uvm_objection.svh(1274) @ 2995: reporter [TEST_DONE] 'run' phase is ready to proceed to the 'extract' phase

--- UVM Report Summary ---

** Report counts by severity
UVM_INFO :  604
UVM_WARNING :    0
UVM_ERROR :    0
UVM_FATAL :    0
** Report counts by id
[DRV]   100
[INPUT MONITOR]   100
[OUTPUT MONITOR]   100
[RDATA]   100
[RNTST]     1
[RRESP]   100
[TEST]     1
[TEST_DONE]     1
[UVMTOP]     1
[sb]   100
$finish called from file "/fetools/synopsys/installed_tools/vcs/vcs/Q-2020.03-SP2-8/etc/uvm/base/uvm_root.svh", line 437.
$finish at simulation time                 2995

---------------------------------------------------------------------------
VCS Coverage Metrics: during simulation line, cond, FSM, branch, tgl was monitored
---------------------------------------------------------------------------
           V C S   S i m u l a t i o n   R e p o r t 
Time: 2995 ns
CPU Time:      0.530 seconds;       Data structure size:   0.4Mb
Fri Sep 18 14:20:27 2026
