Command: /fetools/work_area/frontend/Batch_11/ananyaganesh/system_verilog/AXI4_LITE_SLAVE/src/work/simv +UVM_TESTNAME=axi4_lite_test_write_ro +UVM_VERBOSITY=UVM_HIGH +ntb_random_seed=9886 -cm line+cond+fsm+tgl+branch+assert -cm_dir work/regression.vdb -cm_name axi4_lite_test_write_ro_9886 -l work/logs/axi4_lite_test_write_ro_9886.log +UVM_NO_RELNOTES
Chronologic VCS simulator copyright 1991-2020
Contains Synopsys proprietary information.
Compiler version Q-2020.03-SP2-8_Full64; Runtime version Q-2020.03-SP2-8_Full64;  Sep 17 16:19 2026
----------------------------------------------------------------
UVM-1.1d.Synopsys
(C) 2007-2013 Mentor Graphics Corporation
(C) 2007-2013 Cadence Design Systems, Inc.
(C) 2006-2013 Synopsys, Inc.
(C) 2011-2013 Cypress Semiconductor Corp.
----------------------------------------------------------------
UVM_INFO @ 0: reporter [RNTST] Running test axi4_lite_test_write_ro...
UVM_INFO @ 0: reporter [UVMTOP] UVM testbench topology:
---------------------------------------------------------------
Name                       Type                     Size  Value
---------------------------------------------------------------
uvm_test_top               axi4_lite_test_write_ro  -     @469 
  env                      axi4_lite_environment    -     @477 
    aa                     axi4_lite_active_agent   -     @489 
      drv                  axi4_lite_driver         -     @569 
        rsp_port           uvm_analysis_port        -     @586 
        seq_item_port      uvm_seq_item_pull_port   -     @577 
      inp_mon              axi4_lite_inp_monitor    -     @552 
        inp_mon_port       uvm_analysis_port        -     @560 
      seqr                 axi4_lite_seqr           -     @595 
        rsp_export         uvm_analysis_export      -     @603 
        seq_item_export    uvm_seq_item_pull_imp    -     @709 
        arbitration_queue  array                    0     -    
        lock_queue         array                    0     -    
        num_last_reqs      integral                 32    'd1  
        num_last_rsps      integral                 32    'd1  
    pa                     axi4_lite_passive_agent  -     @497 
      out_mon              axi4_lite_out_monitor    -     @726 
        out_mon_port       uvm_analysis_port        -     @734 
    sb                     axi4_lite_subscriber     -     @531 
      analysis_imp         uvm_analysis_imp         -     @539 
    scb                    axi4_lite_scoreboard     -     @505 
      inp_port             uvm_analysis_imp_in      -     @513 
      out_port             uvm_analysis_imp_out     -     @522 
---------------------------------------------------------------

UVM_INFO axi4_lite_subscriber.sv(41) @ 45: uvm_test_top.env.sb [sb] INPUT COVERAGE = 25.00 %
UVM_INFO axi4_lite_inp_monitor.sv(44) @ 45: uvm_test_top.env.aa.inp_mon [INPUT MONITOR]  WRITE awaddr=00000030 wdata=9bf608b3 wstrb=1011 
UVM_INFO axi4_lite_out_monitor.sv(28) @ 65: uvm_test_top.env.pa.out_mon [OUTPUT MONITOR] BRESP = 2 RRESP = 0 RDATA = 00000000
UVM_INFO axi4_lite_driver.sv(34) @ 65: uvm_test_top.env.aa.drv [DRV] awaddr = 00000030 wdata = 9bf608b3 wstrb = b araddr = 61322390
UVM_INFO axi4_lite_scoreboard.sv(52) @ 65: uvm_test_top.env.scb [BRESP] Matched : exp_bresp= 2 actual_bresp=2 write = 1 read = 0
UVM_INFO axi4_lite_subscriber.sv(41) @ 95: uvm_test_top.env.sb [sb] INPUT COVERAGE = 33.33 %
UVM_INFO axi4_lite_inp_monitor.sv(44) @ 95: uvm_test_top.env.aa.inp_mon [INPUT MONITOR]  WRITE awaddr=0000002c wdata=2f36e81e wstrb=0111 
UVM_INFO axi4_lite_out_monitor.sv(28) @ 115: uvm_test_top.env.pa.out_mon [OUTPUT MONITOR] BRESP = 2 RRESP = 0 RDATA = 00000000
UVM_INFO axi4_lite_driver.sv(34) @ 115: uvm_test_top.env.aa.drv [DRV] awaddr = 0000002c wdata = 2f36e81e wstrb = 7 araddr = 96963508
UVM_INFO axi4_lite_scoreboard.sv(52) @ 115: uvm_test_top.env.scb [BRESP] Matched : exp_bresp= 2 actual_bresp=2 write = 1 read = 0
UVM_INFO axi4_lite_subscriber.sv(41) @ 165: uvm_test_top.env.sb [sb] INPUT COVERAGE = 33.33 %
UVM_INFO axi4_lite_inp_monitor.sv(44) @ 165: uvm_test_top.env.aa.inp_mon [INPUT MONITOR]  WRITE awaddr=00000030 wdata=1638c3f2 wstrb=0110 
UVM_INFO axi4_lite_out_monitor.sv(28) @ 185: uvm_test_top.env.pa.out_mon [OUTPUT MONITOR] BRESP = 2 RRESP = 0 RDATA = 00000000
UVM_INFO axi4_lite_driver.sv(34) @ 185: uvm_test_top.env.aa.drv [DRV] awaddr = 00000030 wdata = 1638c3f2 wstrb = 6 araddr = b6a2c8b4
UVM_INFO axi4_lite_scoreboard.sv(52) @ 185: uvm_test_top.env.scb [BRESP] Matched : exp_bresp= 2 actual_bresp=2 write = 1 read = 0
UVM_INFO axi4_lite_subscriber.sv(41) @ 235: uvm_test_top.env.sb [sb] INPUT COVERAGE = 41.67 %
UVM_INFO axi4_lite_inp_monitor.sv(44) @ 235: uvm_test_top.env.aa.inp_mon [INPUT MONITOR]  WRITE awaddr=00000030 wdata=cb9737f3 wstrb=1010 
UVM_INFO axi4_lite_out_monitor.sv(28) @ 255: uvm_test_top.env.pa.out_mon [OUTPUT MONITOR] BRESP = 2 RRESP = 0 RDATA = 00000000
UVM_INFO axi4_lite_driver.sv(34) @ 255: uvm_test_top.env.aa.drv [DRV] awaddr = 00000030 wdata = cb9737f3 wstrb = a araddr = 7a0bace0
UVM_INFO axi4_lite_scoreboard.sv(52) @ 255: uvm_test_top.env.scb [BRESP] Matched : exp_bresp= 2 actual_bresp=2 write = 1 read = 0
UVM_INFO axi4_lite_subscriber.sv(41) @ 275: uvm_test_top.env.sb [sb] INPUT COVERAGE = 41.67 %
UVM_INFO axi4_lite_inp_monitor.sv(44) @ 275: uvm_test_top.env.aa.inp_mon [INPUT MONITOR]  WRITE awaddr=00000030 wdata=9d38fe7b wstrb=0101 
UVM_INFO axi4_lite_out_monitor.sv(28) @ 295: uvm_test_top.env.pa.out_mon [OUTPUT MONITOR] BRESP = 2 RRESP = 0 RDATA = 00000000
UVM_INFO axi4_lite_driver.sv(34) @ 295: uvm_test_top.env.aa.drv [DRV] awaddr = 00000030 wdata = 9d38fe7b wstrb = 5 araddr = 8231373c
UVM_INFO axi4_lite_scoreboard.sv(52) @ 295: uvm_test_top.env.scb [BRESP] Matched : exp_bresp= 2 actual_bresp=2 write = 1 read = 0
UVM_INFO axi4_lite_subscriber.sv(41) @ 325: uvm_test_top.env.sb [sb] INPUT COVERAGE = 44.79 %
UVM_INFO axi4_lite_inp_monitor.sv(44) @ 325: uvm_test_top.env.aa.inp_mon [INPUT MONITOR]  WRITE awaddr=00000030 wdata=502bafe8 wstrb=0011 
UVM_INFO axi4_lite_out_monitor.sv(28) @ 345: uvm_test_top.env.pa.out_mon [OUTPUT MONITOR] BRESP = 2 RRESP = 0 RDATA = 00000000
UVM_INFO axi4_lite_driver.sv(34) @ 345: uvm_test_top.env.aa.drv [DRV] awaddr = 00000030 wdata = 502bafe8 wstrb = 3 araddr = 1a605338
UVM_INFO axi4_lite_scoreboard.sv(52) @ 345: uvm_test_top.env.scb [BRESP] Matched : exp_bresp= 2 actual_bresp=2 write = 1 read = 0
UVM_INFO axi4_lite_subscriber.sv(41) @ 365: uvm_test_top.env.sb [sb] INPUT COVERAGE = 47.92 %
UVM_INFO axi4_lite_inp_monitor.sv(44) @ 365: uvm_test_top.env.aa.inp_mon [INPUT MONITOR]  WRITE awaddr=00000028 wdata=c44c12ec wstrb=1100 
UVM_INFO axi4_lite_out_monitor.sv(28) @ 385: uvm_test_top.env.pa.out_mon [OUTPUT MONITOR] BRESP = 2 RRESP = 0 RDATA = 00000000
UVM_INFO axi4_lite_driver.sv(34) @ 385: uvm_test_top.env.aa.drv [DRV] awaddr = 00000028 wdata = c44c12ec wstrb = c araddr = c27941e4
UVM_INFO axi4_lite_scoreboard.sv(52) @ 385: uvm_test_top.env.scb [BRESP] Matched : exp_bresp= 2 actual_bresp=2 write = 1 read = 0
UVM_INFO axi4_lite_subscriber.sv(41) @ 425: uvm_test_top.env.sb [sb] INPUT COVERAGE = 47.92 %
UVM_INFO axi4_lite_inp_monitor.sv(44) @ 425: uvm_test_top.env.aa.inp_mon [INPUT MONITOR]  WRITE awaddr=00000028 wdata=170eee87 wstrb=1010 
UVM_INFO axi4_lite_out_monitor.sv(28) @ 445: uvm_test_top.env.pa.out_mon [OUTPUT MONITOR] BRESP = 2 RRESP = 0 RDATA = 00000000
UVM_INFO axi4_lite_driver.sv(34) @ 445: uvm_test_top.env.aa.drv [DRV] awaddr = 00000028 wdata = 170eee87 wstrb = a araddr = 7c18c3c0
UVM_INFO axi4_lite_scoreboard.sv(52) @ 445: uvm_test_top.env.scb [BRESP] Matched : exp_bresp= 2 actual_bresp=2 write = 1 read = 0
UVM_INFO axi4_lite_subscriber.sv(41) @ 485: uvm_test_top.env.sb [sb] INPUT COVERAGE = 47.92 %
UVM_INFO axi4_lite_inp_monitor.sv(44) @ 485: uvm_test_top.env.aa.inp_mon [INPUT MONITOR]  WRITE awaddr=0000002c wdata=0514811d wstrb=0110 
UVM_INFO axi4_lite_out_monitor.sv(28) @ 505: uvm_test_top.env.pa.out_mon [OUTPUT MONITOR] BRESP = 2 RRESP = 0 RDATA = 00000000
UVM_INFO axi4_lite_driver.sv(34) @ 505: uvm_test_top.env.aa.drv [DRV] awaddr = 0000002c wdata = 0514811d wstrb = 6 araddr = 46a812fc
UVM_INFO axi4_lite_scoreboard.sv(52) @ 505: uvm_test_top.env.scb [BRESP] Matched : exp_bresp= 2 actual_bresp=2 write = 1 read = 0
UVM_INFO axi4_lite_subscriber.sv(41) @ 555: uvm_test_top.env.sb [sb] INPUT COVERAGE = 47.92 %
UVM_INFO axi4_lite_inp_monitor.sv(44) @ 555: uvm_test_top.env.aa.inp_mon [INPUT MONITOR]  WRITE awaddr=0000002c wdata=49f63add wstrb=1011 
UVM_INFO axi4_lite_out_monitor.sv(28) @ 575: uvm_test_top.env.pa.out_mon [OUTPUT MONITOR] BRESP = 2 RRESP = 0 RDATA = 00000000
UVM_INFO axi4_lite_driver.sv(34) @ 575: uvm_test_top.env.aa.drv [DRV] awaddr = 0000002c wdata = 49f63add wstrb = b araddr = af1021d4
UVM_INFO axi4_lite_scoreboard.sv(52) @ 575: uvm_test_top.env.scb [BRESP] Matched : exp_bresp= 2 actual_bresp=2 write = 1 read = 0
UVM_INFO axi4_lite_subscriber.sv(41) @ 595: uvm_test_top.env.sb [sb] INPUT COVERAGE = 47.92 %
UVM_INFO axi4_lite_inp_monitor.sv(44) @ 595: uvm_test_top.env.aa.inp_mon [INPUT MONITOR]  WRITE awaddr=00000030 wdata=872d822a wstrb=0101 
UVM_INFO axi4_lite_out_monitor.sv(28) @ 615: uvm_test_top.env.pa.out_mon [OUTPUT MONITOR] BRESP = 2 RRESP = 0 RDATA = 00000000
UVM_INFO axi4_lite_driver.sv(34) @ 615: uvm_test_top.env.aa.drv [DRV] awaddr = 00000030 wdata = 872d822a wstrb = 5 araddr = 3400edc4
UVM_INFO axi4_lite_scoreboard.sv(52) @ 615: uvm_test_top.env.scb [BRESP] Matched : exp_bresp= 2 actual_bresp=2 write = 1 read = 0
UVM_INFO axi4_lite_subscriber.sv(41) @ 645: uvm_test_top.env.sb [sb] INPUT COVERAGE = 47.92 %
UVM_INFO axi4_lite_inp_monitor.sv(44) @ 645: uvm_test_top.env.aa.inp_mon [INPUT MONITOR]  WRITE awaddr=0000002c wdata=f5adfda1 wstrb=1001 
UVM_INFO axi4_lite_out_monitor.sv(28) @ 665: uvm_test_top.env.pa.out_mon [OUTPUT MONITOR] BRESP = 2 RRESP = 0 RDATA = 00000000
UVM_INFO axi4_lite_driver.sv(34) @ 665: uvm_test_top.env.aa.drv [DRV] awaddr = 0000002c wdata = f5adfda1 wstrb = 9 araddr = 29f6a980
UVM_INFO axi4_lite_scoreboard.sv(52) @ 665: uvm_test_top.env.scb [BRESP] Matched : exp_bresp= 2 actual_bresp=2 write = 1 read = 0
UVM_INFO axi4_lite_subscriber.sv(41) @ 695: uvm_test_top.env.sb [sb] INPUT COVERAGE = 47.92 %
UVM_INFO axi4_lite_inp_monitor.sv(44) @ 695: uvm_test_top.env.aa.inp_mon [INPUT MONITOR]  WRITE awaddr=0000002c wdata=6d3f711a wstrb=1011 
UVM_INFO axi4_lite_out_monitor.sv(28) @ 715: uvm_test_top.env.pa.out_mon [OUTPUT MONITOR] BRESP = 2 RRESP = 0 RDATA = 00000000
UVM_INFO axi4_lite_driver.sv(34) @ 715: uvm_test_top.env.aa.drv [DRV] awaddr = 0000002c wdata = 6d3f711a wstrb = b araddr = f6ec9284
UVM_INFO axi4_lite_scoreboard.sv(52) @ 715: uvm_test_top.env.scb [BRESP] Matched : exp_bresp= 2 actual_bresp=2 write = 1 read = 0
UVM_INFO axi4_lite_subscriber.sv(41) @ 735: uvm_test_top.env.sb [sb] INPUT COVERAGE = 47.92 %
UVM_INFO axi4_lite_inp_monitor.sv(44) @ 735: uvm_test_top.env.aa.inp_mon [INPUT MONITOR]  WRITE awaddr=00000030 wdata=87fd1251 wstrb=0111 
UVM_INFO axi4_lite_out_monitor.sv(28) @ 755: uvm_test_top.env.pa.out_mon [OUTPUT MONITOR] BRESP = 2 RRESP = 0 RDATA = 00000000
UVM_INFO axi4_lite_driver.sv(34) @ 755: uvm_test_top.env.aa.drv [DRV] awaddr = 00000030 wdata = 87fd1251 wstrb = 7 araddr = ef637eb8
UVM_INFO axi4_lite_scoreboard.sv(52) @ 755: uvm_test_top.env.scb [BRESP] Matched : exp_bresp= 2 actual_bresp=2 write = 1 read = 0
UVM_INFO axi4_lite_subscriber.sv(41) @ 775: uvm_test_top.env.sb [sb] INPUT COVERAGE = 51.04 %
UVM_INFO axi4_lite_inp_monitor.sv(44) @ 775: uvm_test_top.env.aa.inp_mon [INPUT MONITOR]  WRITE awaddr=00000028 wdata=9a594a3e wstrb=0100 
UVM_INFO axi4_lite_out_monitor.sv(28) @ 795: uvm_test_top.env.pa.out_mon [OUTPUT MONITOR] BRESP = 2 RRESP = 0 RDATA = 00000000
UVM_INFO axi4_lite_driver.sv(34) @ 795: uvm_test_top.env.aa.drv [DRV] awaddr = 00000028 wdata = 9a594a3e wstrb = 4 araddr = 82fd9058
UVM_INFO axi4_lite_scoreboard.sv(52) @ 795: uvm_test_top.env.scb [BRESP] Matched : exp_bresp= 2 actual_bresp=2 write = 1 read = 0
UVM_INFO axi4_lite_subscriber.sv(41) @ 845: uvm_test_top.env.sb [sb] INPUT COVERAGE = 51.04 %
UVM_INFO axi4_lite_inp_monitor.sv(44) @ 845: uvm_test_top.env.aa.inp_mon [INPUT MONITOR]  WRITE awaddr=00000030 wdata=e9056a9f wstrb=1100 
UVM_INFO axi4_lite_out_monitor.sv(28) @ 865: uvm_test_top.env.pa.out_mon [OUTPUT MONITOR] BRESP = 2 RRESP = 0 RDATA = 00000000
UVM_INFO axi4_lite_driver.sv(34) @ 865: uvm_test_top.env.aa.drv [DRV] awaddr = 00000030 wdata = e9056a9f wstrb = c araddr = 78ab5470
UVM_INFO axi4_lite_scoreboard.sv(52) @ 865: uvm_test_top.env.scb [BRESP] Matched : exp_bresp= 2 actual_bresp=2 write = 1 read = 0
UVM_INFO axi4_lite_subscriber.sv(41) @ 885: uvm_test_top.env.sb [sb] INPUT COVERAGE = 51.04 %
UVM_INFO axi4_lite_inp_monitor.sv(44) @ 885: uvm_test_top.env.aa.inp_mon [INPUT MONITOR]  WRITE awaddr=00000028 wdata=8aa60ea7 wstrb=0101 
UVM_INFO axi4_lite_out_monitor.sv(28) @ 905: uvm_test_top.env.pa.out_mon [OUTPUT MONITOR] BRESP = 2 RRESP = 0 RDATA = 00000000
UVM_INFO axi4_lite_driver.sv(34) @ 905: uvm_test_top.env.aa.drv [DRV] awaddr = 00000028 wdata = 8aa60ea7 wstrb = 5 araddr = 7fbc6d14
UVM_INFO axi4_lite_scoreboard.sv(52) @ 905: uvm_test_top.env.scb [BRESP] Matched : exp_bresp= 2 actual_bresp=2 write = 1 read = 0
UVM_INFO axi4_lite_subscriber.sv(41) @ 935: uvm_test_top.env.sb [sb] INPUT COVERAGE = 51.04 %
UVM_INFO axi4_lite_inp_monitor.sv(44) @ 935: uvm_test_top.env.aa.inp_mon [INPUT MONITOR]  WRITE awaddr=0000002c wdata=019e639f wstrb=1011 
UVM_INFO axi4_lite_out_monitor.sv(28) @ 955: uvm_test_top.env.pa.out_mon [OUTPUT MONITOR] BRESP = 2 RRESP = 0 RDATA = 00000000
UVM_INFO axi4_lite_driver.sv(34) @ 955: uvm_test_top.env.aa.drv [DRV] awaddr = 0000002c wdata = 019e639f wstrb = b araddr = 17f21848
UVM_INFO axi4_lite_scoreboard.sv(52) @ 955: uvm_test_top.env.scb [BRESP] Matched : exp_bresp= 2 actual_bresp=2 write = 1 read = 0
UVM_INFO axi4_lite_subscriber.sv(41) @ 1005: uvm_test_top.env.sb [sb] INPUT COVERAGE = 51.04 %
UVM_INFO axi4_lite_inp_monitor.sv(44) @ 1005: uvm_test_top.env.aa.inp_mon [INPUT MONITOR]  WRITE awaddr=0000002c wdata=82104566 wstrb=0101 
UVM_INFO axi4_lite_out_monitor.sv(28) @ 1025: uvm_test_top.env.pa.out_mon [OUTPUT MONITOR] BRESP = 2 RRESP = 0 RDATA = 00000000
UVM_INFO axi4_lite_driver.sv(34) @ 1025: uvm_test_top.env.aa.drv [DRV] awaddr = 0000002c wdata = 82104566 wstrb = 5 araddr = 6dccf024
UVM_INFO axi4_lite_scoreboard.sv(52) @ 1025: uvm_test_top.env.scb [BRESP] Matched : exp_bresp= 2 actual_bresp=2 write = 1 read = 0
UVM_INFO axi4_lite_subscriber.sv(41) @ 1045: uvm_test_top.env.sb [sb] INPUT COVERAGE = 51.04 %
UVM_INFO axi4_lite_inp_monitor.sv(44) @ 1045: uvm_test_top.env.aa.inp_mon [INPUT MONITOR]  WRITE awaddr=00000030 wdata=5c15570e wstrb=0101 
UVM_INFO axi4_lite_out_monitor.sv(28) @ 1065: uvm_test_top.env.pa.out_mon [OUTPUT MONITOR] BRESP = 2 RRESP = 0 RDATA = 00000000
UVM_INFO axi4_lite_driver.sv(34) @ 1065: uvm_test_top.env.aa.drv [DRV] awaddr = 00000030 wdata = 5c15570e wstrb = 5 araddr = 90579d9c
UVM_INFO axi4_lite_scoreboard.sv(52) @ 1065: uvm_test_top.env.scb [BRESP] Matched : exp_bresp= 2 actual_bresp=2 write = 1 read = 0
UVM_INFO axi4_lite_subscriber.sv(41) @ 1105: uvm_test_top.env.sb [sb] INPUT COVERAGE = 51.04 %
UVM_INFO axi4_lite_inp_monitor.sv(44) @ 1105: uvm_test_top.env.aa.inp_mon [INPUT MONITOR]  WRITE awaddr=00000028 wdata=5239513f wstrb=0011 
UVM_INFO axi4_lite_out_monitor.sv(28) @ 1125: uvm_test_top.env.pa.out_mon [OUTPUT MONITOR] BRESP = 2 RRESP = 0 RDATA = 00000000
UVM_INFO axi4_lite_driver.sv(34) @ 1125: uvm_test_top.env.aa.drv [DRV] awaddr = 00000028 wdata = 5239513f wstrb = 3 araddr = 49fc4eb8
UVM_INFO axi4_lite_scoreboard.sv(52) @ 1125: uvm_test_top.env.scb [BRESP] Matched : exp_bresp= 2 actual_bresp=2 write = 1 read = 0
UVM_INFO axi4_lite_subscriber.sv(41) @ 1175: uvm_test_top.env.sb [sb] INPUT COVERAGE = 51.04 %
UVM_INFO axi4_lite_inp_monitor.sv(44) @ 1175: uvm_test_top.env.aa.inp_mon [INPUT MONITOR]  WRITE awaddr=00000028 wdata=0836503d wstrb=0101 
UVM_INFO axi4_lite_out_monitor.sv(28) @ 1195: uvm_test_top.env.pa.out_mon [OUTPUT MONITOR] BRESP = 2 RRESP = 0 RDATA = 00000000
UVM_INFO axi4_lite_driver.sv(34) @ 1195: uvm_test_top.env.aa.drv [DRV] awaddr = 00000028 wdata = 0836503d wstrb = 5 araddr = e450c7f4
UVM_INFO axi4_lite_scoreboard.sv(52) @ 1195: uvm_test_top.env.scb [BRESP] Matched : exp_bresp= 2 actual_bresp=2 write = 1 read = 0
UVM_INFO axi4_lite_subscriber.sv(41) @ 1235: uvm_test_top.env.sb [sb] INPUT COVERAGE = 54.17 %
UVM_INFO axi4_lite_inp_monitor.sv(44) @ 1235: uvm_test_top.env.aa.inp_mon [INPUT MONITOR]  WRITE awaddr=0000002c wdata=45637d82 wstrb=0001 
UVM_INFO axi4_lite_out_monitor.sv(28) @ 1255: uvm_test_top.env.pa.out_mon [OUTPUT MONITOR] BRESP = 2 RRESP = 0 RDATA = 00000000
UVM_INFO axi4_lite_driver.sv(34) @ 1255: uvm_test_top.env.aa.drv [DRV] awaddr = 0000002c wdata = 45637d82 wstrb = 1 araddr = 8d64a9d0
UVM_INFO axi4_lite_scoreboard.sv(52) @ 1255: uvm_test_top.env.scb [BRESP] Matched : exp_bresp= 2 actual_bresp=2 write = 1 read = 0
UVM_INFO axi4_lite_subscriber.sv(41) @ 1295: uvm_test_top.env.sb [sb] INPUT COVERAGE = 54.17 %
UVM_INFO axi4_lite_inp_monitor.sv(44) @ 1295: uvm_test_top.env.aa.inp_mon [INPUT MONITOR]  WRITE awaddr=0000002c wdata=8792c5b8 wstrb=0100 
UVM_INFO axi4_lite_out_monitor.sv(28) @ 1315: uvm_test_top.env.pa.out_mon [OUTPUT MONITOR] BRESP = 2 RRESP = 0 RDATA = 00000000
UVM_INFO axi4_lite_driver.sv(34) @ 1315: uvm_test_top.env.aa.drv [DRV] awaddr = 0000002c wdata = 8792c5b8 wstrb = 4 araddr = 4983c724
UVM_INFO axi4_lite_scoreboard.sv(52) @ 1315: uvm_test_top.env.scb [BRESP] Matched : exp_bresp= 2 actual_bresp=2 write = 1 read = 0
UVM_INFO axi4_lite_subscriber.sv(41) @ 1355: uvm_test_top.env.sb [sb] INPUT COVERAGE = 54.17 %
UVM_INFO axi4_lite_inp_monitor.sv(44) @ 1355: uvm_test_top.env.aa.inp_mon [INPUT MONITOR]  WRITE awaddr=0000002c wdata=e95cc473 wstrb=0101 
UVM_INFO axi4_lite_out_monitor.sv(28) @ 1375: uvm_test_top.env.pa.out_mon [OUTPUT MONITOR] BRESP = 2 RRESP = 0 RDATA = 00000000
UVM_INFO axi4_lite_driver.sv(34) @ 1375: uvm_test_top.env.aa.drv [DRV] awaddr = 0000002c wdata = e95cc473 wstrb = 5 araddr = 86bf9380
UVM_INFO axi4_lite_scoreboard.sv(52) @ 1375: uvm_test_top.env.scb [BRESP] Matched : exp_bresp= 2 actual_bresp=2 write = 1 read = 0
UVM_INFO axi4_lite_subscriber.sv(41) @ 1415: uvm_test_top.env.sb [sb] INPUT COVERAGE = 54.17 %
UVM_INFO axi4_lite_inp_monitor.sv(44) @ 1415: uvm_test_top.env.aa.inp_mon [INPUT MONITOR]  WRITE awaddr=0000002c wdata=7d3b96c2 wstrb=1011 
UVM_INFO axi4_lite_out_monitor.sv(28) @ 1435: uvm_test_top.env.pa.out_mon [OUTPUT MONITOR] BRESP = 2 RRESP = 0 RDATA = 00000000
UVM_INFO axi4_lite_driver.sv(34) @ 1435: uvm_test_top.env.aa.drv [DRV] awaddr = 0000002c wdata = 7d3b96c2 wstrb = b araddr = 5e47c6d4
UVM_INFO axi4_lite_scoreboard.sv(52) @ 1435: uvm_test_top.env.scb [BRESP] Matched : exp_bresp= 2 actual_bresp=2 write = 1 read = 0
UVM_INFO axi4_lite_subscriber.sv(41) @ 1465: uvm_test_top.env.sb [sb] INPUT COVERAGE = 54.17 %
UVM_INFO axi4_lite_inp_monitor.sv(44) @ 1465: uvm_test_top.env.aa.inp_mon [INPUT MONITOR]  WRITE awaddr=00000028 wdata=7eab45df wstrb=1110 
UVM_INFO axi4_lite_out_monitor.sv(28) @ 1485: uvm_test_top.env.pa.out_mon [OUTPUT MONITOR] BRESP = 2 RRESP = 0 RDATA = 00000000
UVM_INFO axi4_lite_driver.sv(34) @ 1485: uvm_test_top.env.aa.drv [DRV] awaddr = 00000028 wdata = 7eab45df wstrb = e araddr = 2841cbc0
UVM_INFO axi4_lite_scoreboard.sv(52) @ 1485: uvm_test_top.env.scb [BRESP] Matched : exp_bresp= 2 actual_bresp=2 write = 1 read = 0
UVM_INFO axi4_lite_subscriber.sv(41) @ 1535: uvm_test_top.env.sb [sb] INPUT COVERAGE = 54.17 %
UVM_INFO axi4_lite_inp_monitor.sv(44) @ 1535: uvm_test_top.env.aa.inp_mon [INPUT MONITOR]  WRITE awaddr=00000030 wdata=571c7649 wstrb=1011 
UVM_INFO axi4_lite_out_monitor.sv(28) @ 1555: uvm_test_top.env.pa.out_mon [OUTPUT MONITOR] BRESP = 2 RRESP = 0 RDATA = 00000000
UVM_INFO axi4_lite_driver.sv(34) @ 1555: uvm_test_top.env.aa.drv [DRV] awaddr = 00000030 wdata = 571c7649 wstrb = b araddr = 3f2565f4
UVM_INFO axi4_lite_scoreboard.sv(52) @ 1555: uvm_test_top.env.scb [BRESP] Matched : exp_bresp= 2 actual_bresp=2 write = 1 read = 0
UVM_INFO axi4_lite_subscriber.sv(41) @ 1585: uvm_test_top.env.sb [sb] INPUT COVERAGE = 54.17 %
UVM_INFO axi4_lite_inp_monitor.sv(44) @ 1585: uvm_test_top.env.aa.inp_mon [INPUT MONITOR]  WRITE awaddr=00000030 wdata=52535075 wstrb=1010 
UVM_INFO axi4_lite_out_monitor.sv(28) @ 1605: uvm_test_top.env.pa.out_mon [OUTPUT MONITOR] BRESP = 2 RRESP = 0 RDATA = 00000000
UVM_INFO axi4_lite_driver.sv(34) @ 1605: uvm_test_top.env.aa.drv [DRV] awaddr = 00000030 wdata = 52535075 wstrb = a araddr = 4a446690
UVM_INFO axi4_lite_scoreboard.sv(52) @ 1605: uvm_test_top.env.scb [BRESP] Matched : exp_bresp= 2 actual_bresp=2 write = 1 read = 0
UVM_INFO axi4_lite_subscriber.sv(41) @ 1635: uvm_test_top.env.sb [sb] INPUT COVERAGE = 54.17 %
UVM_INFO axi4_lite_inp_monitor.sv(44) @ 1635: uvm_test_top.env.aa.inp_mon [INPUT MONITOR]  WRITE awaddr=00000030 wdata=b5e2a7c8 wstrb=0110 
UVM_INFO axi4_lite_out_monitor.sv(28) @ 1655: uvm_test_top.env.pa.out_mon [OUTPUT MONITOR] BRESP = 2 RRESP = 0 RDATA = 00000000
UVM_INFO axi4_lite_driver.sv(34) @ 1655: uvm_test_top.env.aa.drv [DRV] awaddr = 00000030 wdata = b5e2a7c8 wstrb = 6 araddr = e4fa0eb4
UVM_INFO axi4_lite_scoreboard.sv(52) @ 1655: uvm_test_top.env.scb [BRESP] Matched : exp_bresp= 2 actual_bresp=2 write = 1 read = 0
UVM_INFO axi4_lite_subscriber.sv(41) @ 1685: uvm_test_top.env.sb [sb] INPUT COVERAGE = 57.29 %
UVM_INFO axi4_lite_inp_monitor.sv(44) @ 1685: uvm_test_top.env.aa.inp_mon [INPUT MONITOR]  WRITE awaddr=00000028 wdata=5dbf1ad0 wstrb=1000 
UVM_INFO axi4_lite_out_monitor.sv(28) @ 1705: uvm_test_top.env.pa.out_mon [OUTPUT MONITOR] BRESP = 2 RRESP = 0 RDATA = 00000000
UVM_INFO axi4_lite_driver.sv(34) @ 1705: uvm_test_top.env.aa.drv [DRV] awaddr = 00000028 wdata = 5dbf1ad0 wstrb = 8 araddr = 682259cc
UVM_INFO axi4_lite_scoreboard.sv(52) @ 1705: uvm_test_top.env.scb [BRESP] Matched : exp_bresp= 2 actual_bresp=2 write = 1 read = 0
UVM_INFO axi4_lite_subscriber.sv(41) @ 1745: uvm_test_top.env.sb [sb] INPUT COVERAGE = 57.29 %
UVM_INFO axi4_lite_inp_monitor.sv(44) @ 1745: uvm_test_top.env.aa.inp_mon [INPUT MONITOR]  WRITE awaddr=0000002c wdata=547583ef wstrb=0011 
UVM_INFO axi4_lite_out_monitor.sv(28) @ 1765: uvm_test_top.env.pa.out_mon [OUTPUT MONITOR] BRESP = 2 RRESP = 0 RDATA = 00000000
UVM_INFO axi4_lite_driver.sv(34) @ 1765: uvm_test_top.env.aa.drv [DRV] awaddr = 0000002c wdata = 547583ef wstrb = 3 araddr = 138f9914
UVM_INFO axi4_lite_scoreboard.sv(52) @ 1765: uvm_test_top.env.scb [BRESP] Matched : exp_bresp= 2 actual_bresp=2 write = 1 read = 0
UVM_INFO axi4_lite_subscriber.sv(41) @ 1805: uvm_test_top.env.sb [sb] INPUT COVERAGE = 57.29 %
UVM_INFO axi4_lite_inp_monitor.sv(44) @ 1805: uvm_test_top.env.aa.inp_mon [INPUT MONITOR]  WRITE awaddr=00000030 wdata=cacb277e wstrb=1011 
UVM_INFO axi4_lite_out_monitor.sv(28) @ 1825: uvm_test_top.env.pa.out_mon [OUTPUT MONITOR] BRESP = 2 RRESP = 0 RDATA = 00000000
UVM_INFO axi4_lite_driver.sv(34) @ 1825: uvm_test_top.env.aa.drv [DRV] awaddr = 00000030 wdata = cacb277e wstrb = b araddr = 53c7fa9c
UVM_INFO axi4_lite_scoreboard.sv(52) @ 1825: uvm_test_top.env.scb [BRESP] Matched : exp_bresp= 2 actual_bresp=2 write = 1 read = 0
UVM_INFO axi4_lite_subscriber.sv(41) @ 1875: uvm_test_top.env.sb [sb] INPUT COVERAGE = 57.29 %
UVM_INFO axi4_lite_inp_monitor.sv(44) @ 1875: uvm_test_top.env.aa.inp_mon [INPUT MONITOR]  WRITE awaddr=00000030 wdata=159f4b7f wstrb=0111 
UVM_INFO axi4_lite_out_monitor.sv(28) @ 1895: uvm_test_top.env.pa.out_mon [OUTPUT MONITOR] BRESP = 2 RRESP = 0 RDATA = 00000000
UVM_INFO axi4_lite_driver.sv(34) @ 1895: uvm_test_top.env.aa.drv [DRV] awaddr = 00000030 wdata = 159f4b7f wstrb = 7 araddr = 7c3c37fc
UVM_INFO axi4_lite_scoreboard.sv(52) @ 1895: uvm_test_top.env.scb [BRESP] Matched : exp_bresp= 2 actual_bresp=2 write = 1 read = 0
UVM_INFO axi4_lite_subscriber.sv(41) @ 1915: uvm_test_top.env.sb [sb] INPUT COVERAGE = 60.42 %
UVM_INFO axi4_lite_inp_monitor.sv(44) @ 1915: uvm_test_top.env.aa.inp_mon [INPUT MONITOR]  WRITE awaddr=0000002c wdata=7869256e wstrb=0010 
UVM_INFO axi4_lite_out_monitor.sv(28) @ 1935: uvm_test_top.env.pa.out_mon [OUTPUT MONITOR] BRESP = 2 RRESP = 0 RDATA = 00000000
UVM_INFO axi4_lite_driver.sv(34) @ 1935: uvm_test_top.env.aa.drv [DRV] awaddr = 0000002c wdata = 7869256e wstrb = 2 araddr = 7538529c
UVM_INFO axi4_lite_scoreboard.sv(52) @ 1935: uvm_test_top.env.scb [BRESP] Matched : exp_bresp= 2 actual_bresp=2 write = 1 read = 0
UVM_INFO axi4_lite_subscriber.sv(41) @ 1965: uvm_test_top.env.sb [sb] INPUT COVERAGE = 60.42 %
UVM_INFO axi4_lite_inp_monitor.sv(44) @ 1965: uvm_test_top.env.aa.inp_mon [INPUT MONITOR]  WRITE awaddr=00000028 wdata=ce75e69f wstrb=0011 
UVM_INFO axi4_lite_out_monitor.sv(28) @ 1985: uvm_test_top.env.pa.out_mon [OUTPUT MONITOR] BRESP = 2 RRESP = 0 RDATA = 00000000
UVM_INFO axi4_lite_driver.sv(34) @ 1985: uvm_test_top.env.aa.drv [DRV] awaddr = 00000028 wdata = ce75e69f wstrb = 3 araddr = fb87c7f4
UVM_INFO axi4_lite_scoreboard.sv(52) @ 1985: uvm_test_top.env.scb [BRESP] Matched : exp_bresp= 2 actual_bresp=2 write = 1 read = 0
UVM_INFO axi4_lite_subscriber.sv(41) @ 2035: uvm_test_top.env.sb [sb] INPUT COVERAGE = 60.42 %
UVM_INFO axi4_lite_inp_monitor.sv(44) @ 2035: uvm_test_top.env.aa.inp_mon [INPUT MONITOR]  WRITE awaddr=00000030 wdata=b4fcd24c wstrb=1010 
UVM_INFO axi4_lite_out_monitor.sv(28) @ 2055: uvm_test_top.env.pa.out_mon [OUTPUT MONITOR] BRESP = 2 RRESP = 0 RDATA = 00000000
UVM_INFO axi4_lite_driver.sv(34) @ 2055: uvm_test_top.env.aa.drv [DRV] awaddr = 00000030 wdata = b4fcd24c wstrb = a araddr = 615a0d84
UVM_INFO axi4_lite_scoreboard.sv(52) @ 2055: uvm_test_top.env.scb [BRESP] Matched : exp_bresp= 2 actual_bresp=2 write = 1 read = 0
UVM_INFO axi4_lite_subscriber.sv(41) @ 2095: uvm_test_top.env.sb [sb] INPUT COVERAGE = 60.42 %
UVM_INFO axi4_lite_inp_monitor.sv(44) @ 2095: uvm_test_top.env.aa.inp_mon [INPUT MONITOR]  WRITE awaddr=00000028 wdata=5f70ebee wstrb=0011 
UVM_INFO axi4_lite_out_monitor.sv(28) @ 2115: uvm_test_top.env.pa.out_mon [OUTPUT MONITOR] BRESP = 2 RRESP = 0 RDATA = 00000000
UVM_INFO axi4_lite_driver.sv(34) @ 2115: uvm_test_top.env.aa.drv [DRV] awaddr = 00000028 wdata = 5f70ebee wstrb = 3 araddr = f56ee0f0
UVM_INFO axi4_lite_scoreboard.sv(52) @ 2115: uvm_test_top.env.scb [BRESP] Matched : exp_bresp= 2 actual_bresp=2 write = 1 read = 0
UVM_INFO axi4_lite_subscriber.sv(41) @ 2165: uvm_test_top.env.sb [sb] INPUT COVERAGE = 60.42 %
UVM_INFO axi4_lite_inp_monitor.sv(44) @ 2165: uvm_test_top.env.aa.inp_mon [INPUT MONITOR]  WRITE awaddr=00000028 wdata=f5a7e317 wstrb=0011 
UVM_INFO axi4_lite_out_monitor.sv(28) @ 2185: uvm_test_top.env.pa.out_mon [OUTPUT MONITOR] BRESP = 2 RRESP = 0 RDATA = 00000000
UVM_INFO axi4_lite_driver.sv(34) @ 2185: uvm_test_top.env.aa.drv [DRV] awaddr = 00000028 wdata = f5a7e317 wstrb = 3 araddr = 3aa5776c
UVM_INFO axi4_lite_scoreboard.sv(52) @ 2185: uvm_test_top.env.scb [BRESP] Matched : exp_bresp= 2 actual_bresp=2 write = 1 read = 0
UVM_INFO axi4_lite_subscriber.sv(41) @ 2235: uvm_test_top.env.sb [sb] INPUT COVERAGE = 60.42 %
UVM_INFO axi4_lite_inp_monitor.sv(44) @ 2235: uvm_test_top.env.aa.inp_mon [INPUT MONITOR]  WRITE awaddr=00000030 wdata=17e45016 wstrb=0101 
UVM_INFO axi4_lite_out_monitor.sv(28) @ 2255: uvm_test_top.env.pa.out_mon [OUTPUT MONITOR] BRESP = 2 RRESP = 0 RDATA = 00000000
UVM_INFO axi4_lite_driver.sv(34) @ 2255: uvm_test_top.env.aa.drv [DRV] awaddr = 00000030 wdata = 17e45016 wstrb = 5 araddr = 8e5f5460
UVM_INFO axi4_lite_scoreboard.sv(52) @ 2255: uvm_test_top.env.scb [BRESP] Matched : exp_bresp= 2 actual_bresp=2 write = 1 read = 0
UVM_INFO axi4_lite_subscriber.sv(41) @ 2295: uvm_test_top.env.sb [sb] INPUT COVERAGE = 60.42 %
UVM_INFO axi4_lite_inp_monitor.sv(44) @ 2295: uvm_test_top.env.aa.inp_mon [INPUT MONITOR]  WRITE awaddr=00000030 wdata=a9fa5ec3 wstrb=0110 
UVM_INFO axi4_lite_out_monitor.sv(28) @ 2315: uvm_test_top.env.pa.out_mon [OUTPUT MONITOR] BRESP = 2 RRESP = 0 RDATA = 00000000
UVM_INFO axi4_lite_driver.sv(34) @ 2315: uvm_test_top.env.aa.drv [DRV] awaddr = 00000030 wdata = a9fa5ec3 wstrb = 6 araddr = 786bb2b8
UVM_INFO axi4_lite_scoreboard.sv(52) @ 2315: uvm_test_top.env.scb [BRESP] Matched : exp_bresp= 2 actual_bresp=2 write = 1 read = 0
UVM_INFO axi4_lite_subscriber.sv(41) @ 2345: uvm_test_top.env.sb [sb] INPUT COVERAGE = 63.54 %
UVM_INFO axi4_lite_inp_monitor.sv(44) @ 2345: uvm_test_top.env.aa.inp_mon [INPUT MONITOR]  WRITE awaddr=0000002c wdata=aa72bbd9 wstrb=0000 
UVM_INFO axi4_lite_out_monitor.sv(28) @ 2365: uvm_test_top.env.pa.out_mon [OUTPUT MONITOR] BRESP = 2 RRESP = 0 RDATA = 00000000
UVM_INFO axi4_lite_driver.sv(34) @ 2365: uvm_test_top.env.aa.drv [DRV] awaddr = 0000002c wdata = aa72bbd9 wstrb = 0 araddr = 2666792c
UVM_INFO axi4_lite_scoreboard.sv(52) @ 2365: uvm_test_top.env.scb [BRESP] Matched : exp_bresp= 2 actual_bresp=2 write = 1 read = 0
UVM_INFO axi4_lite_subscriber.sv(41) @ 2385: uvm_test_top.env.sb [sb] INPUT COVERAGE = 63.54 %
UVM_INFO axi4_lite_inp_monitor.sv(44) @ 2385: uvm_test_top.env.aa.inp_mon [INPUT MONITOR]  WRITE awaddr=00000028 wdata=6cddff7d wstrb=0100 
UVM_INFO axi4_lite_out_monitor.sv(28) @ 2405: uvm_test_top.env.pa.out_mon [OUTPUT MONITOR] BRESP = 2 RRESP = 0 RDATA = 00000000
UVM_INFO axi4_lite_driver.sv(34) @ 2405: uvm_test_top.env.aa.drv [DRV] awaddr = 00000028 wdata = 6cddff7d wstrb = 4 araddr = b2d1da14
UVM_INFO axi4_lite_scoreboard.sv(52) @ 2405: uvm_test_top.env.scb [BRESP] Matched : exp_bresp= 2 actual_bresp=2 write = 1 read = 0
UVM_INFO axi4_lite_subscriber.sv(41) @ 2445: uvm_test_top.env.sb [sb] INPUT COVERAGE = 63.54 %
UVM_INFO axi4_lite_inp_monitor.sv(44) @ 2445: uvm_test_top.env.aa.inp_mon [INPUT MONITOR]  WRITE awaddr=00000030 wdata=7314fa1a wstrb=0000 
UVM_INFO axi4_lite_out_monitor.sv(28) @ 2465: uvm_test_top.env.pa.out_mon [OUTPUT MONITOR] BRESP = 2 RRESP = 0 RDATA = 00000000
UVM_INFO axi4_lite_driver.sv(34) @ 2465: uvm_test_top.env.aa.drv [DRV] awaddr = 00000030 wdata = 7314fa1a wstrb = 0 araddr = 1751b958
UVM_INFO axi4_lite_scoreboard.sv(52) @ 2465: uvm_test_top.env.scb [BRESP] Matched : exp_bresp= 2 actual_bresp=2 write = 1 read = 0
UVM_INFO axi4_lite_subscriber.sv(41) @ 2505: uvm_test_top.env.sb [sb] INPUT COVERAGE = 63.54 %
UVM_INFO axi4_lite_inp_monitor.sv(44) @ 2505: uvm_test_top.env.aa.inp_mon [INPUT MONITOR]  WRITE awaddr=00000030 wdata=832b69a1 wstrb=0000 
UVM_INFO axi4_lite_out_monitor.sv(28) @ 2525: uvm_test_top.env.pa.out_mon [OUTPUT MONITOR] BRESP = 2 RRESP = 0 RDATA = 00000000
UVM_INFO axi4_lite_driver.sv(34) @ 2525: uvm_test_top.env.aa.drv [DRV] awaddr = 00000030 wdata = 832b69a1 wstrb = 0 araddr = 92f5627c
UVM_INFO axi4_lite_scoreboard.sv(52) @ 2525: uvm_test_top.env.scb [BRESP] Matched : exp_bresp= 2 actual_bresp=2 write = 1 read = 0
UVM_INFO axi4_lite_subscriber.sv(41) @ 2545: uvm_test_top.env.sb [sb] INPUT COVERAGE = 63.54 %
UVM_INFO axi4_lite_inp_monitor.sv(44) @ 2545: uvm_test_top.env.aa.inp_mon [INPUT MONITOR]  WRITE awaddr=00000030 wdata=4ed5606d wstrb=0110 
UVM_INFO axi4_lite_out_monitor.sv(28) @ 2565: uvm_test_top.env.pa.out_mon [OUTPUT MONITOR] BRESP = 2 RRESP = 0 RDATA = 00000000
UVM_INFO axi4_lite_driver.sv(34) @ 2565: uvm_test_top.env.aa.drv [DRV] awaddr = 00000030 wdata = 4ed5606d wstrb = 6 araddr = f4036970
UVM_INFO axi4_lite_scoreboard.sv(52) @ 2565: uvm_test_top.env.scb [BRESP] Matched : exp_bresp= 2 actual_bresp=2 write = 1 read = 0
UVM_INFO axi4_lite_subscriber.sv(41) @ 2595: uvm_test_top.env.sb [sb] INPUT COVERAGE = 63.54 %
UVM_INFO axi4_lite_inp_monitor.sv(44) @ 2595: uvm_test_top.env.aa.inp_mon [INPUT MONITOR]  WRITE awaddr=00000028 wdata=2e13d7fb wstrb=1000 
UVM_INFO axi4_lite_out_monitor.sv(28) @ 2615: uvm_test_top.env.pa.out_mon [OUTPUT MONITOR] BRESP = 2 RRESP = 0 RDATA = 00000000
UVM_INFO axi4_lite_driver.sv(34) @ 2615: uvm_test_top.env.aa.drv [DRV] awaddr = 00000028 wdata = 2e13d7fb wstrb = 8 araddr = 80cc0388
UVM_INFO axi4_lite_scoreboard.sv(52) @ 2615: uvm_test_top.env.scb [BRESP] Matched : exp_bresp= 2 actual_bresp=2 write = 1 read = 0
UVM_INFO axi4_lite_subscriber.sv(41) @ 2665: uvm_test_top.env.sb [sb] INPUT COVERAGE = 66.67 %
UVM_INFO axi4_lite_inp_monitor.sv(44) @ 2665: uvm_test_top.env.aa.inp_mon [INPUT MONITOR]  WRITE awaddr=00000030 wdata=e4c5180f wstrb=1111 
UVM_INFO axi4_lite_out_monitor.sv(28) @ 2685: uvm_test_top.env.pa.out_mon [OUTPUT MONITOR] BRESP = 2 RRESP = 0 RDATA = 00000000
UVM_INFO axi4_lite_driver.sv(34) @ 2685: uvm_test_top.env.aa.drv [DRV] awaddr = 00000030 wdata = e4c5180f wstrb = f araddr = b71f8288
UVM_INFO axi4_lite_scoreboard.sv(52) @ 2685: uvm_test_top.env.scb [BRESP] Matched : exp_bresp= 2 actual_bresp=2 write = 1 read = 0
UVM_INFO axi4_lite_subscriber.sv(41) @ 2715: uvm_test_top.env.sb [sb] INPUT COVERAGE = 66.67 %
UVM_INFO axi4_lite_inp_monitor.sv(44) @ 2715: uvm_test_top.env.aa.inp_mon [INPUT MONITOR]  WRITE awaddr=00000030 wdata=7f4867ed wstrb=0110 
UVM_INFO axi4_lite_out_monitor.sv(28) @ 2735: uvm_test_top.env.pa.out_mon [OUTPUT MONITOR] BRESP = 2 RRESP = 0 RDATA = 00000000
UVM_INFO axi4_lite_driver.sv(34) @ 2735: uvm_test_top.env.aa.drv [DRV] awaddr = 00000030 wdata = 7f4867ed wstrb = 6 araddr = 834277c8
UVM_INFO axi4_lite_scoreboard.sv(52) @ 2735: uvm_test_top.env.scb [BRESP] Matched : exp_bresp= 2 actual_bresp=2 write = 1 read = 0
UVM_INFO axi4_lite_subscriber.sv(41) @ 2765: uvm_test_top.env.sb [sb] INPUT COVERAGE = 66.67 %
UVM_INFO axi4_lite_inp_monitor.sv(44) @ 2765: uvm_test_top.env.aa.inp_mon [INPUT MONITOR]  WRITE awaddr=00000028 wdata=2d09ec6f wstrb=1010 
UVM_INFO axi4_lite_out_monitor.sv(28) @ 2785: uvm_test_top.env.pa.out_mon [OUTPUT MONITOR] BRESP = 2 RRESP = 0 RDATA = 00000000
UVM_INFO axi4_lite_driver.sv(34) @ 2785: uvm_test_top.env.aa.drv [DRV] awaddr = 00000028 wdata = 2d09ec6f wstrb = a araddr = 03fcf570
UVM_INFO axi4_lite_scoreboard.sv(52) @ 2785: uvm_test_top.env.scb [BRESP] Matched : exp_bresp= 2 actual_bresp=2 write = 1 read = 0
UVM_INFO axi4_lite_subscriber.sv(41) @ 2825: uvm_test_top.env.sb [sb] INPUT COVERAGE = 66.67 %
UVM_INFO axi4_lite_inp_monitor.sv(44) @ 2825: uvm_test_top.env.aa.inp_mon [INPUT MONITOR]  WRITE awaddr=00000030 wdata=af4b3c1a wstrb=1000 
UVM_INFO axi4_lite_out_monitor.sv(28) @ 2845: uvm_test_top.env.pa.out_mon [OUTPUT MONITOR] BRESP = 2 RRESP = 0 RDATA = 00000000
UVM_INFO axi4_lite_driver.sv(34) @ 2845: uvm_test_top.env.aa.drv [DRV] awaddr = 00000030 wdata = af4b3c1a wstrb = 8 araddr = 2eb7a5e4
UVM_INFO axi4_lite_scoreboard.sv(52) @ 2845: uvm_test_top.env.scb [BRESP] Matched : exp_bresp= 2 actual_bresp=2 write = 1 read = 0
UVM_INFO axi4_lite_subscriber.sv(41) @ 2875: uvm_test_top.env.sb [sb] INPUT COVERAGE = 66.67 %
UVM_INFO axi4_lite_inp_monitor.sv(44) @ 2875: uvm_test_top.env.aa.inp_mon [INPUT MONITOR]  WRITE awaddr=00000028 wdata=87986e8d wstrb=0010 
UVM_INFO axi4_lite_out_monitor.sv(28) @ 2895: uvm_test_top.env.pa.out_mon [OUTPUT MONITOR] BRESP = 2 RRESP = 0 RDATA = 00000000
UVM_INFO axi4_lite_driver.sv(34) @ 2895: uvm_test_top.env.aa.drv [DRV] awaddr = 00000028 wdata = 87986e8d wstrb = 2 araddr = 2cd2901c
UVM_INFO axi4_lite_scoreboard.sv(52) @ 2895: uvm_test_top.env.scb [BRESP] Matched : exp_bresp= 2 actual_bresp=2 write = 1 read = 0
UVM_INFO axi4_lite_subscriber.sv(41) @ 2925: uvm_test_top.env.sb [sb] INPUT COVERAGE = 66.67 %
UVM_INFO axi4_lite_inp_monitor.sv(44) @ 2925: uvm_test_top.env.aa.inp_mon [INPUT MONITOR]  WRITE awaddr=00000028 wdata=0a62a75f wstrb=0110 
UVM_INFO axi4_lite_out_monitor.sv(28) @ 2945: uvm_test_top.env.pa.out_mon [OUTPUT MONITOR] BRESP = 2 RRESP = 0 RDATA = 00000000
UVM_INFO axi4_lite_driver.sv(34) @ 2945: uvm_test_top.env.aa.drv [DRV] awaddr = 00000028 wdata = 0a62a75f wstrb = 6 araddr = 95fe7d38
UVM_INFO axi4_lite_scoreboard.sv(52) @ 2945: uvm_test_top.env.scb [BRESP] Matched : exp_bresp= 2 actual_bresp=2 write = 1 read = 0
UVM_INFO axi4_lite_subscriber.sv(41) @ 2975: uvm_test_top.env.sb [sb] INPUT COVERAGE = 66.67 %
UVM_INFO axi4_lite_inp_monitor.sv(44) @ 2975: uvm_test_top.env.aa.inp_mon [INPUT MONITOR]  WRITE awaddr=00000028 wdata=83669d9a wstrb=0101 
UVM_INFO axi4_lite_out_monitor.sv(28) @ 2995: uvm_test_top.env.pa.out_mon [OUTPUT MONITOR] BRESP = 2 RRESP = 0 RDATA = 00000000
UVM_INFO axi4_lite_driver.sv(34) @ 2995: uvm_test_top.env.aa.drv [DRV] awaddr = 00000028 wdata = 83669d9a wstrb = 5 araddr = 49ff13dc
UVM_INFO axi4_lite_scoreboard.sv(52) @ 2995: uvm_test_top.env.scb [BRESP] Matched : exp_bresp= 2 actual_bresp=2 write = 1 read = 0
UVM_INFO axi4_lite_subscriber.sv(41) @ 3035: uvm_test_top.env.sb [sb] INPUT COVERAGE = 66.67 %
UVM_INFO axi4_lite_inp_monitor.sv(44) @ 3035: uvm_test_top.env.aa.inp_mon [INPUT MONITOR]  WRITE awaddr=00000030 wdata=82172940 wstrb=1001 
UVM_INFO axi4_lite_out_monitor.sv(28) @ 3055: uvm_test_top.env.pa.out_mon [OUTPUT MONITOR] BRESP = 2 RRESP = 0 RDATA = 00000000
UVM_INFO axi4_lite_driver.sv(34) @ 3055: uvm_test_top.env.aa.drv [DRV] awaddr = 00000030 wdata = 82172940 wstrb = 9 araddr = e28df67c
UVM_INFO axi4_lite_scoreboard.sv(52) @ 3055: uvm_test_top.env.scb [BRESP] Matched : exp_bresp= 2 actual_bresp=2 write = 1 read = 0
UVM_INFO axi4_lite_subscriber.sv(41) @ 3085: uvm_test_top.env.sb [sb] INPUT COVERAGE = 66.67 %
UVM_INFO axi4_lite_inp_monitor.sv(44) @ 3085: uvm_test_top.env.aa.inp_mon [INPUT MONITOR]  WRITE awaddr=00000030 wdata=bb70950d wstrb=1010 
UVM_INFO axi4_lite_out_monitor.sv(28) @ 3105: uvm_test_top.env.pa.out_mon [OUTPUT MONITOR] BRESP = 2 RRESP = 0 RDATA = 00000000
UVM_INFO axi4_lite_driver.sv(34) @ 3105: uvm_test_top.env.aa.drv [DRV] awaddr = 00000030 wdata = bb70950d wstrb = a araddr = ce46328c
UVM_INFO axi4_lite_scoreboard.sv(52) @ 3105: uvm_test_top.env.scb [BRESP] Matched : exp_bresp= 2 actual_bresp=2 write = 1 read = 0
UVM_INFO axi4_lite_subscriber.sv(41) @ 3145: uvm_test_top.env.sb [sb] INPUT COVERAGE = 66.67 %
UVM_INFO axi4_lite_inp_monitor.sv(44) @ 3145: uvm_test_top.env.aa.inp_mon [INPUT MONITOR]  WRITE awaddr=0000002c wdata=2ddb3d1a wstrb=1010 
UVM_INFO axi4_lite_out_monitor.sv(28) @ 3165: uvm_test_top.env.pa.out_mon [OUTPUT MONITOR] BRESP = 2 RRESP = 0 RDATA = 00000000
UVM_INFO axi4_lite_driver.sv(34) @ 3165: uvm_test_top.env.aa.drv [DRV] awaddr = 0000002c wdata = 2ddb3d1a wstrb = a araddr = 73647e1c
UVM_INFO axi4_lite_scoreboard.sv(52) @ 3165: uvm_test_top.env.scb [BRESP] Matched : exp_bresp= 2 actual_bresp=2 write = 1 read = 0
UVM_INFO axi4_lite_subscriber.sv(41) @ 3195: uvm_test_top.env.sb [sb] INPUT COVERAGE = 66.67 %
UVM_INFO axi4_lite_inp_monitor.sv(44) @ 3195: uvm_test_top.env.aa.inp_mon [INPUT MONITOR]  WRITE awaddr=00000030 wdata=038f2a30 wstrb=1011 
UVM_INFO axi4_lite_out_monitor.sv(28) @ 3215: uvm_test_top.env.pa.out_mon [OUTPUT MONITOR] BRESP = 2 RRESP = 0 RDATA = 00000000
UVM_INFO axi4_lite_driver.sv(34) @ 3215: uvm_test_top.env.aa.drv [DRV] awaddr = 00000030 wdata = 038f2a30 wstrb = b araddr = 3338b3a0
UVM_INFO axi4_lite_scoreboard.sv(52) @ 3215: uvm_test_top.env.scb [BRESP] Matched : exp_bresp= 2 actual_bresp=2 write = 1 read = 0
UVM_INFO axi4_lite_subscriber.sv(41) @ 3255: uvm_test_top.env.sb [sb] INPUT COVERAGE = 66.67 %
UVM_INFO axi4_lite_inp_monitor.sv(44) @ 3255: uvm_test_top.env.aa.inp_mon [INPUT MONITOR]  WRITE awaddr=00000030 wdata=e30f9baa wstrb=1100 
UVM_INFO axi4_lite_out_monitor.sv(28) @ 3275: uvm_test_top.env.pa.out_mon [OUTPUT MONITOR] BRESP = 2 RRESP = 0 RDATA = 00000000
UVM_INFO axi4_lite_driver.sv(34) @ 3275: uvm_test_top.env.aa.drv [DRV] awaddr = 00000030 wdata = e30f9baa wstrb = c araddr = 74fef8c0
UVM_INFO axi4_lite_scoreboard.sv(52) @ 3275: uvm_test_top.env.scb [BRESP] Matched : exp_bresp= 2 actual_bresp=2 write = 1 read = 0
UVM_INFO axi4_lite_subscriber.sv(41) @ 3315: uvm_test_top.env.sb [sb] INPUT COVERAGE = 66.67 %
UVM_INFO axi4_lite_inp_monitor.sv(44) @ 3315: uvm_test_top.env.aa.inp_mon [INPUT MONITOR]  WRITE awaddr=00000028 wdata=5ef3ea44 wstrb=1110 
UVM_INFO axi4_lite_out_monitor.sv(28) @ 3335: uvm_test_top.env.pa.out_mon [OUTPUT MONITOR] BRESP = 2 RRESP = 0 RDATA = 00000000
UVM_INFO axi4_lite_driver.sv(34) @ 3335: uvm_test_top.env.aa.drv [DRV] awaddr = 00000028 wdata = 5ef3ea44 wstrb = e araddr = 6a83c4b4
UVM_INFO axi4_lite_scoreboard.sv(52) @ 3335: uvm_test_top.env.scb [BRESP] Matched : exp_bresp= 2 actual_bresp=2 write = 1 read = 0
UVM_INFO axi4_lite_subscriber.sv(41) @ 3365: uvm_test_top.env.sb [sb] INPUT COVERAGE = 66.67 %
UVM_INFO axi4_lite_inp_monitor.sv(44) @ 3365: uvm_test_top.env.aa.inp_mon [INPUT MONITOR]  WRITE awaddr=00000030 wdata=19e7cc49 wstrb=0100 
UVM_INFO axi4_lite_out_monitor.sv(28) @ 3385: uvm_test_top.env.pa.out_mon [OUTPUT MONITOR] BRESP = 2 RRESP = 0 RDATA = 00000000
UVM_INFO axi4_lite_driver.sv(34) @ 3385: uvm_test_top.env.aa.drv [DRV] awaddr = 00000030 wdata = 19e7cc49 wstrb = 4 araddr = 4224c14c
UVM_INFO axi4_lite_scoreboard.sv(52) @ 3385: uvm_test_top.env.scb [BRESP] Matched : exp_bresp= 2 actual_bresp=2 write = 1 read = 0
UVM_INFO axi4_lite_subscriber.sv(41) @ 3425: uvm_test_top.env.sb [sb] INPUT COVERAGE = 66.67 %
UVM_INFO axi4_lite_inp_monitor.sv(44) @ 3425: uvm_test_top.env.aa.inp_mon [INPUT MONITOR]  WRITE awaddr=00000030 wdata=ab041d38 wstrb=0110 
UVM_INFO axi4_lite_out_monitor.sv(28) @ 3445: uvm_test_top.env.pa.out_mon [OUTPUT MONITOR] BRESP = 2 RRESP = 0 RDATA = 00000000
UVM_INFO axi4_lite_driver.sv(34) @ 3445: uvm_test_top.env.aa.drv [DRV] awaddr = 00000030 wdata = ab041d38 wstrb = 6 araddr = 1678f824
UVM_INFO axi4_lite_scoreboard.sv(52) @ 3445: uvm_test_top.env.scb [BRESP] Matched : exp_bresp= 2 actual_bresp=2 write = 1 read = 0
UVM_INFO axi4_lite_subscriber.sv(41) @ 3475: uvm_test_top.env.sb [sb] INPUT COVERAGE = 66.67 %
UVM_INFO axi4_lite_inp_monitor.sv(44) @ 3475: uvm_test_top.env.aa.inp_mon [INPUT MONITOR]  WRITE awaddr=0000002c wdata=bcdd30ff wstrb=1011 
UVM_INFO axi4_lite_out_monitor.sv(28) @ 3495: uvm_test_top.env.pa.out_mon [OUTPUT MONITOR] BRESP = 2 RRESP = 0 RDATA = 00000000
UVM_INFO axi4_lite_driver.sv(34) @ 3495: uvm_test_top.env.aa.drv [DRV] awaddr = 0000002c wdata = bcdd30ff wstrb = b araddr = da9f4030
UVM_INFO axi4_lite_scoreboard.sv(52) @ 3495: uvm_test_top.env.scb [BRESP] Matched : exp_bresp= 2 actual_bresp=2 write = 1 read = 0
UVM_INFO axi4_lite_subscriber.sv(41) @ 3525: uvm_test_top.env.sb [sb] INPUT COVERAGE = 66.67 %
UVM_INFO axi4_lite_inp_monitor.sv(44) @ 3525: uvm_test_top.env.aa.inp_mon [INPUT MONITOR]  WRITE awaddr=0000002c wdata=bfa9eef5 wstrb=0100 
UVM_INFO axi4_lite_out_monitor.sv(28) @ 3545: uvm_test_top.env.pa.out_mon [OUTPUT MONITOR] BRESP = 2 RRESP = 0 RDATA = 00000000
UVM_INFO axi4_lite_driver.sv(34) @ 3545: uvm_test_top.env.aa.drv [DRV] awaddr = 0000002c wdata = bfa9eef5 wstrb = 4 araddr = 480c6bf0
UVM_INFO axi4_lite_scoreboard.sv(52) @ 3545: uvm_test_top.env.scb [BRESP] Matched : exp_bresp= 2 actual_bresp=2 write = 1 read = 0
UVM_INFO axi4_lite_subscriber.sv(41) @ 3585: uvm_test_top.env.sb [sb] INPUT COVERAGE = 66.67 %
UVM_INFO axi4_lite_inp_monitor.sv(44) @ 3585: uvm_test_top.env.aa.inp_mon [INPUT MONITOR]  WRITE awaddr=00000028 wdata=df0309b0 wstrb=0010 
UVM_INFO axi4_lite_out_monitor.sv(28) @ 3605: uvm_test_top.env.pa.out_mon [OUTPUT MONITOR] BRESP = 2 RRESP = 0 RDATA = 00000000
UVM_INFO axi4_lite_driver.sv(34) @ 3605: uvm_test_top.env.aa.drv [DRV] awaddr = 00000028 wdata = df0309b0 wstrb = 2 araddr = 1a62ef64
UVM_INFO axi4_lite_scoreboard.sv(52) @ 3605: uvm_test_top.env.scb [BRESP] Matched : exp_bresp= 2 actual_bresp=2 write = 1 read = 0
UVM_INFO axi4_lite_subscriber.sv(41) @ 3625: uvm_test_top.env.sb [sb] INPUT COVERAGE = 66.67 %
UVM_INFO axi4_lite_inp_monitor.sv(44) @ 3625: uvm_test_top.env.aa.inp_mon [INPUT MONITOR]  WRITE awaddr=00000028 wdata=8f5038aa wstrb=1001 
UVM_INFO axi4_lite_out_monitor.sv(28) @ 3645: uvm_test_top.env.pa.out_mon [OUTPUT MONITOR] BRESP = 2 RRESP = 0 RDATA = 00000000
UVM_INFO axi4_lite_driver.sv(34) @ 3645: uvm_test_top.env.aa.drv [DRV] awaddr = 00000028 wdata = 8f5038aa wstrb = 9 araddr = 8ff3c9b8
UVM_INFO axi4_lite_scoreboard.sv(52) @ 3645: uvm_test_top.env.scb [BRESP] Matched : exp_bresp= 2 actual_bresp=2 write = 1 read = 0
UVM_INFO axi4_lite_subscriber.sv(41) @ 3675: uvm_test_top.env.sb [sb] INPUT COVERAGE = 66.67 %
UVM_INFO axi4_lite_inp_monitor.sv(44) @ 3675: uvm_test_top.env.aa.inp_mon [INPUT MONITOR]  WRITE awaddr=00000028 wdata=fbf60b59 wstrb=1101 
UVM_INFO axi4_lite_out_monitor.sv(28) @ 3695: uvm_test_top.env.pa.out_mon [OUTPUT MONITOR] BRESP = 2 RRESP = 0 RDATA = 00000000
UVM_INFO axi4_lite_driver.sv(34) @ 3695: uvm_test_top.env.aa.drv [DRV] awaddr = 00000028 wdata = fbf60b59 wstrb = d araddr = fd593bb4
UVM_INFO axi4_lite_scoreboard.sv(52) @ 3695: uvm_test_top.env.scb [BRESP] Matched : exp_bresp= 2 actual_bresp=2 write = 1 read = 0
UVM_INFO axi4_lite_subscriber.sv(41) @ 3715: uvm_test_top.env.sb [sb] INPUT COVERAGE = 66.67 %
UVM_INFO axi4_lite_inp_monitor.sv(44) @ 3715: uvm_test_top.env.aa.inp_mon [INPUT MONITOR]  WRITE awaddr=00000030 wdata=17695b43 wstrb=0011 
UVM_INFO axi4_lite_out_monitor.sv(28) @ 3735: uvm_test_top.env.pa.out_mon [OUTPUT MONITOR] BRESP = 2 RRESP = 0 RDATA = 00000000
UVM_INFO axi4_lite_driver.sv(34) @ 3735: uvm_test_top.env.aa.drv [DRV] awaddr = 00000030 wdata = 17695b43 wstrb = 3 araddr = f5577f90
UVM_INFO axi4_lite_scoreboard.sv(52) @ 3735: uvm_test_top.env.scb [BRESP] Matched : exp_bresp= 2 actual_bresp=2 write = 1 read = 0
UVM_INFO axi4_lite_subscriber.sv(41) @ 3765: uvm_test_top.env.sb [sb] INPUT COVERAGE = 66.67 %
UVM_INFO axi4_lite_inp_monitor.sv(44) @ 3765: uvm_test_top.env.aa.inp_mon [INPUT MONITOR]  WRITE awaddr=0000002c wdata=e3e94991 wstrb=0100 
UVM_INFO axi4_lite_out_monitor.sv(28) @ 3785: uvm_test_top.env.pa.out_mon [OUTPUT MONITOR] BRESP = 2 RRESP = 0 RDATA = 00000000
UVM_INFO axi4_lite_driver.sv(34) @ 3785: uvm_test_top.env.aa.drv [DRV] awaddr = 0000002c wdata = e3e94991 wstrb = 4 araddr = 123675b4
UVM_INFO axi4_lite_scoreboard.sv(52) @ 3785: uvm_test_top.env.scb [BRESP] Matched : exp_bresp= 2 actual_bresp=2 write = 1 read = 0
UVM_INFO axi4_lite_subscriber.sv(41) @ 3805: uvm_test_top.env.sb [sb] INPUT COVERAGE = 66.67 %
UVM_INFO axi4_lite_inp_monitor.sv(44) @ 3805: uvm_test_top.env.aa.inp_mon [INPUT MONITOR]  WRITE awaddr=0000002c wdata=63722aee wstrb=0100 
UVM_INFO axi4_lite_out_monitor.sv(28) @ 3825: uvm_test_top.env.pa.out_mon [OUTPUT MONITOR] BRESP = 2 RRESP = 0 RDATA = 00000000
UVM_INFO axi4_lite_driver.sv(34) @ 3825: uvm_test_top.env.aa.drv [DRV] awaddr = 0000002c wdata = 63722aee wstrb = 4 araddr = 3efc0828
UVM_INFO axi4_lite_scoreboard.sv(52) @ 3825: uvm_test_top.env.scb [BRESP] Matched : exp_bresp= 2 actual_bresp=2 write = 1 read = 0
UVM_INFO axi4_lite_subscriber.sv(41) @ 3875: uvm_test_top.env.sb [sb] INPUT COVERAGE = 66.67 %
UVM_INFO axi4_lite_inp_monitor.sv(44) @ 3875: uvm_test_top.env.aa.inp_mon [INPUT MONITOR]  WRITE awaddr=00000030 wdata=977dd3f3 wstrb=1111 
UVM_INFO axi4_lite_out_monitor.sv(28) @ 3895: uvm_test_top.env.pa.out_mon [OUTPUT MONITOR] BRESP = 2 RRESP = 0 RDATA = 00000000
UVM_INFO axi4_lite_driver.sv(34) @ 3895: uvm_test_top.env.aa.drv [DRV] awaddr = 00000030 wdata = 977dd3f3 wstrb = f araddr = 09a9ff34
UVM_INFO axi4_lite_scoreboard.sv(52) @ 3895: uvm_test_top.env.scb [BRESP] Matched : exp_bresp= 2 actual_bresp=2 write = 1 read = 0
UVM_INFO axi4_lite_subscriber.sv(41) @ 3925: uvm_test_top.env.sb [sb] INPUT COVERAGE = 66.67 %
UVM_INFO axi4_lite_inp_monitor.sv(44) @ 3925: uvm_test_top.env.aa.inp_mon [INPUT MONITOR]  WRITE awaddr=00000030 wdata=1753c307 wstrb=0110 
UVM_INFO axi4_lite_out_monitor.sv(28) @ 3945: uvm_test_top.env.pa.out_mon [OUTPUT MONITOR] BRESP = 2 RRESP = 0 RDATA = 00000000
UVM_INFO axi4_lite_driver.sv(34) @ 3945: uvm_test_top.env.aa.drv [DRV] awaddr = 00000030 wdata = 1753c307 wstrb = 6 araddr = 7ab08dd0
UVM_INFO axi4_lite_scoreboard.sv(52) @ 3945: uvm_test_top.env.scb [BRESP] Matched : exp_bresp= 2 actual_bresp=2 write = 1 read = 0
UVM_INFO axi4_lite_subscriber.sv(41) @ 3975: uvm_test_top.env.sb [sb] INPUT COVERAGE = 66.67 %
UVM_INFO axi4_lite_inp_monitor.sv(44) @ 3975: uvm_test_top.env.aa.inp_mon [INPUT MONITOR]  WRITE awaddr=0000002c wdata=9d61c59d wstrb=1000 
UVM_INFO axi4_lite_out_monitor.sv(28) @ 3995: uvm_test_top.env.pa.out_mon [OUTPUT MONITOR] BRESP = 2 RRESP = 0 RDATA = 00000000
UVM_INFO axi4_lite_driver.sv(34) @ 3995: uvm_test_top.env.aa.drv [DRV] awaddr = 0000002c wdata = 9d61c59d wstrb = 8 araddr = 4c8a6524
UVM_INFO axi4_lite_scoreboard.sv(52) @ 3995: uvm_test_top.env.scb [BRESP] Matched : exp_bresp= 2 actual_bresp=2 write = 1 read = 0
UVM_INFO axi4_lite_subscriber.sv(41) @ 4045: uvm_test_top.env.sb [sb] INPUT COVERAGE = 66.67 %
UVM_INFO axi4_lite_inp_monitor.sv(44) @ 4045: uvm_test_top.env.aa.inp_mon [INPUT MONITOR]  WRITE awaddr=0000002c wdata=b01837d6 wstrb=1101 
UVM_INFO axi4_lite_out_monitor.sv(28) @ 4065: uvm_test_top.env.pa.out_mon [OUTPUT MONITOR] BRESP = 2 RRESP = 0 RDATA = 00000000
UVM_INFO axi4_lite_driver.sv(34) @ 4065: uvm_test_top.env.aa.drv [DRV] awaddr = 0000002c wdata = b01837d6 wstrb = d araddr = 246fe3b4
UVM_INFO axi4_lite_scoreboard.sv(52) @ 4065: uvm_test_top.env.scb [BRESP] Matched : exp_bresp= 2 actual_bresp=2 write = 1 read = 0
UVM_INFO axi4_lite_subscriber.sv(41) @ 4085: uvm_test_top.env.sb [sb] INPUT COVERAGE = 66.67 %
UVM_INFO axi4_lite_inp_monitor.sv(44) @ 4085: uvm_test_top.env.aa.inp_mon [INPUT MONITOR]  WRITE awaddr=00000030 wdata=89ff04ed wstrb=1111 
UVM_INFO axi4_lite_out_monitor.sv(28) @ 4105: uvm_test_top.env.pa.out_mon [OUTPUT MONITOR] BRESP = 2 RRESP = 0 RDATA = 00000000
UVM_INFO axi4_lite_driver.sv(34) @ 4105: uvm_test_top.env.aa.drv [DRV] awaddr = 00000030 wdata = 89ff04ed wstrb = f araddr = 1b222210
UVM_INFO axi4_lite_scoreboard.sv(52) @ 4105: uvm_test_top.env.scb [BRESP] Matched : exp_bresp= 2 actual_bresp=2 write = 1 read = 0
UVM_INFO axi4_lite_subscriber.sv(41) @ 4145: uvm_test_top.env.sb [sb] INPUT COVERAGE = 66.67 %
UVM_INFO axi4_lite_inp_monitor.sv(44) @ 4145: uvm_test_top.env.aa.inp_mon [INPUT MONITOR]  WRITE awaddr=00000030 wdata=364137b9 wstrb=0001 
UVM_INFO axi4_lite_out_monitor.sv(28) @ 4165: uvm_test_top.env.pa.out_mon [OUTPUT MONITOR] BRESP = 2 RRESP = 0 RDATA = 00000000
UVM_INFO axi4_lite_driver.sv(34) @ 4165: uvm_test_top.env.aa.drv [DRV] awaddr = 00000030 wdata = 364137b9 wstrb = 1 araddr = e0554134
UVM_INFO axi4_lite_scoreboard.sv(52) @ 4165: uvm_test_top.env.scb [BRESP] Matched : exp_bresp= 2 actual_bresp=2 write = 1 read = 0
UVM_INFO axi4_lite_subscriber.sv(41) @ 4205: uvm_test_top.env.sb [sb] INPUT COVERAGE = 66.67 %
UVM_INFO axi4_lite_inp_monitor.sv(44) @ 4205: uvm_test_top.env.aa.inp_mon [INPUT MONITOR]  WRITE awaddr=0000002c wdata=b2413c4a wstrb=1001 
UVM_INFO axi4_lite_out_monitor.sv(28) @ 4225: uvm_test_top.env.pa.out_mon [OUTPUT MONITOR] BRESP = 2 RRESP = 0 RDATA = 00000000
UVM_INFO axi4_lite_driver.sv(34) @ 4225: uvm_test_top.env.aa.drv [DRV] awaddr = 0000002c wdata = b2413c4a wstrb = 9 araddr = bf0c0e64
UVM_INFO axi4_lite_scoreboard.sv(52) @ 4225: uvm_test_top.env.scb [BRESP] Matched : exp_bresp= 2 actual_bresp=2 write = 1 read = 0
UVM_INFO axi4_lite_subscriber.sv(41) @ 4245: uvm_test_top.env.sb [sb] INPUT COVERAGE = 66.67 %
UVM_INFO axi4_lite_inp_monitor.sv(44) @ 4245: uvm_test_top.env.aa.inp_mon [INPUT MONITOR]  WRITE awaddr=00000030 wdata=f7de1ecd wstrb=0000 
UVM_INFO axi4_lite_out_monitor.sv(28) @ 4265: uvm_test_top.env.pa.out_mon [OUTPUT MONITOR] BRESP = 2 RRESP = 0 RDATA = 00000000
UVM_INFO axi4_lite_driver.sv(34) @ 4265: uvm_test_top.env.aa.drv [DRV] awaddr = 00000030 wdata = f7de1ecd wstrb = 0 araddr = 46eae33c
UVM_INFO axi4_lite_scoreboard.sv(52) @ 4265: uvm_test_top.env.scb [BRESP] Matched : exp_bresp= 2 actual_bresp=2 write = 1 read = 0
UVM_INFO axi4_lite_subscriber.sv(41) @ 4315: uvm_test_top.env.sb [sb] INPUT COVERAGE = 66.67 %
UVM_INFO axi4_lite_inp_monitor.sv(44) @ 4315: uvm_test_top.env.aa.inp_mon [INPUT MONITOR]  WRITE awaddr=00000030 wdata=ca5041c3 wstrb=0010 
UVM_INFO axi4_lite_out_monitor.sv(28) @ 4335: uvm_test_top.env.pa.out_mon [OUTPUT MONITOR] BRESP = 2 RRESP = 0 RDATA = 00000000
UVM_INFO axi4_lite_driver.sv(34) @ 4335: uvm_test_top.env.aa.drv [DRV] awaddr = 00000030 wdata = ca5041c3 wstrb = 2 araddr = 887aaba0
UVM_INFO axi4_lite_scoreboard.sv(52) @ 4335: uvm_test_top.env.scb [BRESP] Matched : exp_bresp= 2 actual_bresp=2 write = 1 read = 0
UVM_INFO axi4_lite_subscriber.sv(41) @ 4375: uvm_test_top.env.sb [sb] INPUT COVERAGE = 66.67 %
UVM_INFO axi4_lite_inp_monitor.sv(44) @ 4375: uvm_test_top.env.aa.inp_mon [INPUT MONITOR]  WRITE awaddr=00000030 wdata=285182a5 wstrb=1010 
UVM_INFO axi4_lite_out_monitor.sv(28) @ 4395: uvm_test_top.env.pa.out_mon [OUTPUT MONITOR] BRESP = 2 RRESP = 0 RDATA = 00000000
UVM_INFO axi4_lite_driver.sv(34) @ 4395: uvm_test_top.env.aa.drv [DRV] awaddr = 00000030 wdata = 285182a5 wstrb = a araddr = a5e70480
UVM_INFO axi4_lite_scoreboard.sv(52) @ 4395: uvm_test_top.env.scb [BRESP] Matched : exp_bresp= 2 actual_bresp=2 write = 1 read = 0
UVM_INFO axi4_lite_subscriber.sv(41) @ 4425: uvm_test_top.env.sb [sb] INPUT COVERAGE = 66.67 %
UVM_INFO axi4_lite_inp_monitor.sv(44) @ 4425: uvm_test_top.env.aa.inp_mon [INPUT MONITOR]  WRITE awaddr=0000002c wdata=20a206af wstrb=1011 
UVM_INFO axi4_lite_out_monitor.sv(28) @ 4445: uvm_test_top.env.pa.out_mon [OUTPUT MONITOR] BRESP = 2 RRESP = 0 RDATA = 00000000
UVM_INFO axi4_lite_driver.sv(34) @ 4445: uvm_test_top.env.aa.drv [DRV] awaddr = 0000002c wdata = 20a206af wstrb = b araddr = 22a997b0
UVM_INFO axi4_lite_scoreboard.sv(52) @ 4445: uvm_test_top.env.scb [BRESP] Matched : exp_bresp= 2 actual_bresp=2 write = 1 read = 0
UVM_INFO axi4_lite_subscriber.sv(41) @ 4475: uvm_test_top.env.sb [sb] INPUT COVERAGE = 66.67 %
UVM_INFO axi4_lite_inp_monitor.sv(44) @ 4475: uvm_test_top.env.aa.inp_mon [INPUT MONITOR]  WRITE awaddr=0000002c wdata=d27aafbd wstrb=1010 
UVM_INFO axi4_lite_out_monitor.sv(28) @ 4495: uvm_test_top.env.pa.out_mon [OUTPUT MONITOR] BRESP = 2 RRESP = 0 RDATA = 00000000
UVM_INFO axi4_lite_driver.sv(34) @ 4495: uvm_test_top.env.aa.drv [DRV] awaddr = 0000002c wdata = d27aafbd wstrb = a araddr = d66d75e0
UVM_INFO axi4_lite_scoreboard.sv(52) @ 4495: uvm_test_top.env.scb [BRESP] Matched : exp_bresp= 2 actual_bresp=2 write = 1 read = 0
UVM_INFO axi4_lite_subscriber.sv(41) @ 4535: uvm_test_top.env.sb [sb] INPUT COVERAGE = 66.67 %
UVM_INFO axi4_lite_inp_monitor.sv(44) @ 4535: uvm_test_top.env.aa.inp_mon [INPUT MONITOR]  WRITE awaddr=00000030 wdata=7387eb8c wstrb=0000 
UVM_INFO axi4_lite_out_monitor.sv(28) @ 4555: uvm_test_top.env.pa.out_mon [OUTPUT MONITOR] BRESP = 2 RRESP = 0 RDATA = 00000000
UVM_INFO axi4_lite_driver.sv(34) @ 4555: uvm_test_top.env.aa.drv [DRV] awaddr = 00000030 wdata = 7387eb8c wstrb = 0 araddr = dd418954
UVM_INFO axi4_lite_scoreboard.sv(52) @ 4555: uvm_test_top.env.scb [BRESP] Matched : exp_bresp= 2 actual_bresp=2 write = 1 read = 0
UVM_INFO axi4_lite_subscriber.sv(41) @ 4605: uvm_test_top.env.sb [sb] INPUT COVERAGE = 66.67 %
UVM_INFO axi4_lite_inp_monitor.sv(44) @ 4605: uvm_test_top.env.aa.inp_mon [INPUT MONITOR]  WRITE awaddr=00000030 wdata=1306feaa wstrb=0001 
UVM_INFO axi4_lite_out_monitor.sv(28) @ 4625: uvm_test_top.env.pa.out_mon [OUTPUT MONITOR] BRESP = 2 RRESP = 0 RDATA = 00000000
UVM_INFO axi4_lite_driver.sv(34) @ 4625: uvm_test_top.env.aa.drv [DRV] awaddr = 00000030 wdata = 1306feaa wstrb = 1 araddr = 99ffb60c
UVM_INFO axi4_lite_scoreboard.sv(52) @ 4625: uvm_test_top.env.scb [BRESP] Matched : exp_bresp= 2 actual_bresp=2 write = 1 read = 0
UVM_INFO axi4_lite_subscriber.sv(41) @ 4675: uvm_test_top.env.sb [sb] INPUT COVERAGE = 66.67 %
UVM_INFO axi4_lite_inp_monitor.sv(44) @ 4675: uvm_test_top.env.aa.inp_mon [INPUT MONITOR]  WRITE awaddr=00000028 wdata=f43d579d wstrb=1100 
UVM_INFO axi4_lite_out_monitor.sv(28) @ 4695: uvm_test_top.env.pa.out_mon [OUTPUT MONITOR] BRESP = 2 RRESP = 0 RDATA = 00000000
UVM_INFO axi4_lite_driver.sv(34) @ 4695: uvm_test_top.env.aa.drv [DRV] awaddr = 00000028 wdata = f43d579d wstrb = c araddr = 33cf7d84
UVM_INFO axi4_lite_scoreboard.sv(52) @ 4695: uvm_test_top.env.scb [BRESP] Matched : exp_bresp= 2 actual_bresp=2 write = 1 read = 0
UVM_INFO axi4_lite_subscriber.sv(41) @ 4715: uvm_test_top.env.sb [sb] INPUT COVERAGE = 66.67 %
UVM_INFO axi4_lite_inp_monitor.sv(44) @ 4715: uvm_test_top.env.aa.inp_mon [INPUT MONITOR]  WRITE awaddr=00000028 wdata=74d3ee2d wstrb=1110 
UVM_INFO axi4_lite_out_monitor.sv(28) @ 4735: uvm_test_top.env.pa.out_mon [OUTPUT MONITOR] BRESP = 2 RRESP = 0 RDATA = 00000000
UVM_INFO axi4_lite_driver.sv(34) @ 4735: uvm_test_top.env.aa.drv [DRV] awaddr = 00000028 wdata = 74d3ee2d wstrb = e araddr = 5e11f308
UVM_INFO axi4_lite_scoreboard.sv(52) @ 4735: uvm_test_top.env.scb [BRESP] Matched : exp_bresp= 2 actual_bresp=2 write = 1 read = 0
UVM_INFO axi4_lite_subscriber.sv(41) @ 4775: uvm_test_top.env.sb [sb] INPUT COVERAGE = 66.67 %
UVM_INFO axi4_lite_inp_monitor.sv(44) @ 4775: uvm_test_top.env.aa.inp_mon [INPUT MONITOR]  WRITE awaddr=0000002c wdata=b1933de7 wstrb=0001 
UVM_INFO axi4_lite_out_monitor.sv(28) @ 4795: uvm_test_top.env.pa.out_mon [OUTPUT MONITOR] BRESP = 2 RRESP = 0 RDATA = 00000000
UVM_INFO axi4_lite_driver.sv(34) @ 4795: uvm_test_top.env.aa.drv [DRV] awaddr = 0000002c wdata = b1933de7 wstrb = 1 araddr = fec945b4
UVM_INFO axi4_lite_scoreboard.sv(52) @ 4795: uvm_test_top.env.scb [BRESP] Matched : exp_bresp= 2 actual_bresp=2 write = 1 read = 0
UVM_INFO axi4_lite_subscriber.sv(41) @ 4835: uvm_test_top.env.sb [sb] INPUT COVERAGE = 66.67 %
UVM_INFO axi4_lite_inp_monitor.sv(44) @ 4835: uvm_test_top.env.aa.inp_mon [INPUT MONITOR]  WRITE awaddr=0000002c wdata=27b9a9da wstrb=1001 
UVM_INFO axi4_lite_out_monitor.sv(28) @ 4855: uvm_test_top.env.pa.out_mon [OUTPUT MONITOR] BRESP = 2 RRESP = 0 RDATA = 00000000
UVM_INFO axi4_lite_driver.sv(34) @ 4855: uvm_test_top.env.aa.drv [DRV] awaddr = 0000002c wdata = 27b9a9da wstrb = 9 araddr = bbf7b414
UVM_INFO axi4_lite_scoreboard.sv(52) @ 4855: uvm_test_top.env.scb [BRESP] Matched : exp_bresp= 2 actual_bresp=2 write = 1 read = 0
UVM_INFO axi4_lite_subscriber.sv(41) @ 4895: uvm_test_top.env.sb [sb] INPUT COVERAGE = 66.67 %
UVM_INFO axi4_lite_inp_monitor.sv(44) @ 4895: uvm_test_top.env.aa.inp_mon [INPUT MONITOR]  WRITE awaddr=00000030 wdata=8b52c4db wstrb=0000 
UVM_INFO axi4_lite_out_monitor.sv(28) @ 4915: uvm_test_top.env.pa.out_mon [OUTPUT MONITOR] BRESP = 2 RRESP = 0 RDATA = 00000000
UVM_INFO axi4_lite_driver.sv(34) @ 4915: uvm_test_top.env.aa.drv [DRV] awaddr = 00000030 wdata = 8b52c4db wstrb = 0 araddr = fc6d7b88
UVM_INFO axi4_lite_scoreboard.sv(52) @ 4915: uvm_test_top.env.scb [BRESP] Matched : exp_bresp= 2 actual_bresp=2 write = 1 read = 0
UVM_INFO axi4_lite_subscriber.sv(41) @ 4965: uvm_test_top.env.sb [sb] INPUT COVERAGE = 66.67 %
UVM_INFO axi4_lite_inp_monitor.sv(44) @ 4965: uvm_test_top.env.aa.inp_mon [INPUT MONITOR]  WRITE awaddr=0000002c wdata=9dbcaa06 wstrb=1111 
UVM_INFO axi4_lite_out_monitor.sv(28) @ 4985: uvm_test_top.env.pa.out_mon [OUTPUT MONITOR] BRESP = 2 RRESP = 0 RDATA = 00000000
UVM_INFO axi4_lite_driver.sv(34) @ 4985: uvm_test_top.env.aa.drv [DRV] awaddr = 0000002c wdata = 9dbcaa06 wstrb = f araddr = f2f03de0
UVM_INFO axi4_lite_scoreboard.sv(52) @ 4985: uvm_test_top.env.scb [BRESP] Matched : exp_bresp= 2 actual_bresp=2 write = 1 read = 0
UVM_INFO axi4_lite_subscriber.sv(41) @ 5015: uvm_test_top.env.sb [sb] INPUT COVERAGE = 66.67 %
UVM_INFO axi4_lite_inp_monitor.sv(44) @ 5015: uvm_test_top.env.aa.inp_mon [INPUT MONITOR]  WRITE awaddr=00000028 wdata=1e199785 wstrb=0010 
UVM_INFO axi4_lite_out_monitor.sv(28) @ 5035: uvm_test_top.env.pa.out_mon [OUTPUT MONITOR] BRESP = 2 RRESP = 0 RDATA = 00000000
UVM_INFO axi4_lite_driver.sv(34) @ 5035: uvm_test_top.env.aa.drv [DRV] awaddr = 00000028 wdata = 1e199785 wstrb = 2 araddr = 3d2f34cc
UVM_INFO axi4_lite_scoreboard.sv(52) @ 5035: uvm_test_top.env.scb [BRESP] Matched : exp_bresp= 2 actual_bresp=2 write = 1 read = 0
UVM_INFO axi4_lite_subscriber.sv(41) @ 5075: uvm_test_top.env.sb [sb] INPUT COVERAGE = 66.67 %
UVM_INFO axi4_lite_inp_monitor.sv(44) @ 5075: uvm_test_top.env.aa.inp_mon [INPUT MONITOR]  WRITE awaddr=0000002c wdata=ec069cfb wstrb=1011 
UVM_INFO axi4_lite_out_monitor.sv(28) @ 5095: uvm_test_top.env.pa.out_mon [OUTPUT MONITOR] BRESP = 2 RRESP = 0 RDATA = 00000000
UVM_INFO axi4_lite_driver.sv(34) @ 5095: uvm_test_top.env.aa.drv [DRV] awaddr = 0000002c wdata = ec069cfb wstrb = b araddr = 341cf584
UVM_INFO axi4_lite_scoreboard.sv(52) @ 5095: uvm_test_top.env.scb [BRESP] Matched : exp_bresp= 2 actual_bresp=2 write = 1 read = 0
UVM_INFO axi4_lite_subscriber.sv(41) @ 5135: uvm_test_top.env.sb [sb] INPUT COVERAGE = 66.67 %
UVM_INFO axi4_lite_inp_monitor.sv(44) @ 5135: uvm_test_top.env.aa.inp_mon [INPUT MONITOR]  WRITE awaddr=00000028 wdata=3aa3ddca wstrb=0110 
UVM_INFO axi4_lite_out_monitor.sv(28) @ 5155: uvm_test_top.env.pa.out_mon [OUTPUT MONITOR] BRESP = 2 RRESP = 0 RDATA = 00000000
UVM_INFO axi4_lite_driver.sv(34) @ 5155: uvm_test_top.env.aa.drv [DRV] awaddr = 00000028 wdata = 3aa3ddca wstrb = 6 araddr = b48fef3c
UVM_INFO axi4_lite_scoreboard.sv(52) @ 5155: uvm_test_top.env.scb [BRESP] Matched : exp_bresp= 2 actual_bresp=2 write = 1 read = 0
UVM_INFO axi4_lite_subscriber.sv(41) @ 5175: uvm_test_top.env.sb [sb] INPUT COVERAGE = 66.67 %
UVM_INFO axi4_lite_inp_monitor.sv(44) @ 5175: uvm_test_top.env.aa.inp_mon [INPUT MONITOR]  WRITE awaddr=00000030 wdata=ddecf4c6 wstrb=0111 
UVM_INFO axi4_lite_out_monitor.sv(28) @ 5195: uvm_test_top.env.pa.out_mon [OUTPUT MONITOR] BRESP = 2 RRESP = 0 RDATA = 00000000
UVM_INFO axi4_lite_driver.sv(34) @ 5195: uvm_test_top.env.aa.drv [DRV] awaddr = 00000030 wdata = ddecf4c6 wstrb = 7 araddr = d01a3900
UVM_INFO axi4_lite_scoreboard.sv(52) @ 5195: uvm_test_top.env.scb [BRESP] Matched : exp_bresp= 2 actual_bresp=2 write = 1 read = 0
UVM_INFO axi4_lite_subscriber.sv(41) @ 5215: uvm_test_top.env.sb [sb] INPUT COVERAGE = 66.67 %
UVM_INFO axi4_lite_inp_monitor.sv(44) @ 5215: uvm_test_top.env.aa.inp_mon [INPUT MONITOR]  WRITE awaddr=00000028 wdata=866b725f wstrb=1010 
UVM_INFO axi4_lite_out_monitor.sv(28) @ 5235: uvm_test_top.env.pa.out_mon [OUTPUT MONITOR] BRESP = 2 RRESP = 0 RDATA = 00000000
UVM_INFO axi4_lite_driver.sv(34) @ 5235: uvm_test_top.env.aa.drv [DRV] awaddr = 00000028 wdata = 866b725f wstrb = a araddr = 98ec6a4c
UVM_INFO axi4_lite_scoreboard.sv(52) @ 5235: uvm_test_top.env.scb [BRESP] Matched : exp_bresp= 2 actual_bresp=2 write = 1 read = 0
UVM_INFO axi4_lite_subscriber.sv(41) @ 5265: uvm_test_top.env.sb [sb] INPUT COVERAGE = 66.67 %
UVM_INFO axi4_lite_inp_monitor.sv(44) @ 5265: uvm_test_top.env.aa.inp_mon [INPUT MONITOR]  WRITE awaddr=0000002c wdata=820b1a4f wstrb=1011 
UVM_INFO axi4_lite_out_monitor.sv(28) @ 5285: uvm_test_top.env.pa.out_mon [OUTPUT MONITOR] BRESP = 2 RRESP = 0 RDATA = 00000000
UVM_INFO axi4_lite_driver.sv(34) @ 5285: uvm_test_top.env.aa.drv [DRV] awaddr = 0000002c wdata = 820b1a4f wstrb = b araddr = d2368bcc
UVM_INFO axi4_lite_scoreboard.sv(52) @ 5285: uvm_test_top.env.scb [BRESP] Matched : exp_bresp= 2 actual_bresp=2 write = 1 read = 0
UVM_INFO axi4_lite_subscriber.sv(41) @ 5335: uvm_test_top.env.sb [sb] INPUT COVERAGE = 66.67 %
UVM_INFO axi4_lite_inp_monitor.sv(44) @ 5335: uvm_test_top.env.aa.inp_mon [INPUT MONITOR]  WRITE awaddr=00000030 wdata=2285b12a wstrb=1111 
UVM_INFO axi4_lite_out_monitor.sv(28) @ 5355: uvm_test_top.env.pa.out_mon [OUTPUT MONITOR] BRESP = 2 RRESP = 0 RDATA = 00000000
UVM_INFO axi4_lite_driver.sv(34) @ 5355: uvm_test_top.env.aa.drv [DRV] awaddr = 00000030 wdata = 2285b12a wstrb = f araddr = 5d12cedc
UVM_INFO axi4_lite_scoreboard.sv(52) @ 5355: uvm_test_top.env.scb [BRESP] Matched : exp_bresp= 2 actual_bresp=2 write = 1 read = 0
UVM_INFO axi4_lite_subscriber.sv(41) @ 5395: uvm_test_top.env.sb [sb] INPUT COVERAGE = 66.67 %
UVM_INFO axi4_lite_inp_monitor.sv(44) @ 5395: uvm_test_top.env.aa.inp_mon [INPUT MONITOR]  WRITE awaddr=0000002c wdata=4b075a4a wstrb=0001 
UVM_INFO axi4_lite_out_monitor.sv(28) @ 5415: uvm_test_top.env.pa.out_mon [OUTPUT MONITOR] BRESP = 2 RRESP = 0 RDATA = 00000000
UVM_INFO axi4_lite_driver.sv(34) @ 5415: uvm_test_top.env.aa.drv [DRV] awaddr = 0000002c wdata = 4b075a4a wstrb = 1 araddr = b1f8abec
UVM_INFO axi4_lite_scoreboard.sv(52) @ 5415: uvm_test_top.env.scb [BRESP] Matched : exp_bresp= 2 actual_bresp=2 write = 1 read = 0
UVM_INFO axi4_lite_subscriber.sv(41) @ 5455: uvm_test_top.env.sb [sb] INPUT COVERAGE = 66.67 %
UVM_INFO axi4_lite_inp_monitor.sv(44) @ 5455: uvm_test_top.env.aa.inp_mon [INPUT MONITOR]  WRITE awaddr=0000002c wdata=36bfd5ab wstrb=0001 
UVM_INFO axi4_lite_out_monitor.sv(28) @ 5475: uvm_test_top.env.pa.out_mon [OUTPUT MONITOR] BRESP = 2 RRESP = 0 RDATA = 00000000
UVM_INFO axi4_lite_driver.sv(34) @ 5475: uvm_test_top.env.aa.drv [DRV] awaddr = 0000002c wdata = 36bfd5ab wstrb = 1 araddr = 241a7dcc
UVM_INFO axi4_lite_scoreboard.sv(52) @ 5475: uvm_test_top.env.scb [BRESP] Matched : exp_bresp= 2 actual_bresp=2 write = 1 read = 0
UVM_INFO axi4_lite_subscriber.sv(41) @ 5525: uvm_test_top.env.sb [sb] INPUT COVERAGE = 66.67 %
UVM_INFO axi4_lite_inp_monitor.sv(44) @ 5525: uvm_test_top.env.aa.inp_mon [INPUT MONITOR]  WRITE awaddr=00000030 wdata=b50df223 wstrb=1001 
UVM_INFO axi4_lite_out_monitor.sv(28) @ 5545: uvm_test_top.env.pa.out_mon [OUTPUT MONITOR] BRESP = 2 RRESP = 0 RDATA = 00000000
UVM_INFO axi4_lite_driver.sv(34) @ 5545: uvm_test_top.env.aa.drv [DRV] awaddr = 00000030 wdata = b50df223 wstrb = 9 araddr = 706fdd54
UVM_INFO axi4_lite_scoreboard.sv(52) @ 5545: uvm_test_top.env.scb [BRESP] Matched : exp_bresp= 2 actual_bresp=2 write = 1 read = 0
UVM_INFO axi4_lite_test.sv(57) @ 5545: uvm_test_top [TEST] Write to ro completed
UVM_INFO /fetools/synopsys/installed_tools/vcs/vcs/Q-2020.03-SP2-8/etc/uvm/base/uvm_objection.svh(1274) @ 5545: reporter [TEST_DONE] 'run' phase is ready to proceed to the 'extract' phase

--- UVM Report Summary ---

** Report counts by severity
UVM_INFO :  504
UVM_WARNING :    0
UVM_ERROR :    0
UVM_FATAL :    0
** Report counts by id
[BRESP]   100
[DRV]   100
[INPUT MONITOR]   100
[OUTPUT MONITOR]   100
[RNTST]     1
[TEST]     1
[TEST_DONE]     1
[UVMTOP]     1
[sb]   100
$finish called from file "/fetools/synopsys/installed_tools/vcs/vcs/Q-2020.03-SP2-8/etc/uvm/base/uvm_root.svh", line 437.
$finish at simulation time                 5545

---------------------------------------------------------------------------
VCS Coverage Metrics: during simulation line, cond, FSM, branch, tgl was monitored
---------------------------------------------------------------------------
           V C S   S i m u l a t i o n   R e p o r t 
Time: 5545 ns
CPU Time:      0.610 seconds;       Data structure size:   0.4Mb
Thu Sep 17 16:19:23 2026
