Command: /fetools/work_area/frontend/Batch_11/ananyaganesh/system_verilog/AXI4_LITE_SLAVE/src/./simv +UVM_TESTNAME=axi4_lite_test_simultaneous_read_write +UVM_VERBOSITY=UVM_HIGH -cm line+cond+fsm+tgl+branch+assert -cm_dir regression.vdb -cm_name axi4_lite_test_simultaneous_read_write -l axi4_lite_test_simultaneous_read_write_regr.log
Chronologic VCS simulator copyright 1991-2020
Contains Synopsys proprietary information.
Compiler version Q-2020.03-SP2-8_Full64; Runtime version Q-2020.03-SP2-8_Full64;  Sep 18 16:14 2026
----------------------------------------------------------------
UVM-1.1d.Synopsys
(C) 2007-2013 Mentor Graphics Corporation
(C) 2007-2013 Cadence Design Systems, Inc.
(C) 2006-2013 Synopsys, Inc.
(C) 2011-2013 Cypress Semiconductor Corp.
----------------------------------------------------------------

  ***********       IMPORTANT RELEASE NOTES         ************

  You are using a version of the UVM library that has been compiled
  with `UVM_NO_DEPRECATED undefined.
  See http://www.eda.org/svdb/view.php?id=3313 for more details.

  You are using a version of the UVM library that has been compiled
  with `UVM_OBJECT_MUST_HAVE_CONSTRUCTOR undefined.
  See http://www.eda.org/svdb/view.php?id=3770 for more details.

      (Specify +UVM_NO_RELNOTES to turn off this notice)

UVM_INFO @ 0: reporter [RNTST] Running test axi4_lite_test_simultaneous_read_write...
UVM_INFO @ 0: reporter [UVMTOP] UVM testbench topology:
------------------------------------------------------------------------------
Name                       Type                                    Size  Value
------------------------------------------------------------------------------
uvm_test_top               axi4_lite_test_simultaneous_read_write  -     @469 
  env                      axi4_lite_environment                   -     @477 
    aa                     axi4_lite_active_agent                  -     @489 
      drv                  axi4_lite_driver                        -     @569 
        rsp_port           uvm_analysis_port                       -     @586 
        seq_item_port      uvm_seq_item_pull_port                  -     @577 
      inp_mon              axi4_lite_inp_monitor                   -     @552 
        inp_mon_port       uvm_analysis_port                       -     @560 
      seqr                 axi4_lite_seqr                          -     @595 
        rsp_export         uvm_analysis_export                     -     @603 
        seq_item_export    uvm_seq_item_pull_imp                   -     @709 
        arbitration_queue  array                                   0     -    
        lock_queue         array                                   0     -    
        num_last_reqs      integral                                32    'd1  
        num_last_rsps      integral                                32    'd1  
    pa                     axi4_lite_passive_agent                 -     @497 
      out_mon              axi4_lite_out_monitor                   -     @726 
        out_mon_port       uvm_analysis_port                       -     @734 
    sb                     axi4_lite_subscriber                    -     @531 
      analysis_imp         uvm_analysis_imp                        -     @539 
    scb                    axi4_lite_scoreboard                    -     @505 
      inp_port             uvm_analysis_imp_in                     -     @513 
      out_port             uvm_analysis_imp_out                    -     @522 
------------------------------------------------------------------------------

UVM_INFO axi4_lite_subscriber.sv(41) @ 45: uvm_test_top.env.sb [sb] INPUT COVERAGE = 19.79 %
UVM_INFO axi4_lite_inp_monitor.sv(44) @ 45: uvm_test_top.env.aa.inp_mon [INPUT MONITOR]  WRITE awaddr=811e1fac wdata=40e1b8d1 wstrb=0100 
UVM_INFO axi4_lite_out_monitor.sv(28) @ 65: uvm_test_top.env.pa.out_mon [OUTPUT MONITOR] BRESP = 3 RRESP = 0 RDATA = 00000000
UVM_INFO axi4_lite_scoreboard.sv(52) @ 65: uvm_test_top.env.scb [BRESP] Matched : exp_bresp= 3 actual_bresp=3 write = 1 read = 0
UVM_INFO axi4_lite_subscriber.sv(41) @ 75: uvm_test_top.env.sb [sb] INPUT COVERAGE = 31.25 %
UVM_INFO axi4_lite_inp_monitor.sv(38) @ 75: uvm_test_top.env.aa.inp_mon [INPUT MONITOR] READ araddr=00000024
UVM_INFO axi4_lite_out_monitor.sv(28) @ 85: uvm_test_top.env.pa.out_mon [OUTPUT MONITOR] BRESP = 0 RRESP = 0 RDATA = 00000000
UVM_INFO axi4_lite_driver.sv(34) @ 85: uvm_test_top.env.aa.drv [DRV] awaddr = 811e1fac wdata = 40e1b8d1 wstrb = 4 araddr = 00000024
UVM_INFO axi4_lite_scoreboard.sv(68) @ 85: uvm_test_top.env.scb [RRESP] Matched : exp_rresp=0 actual_rresp =0 write = 0 read = 1
UVM_INFO axi4_lite_scoreboard.sv(72) @ 85: uvm_test_top.env.scb [RDATA] Matched : exp_rdata=00000000 actual_rdata =00000000
UVM_INFO axi4_lite_subscriber.sv(41) @ 125: uvm_test_top.env.sb [sb] INPUT COVERAGE = 34.38 %
UVM_INFO axi4_lite_inp_monitor.sv(44) @ 125: uvm_test_top.env.aa.inp_mon [INPUT MONITOR]  WRITE awaddr=54343ae4 wdata=042d86fe wstrb=1111 
UVM_INFO axi4_lite_out_monitor.sv(28) @ 145: uvm_test_top.env.pa.out_mon [OUTPUT MONITOR] BRESP = 3 RRESP = 0 RDATA = 00000000
UVM_INFO axi4_lite_scoreboard.sv(52) @ 145: uvm_test_top.env.scb [BRESP] Matched : exp_bresp= 3 actual_bresp=3 write = 1 read = 0
UVM_INFO axi4_lite_subscriber.sv(41) @ 155: uvm_test_top.env.sb [sb] INPUT COVERAGE = 34.38 %
UVM_INFO axi4_lite_inp_monitor.sv(38) @ 155: uvm_test_top.env.aa.inp_mon [INPUT MONITOR] READ araddr=00000010
UVM_INFO axi4_lite_out_monitor.sv(28) @ 165: uvm_test_top.env.pa.out_mon [OUTPUT MONITOR] BRESP = 0 RRESP = 0 RDATA = 00000000
UVM_INFO axi4_lite_driver.sv(34) @ 165: uvm_test_top.env.aa.drv [DRV] awaddr = 54343ae4 wdata = 042d86fe wstrb = f araddr = 00000010
UVM_INFO axi4_lite_scoreboard.sv(68) @ 165: uvm_test_top.env.scb [RRESP] Matched : exp_rresp=0 actual_rresp =0 write = 0 read = 1
UVM_INFO axi4_lite_scoreboard.sv(72) @ 165: uvm_test_top.env.scb [RDATA] Matched : exp_rdata=00000000 actual_rdata =00000000
UVM_INFO axi4_lite_subscriber.sv(41) @ 215: uvm_test_top.env.sb [sb] INPUT COVERAGE = 42.71 %
UVM_INFO axi4_lite_inp_monitor.sv(44) @ 215: uvm_test_top.env.aa.inp_mon [INPUT MONITOR]  WRITE awaddr=36b07c84 wdata=81d8d677 wstrb=0110 
UVM_INFO axi4_lite_out_monitor.sv(28) @ 235: uvm_test_top.env.pa.out_mon [OUTPUT MONITOR] BRESP = 3 RRESP = 0 RDATA = 00000000
UVM_INFO axi4_lite_scoreboard.sv(52) @ 235: uvm_test_top.env.scb [BRESP] Matched : exp_bresp= 3 actual_bresp=3 write = 1 read = 0
UVM_INFO axi4_lite_subscriber.sv(41) @ 245: uvm_test_top.env.sb [sb] INPUT COVERAGE = 42.71 %
UVM_INFO axi4_lite_inp_monitor.sv(38) @ 245: uvm_test_top.env.aa.inp_mon [INPUT MONITOR] READ araddr=00000004
UVM_INFO axi4_lite_out_monitor.sv(28) @ 255: uvm_test_top.env.pa.out_mon [OUTPUT MONITOR] BRESP = 0 RRESP = 0 RDATA = 00000000
UVM_INFO axi4_lite_driver.sv(34) @ 255: uvm_test_top.env.aa.drv [DRV] awaddr = 36b07c84 wdata = 81d8d677 wstrb = 6 araddr = 00000004
UVM_INFO axi4_lite_scoreboard.sv(68) @ 255: uvm_test_top.env.scb [RRESP] Matched : exp_rresp=0 actual_rresp =0 write = 0 read = 1
UVM_INFO axi4_lite_scoreboard.sv(72) @ 255: uvm_test_top.env.scb [RDATA] Matched : exp_rdata=00000000 actual_rdata =00000000
UVM_INFO axi4_lite_subscriber.sv(41) @ 275: uvm_test_top.env.sb [sb] INPUT COVERAGE = 51.04 %
UVM_INFO axi4_lite_inp_monitor.sv(44) @ 275: uvm_test_top.env.aa.inp_mon [INPUT MONITOR]  WRITE awaddr=91dd93e8 wdata=d6d8d48b wstrb=1110 
UVM_INFO axi4_lite_out_monitor.sv(28) @ 295: uvm_test_top.env.pa.out_mon [OUTPUT MONITOR] BRESP = 3 RRESP = 0 RDATA = 00000000
UVM_INFO axi4_lite_scoreboard.sv(52) @ 295: uvm_test_top.env.scb [BRESP] Matched : exp_bresp= 3 actual_bresp=3 write = 1 read = 0
UVM_INFO axi4_lite_subscriber.sv(41) @ 305: uvm_test_top.env.sb [sb] INPUT COVERAGE = 51.04 %
UVM_INFO axi4_lite_inp_monitor.sv(38) @ 305: uvm_test_top.env.aa.inp_mon [INPUT MONITOR] READ araddr=00000000
UVM_INFO axi4_lite_out_monitor.sv(28) @ 315: uvm_test_top.env.pa.out_mon [OUTPUT MONITOR] BRESP = 0 RRESP = 0 RDATA = 00000000
UVM_INFO axi4_lite_driver.sv(34) @ 315: uvm_test_top.env.aa.drv [DRV] awaddr = 91dd93e8 wdata = d6d8d48b wstrb = e araddr = 00000000
UVM_INFO axi4_lite_scoreboard.sv(68) @ 315: uvm_test_top.env.scb [RRESP] Matched : exp_rresp=0 actual_rresp =0 write = 0 read = 1
UVM_INFO axi4_lite_scoreboard.sv(72) @ 315: uvm_test_top.env.scb [RDATA] Matched : exp_rdata=00000000 actual_rdata =00000000
UVM_INFO axi4_lite_subscriber.sv(41) @ 335: uvm_test_top.env.sb [sb] INPUT COVERAGE = 51.04 %
UVM_INFO axi4_lite_inp_monitor.sv(44) @ 335: uvm_test_top.env.aa.inp_mon [INPUT MONITOR]  WRITE awaddr=d109e63c wdata=82dad5b7 wstrb=1010 
UVM_INFO axi4_lite_out_monitor.sv(28) @ 355: uvm_test_top.env.pa.out_mon [OUTPUT MONITOR] BRESP = 3 RRESP = 0 RDATA = 00000000
UVM_INFO axi4_lite_scoreboard.sv(52) @ 355: uvm_test_top.env.scb [BRESP] Matched : exp_bresp= 3 actual_bresp=3 write = 1 read = 0
UVM_INFO axi4_lite_subscriber.sv(41) @ 365: uvm_test_top.env.sb [sb] INPUT COVERAGE = 51.04 %
UVM_INFO axi4_lite_inp_monitor.sv(38) @ 365: uvm_test_top.env.aa.inp_mon [INPUT MONITOR] READ araddr=00000000
UVM_INFO axi4_lite_out_monitor.sv(28) @ 375: uvm_test_top.env.pa.out_mon [OUTPUT MONITOR] BRESP = 0 RRESP = 0 RDATA = 00000000
UVM_INFO axi4_lite_driver.sv(34) @ 375: uvm_test_top.env.aa.drv [DRV] awaddr = d109e63c wdata = 82dad5b7 wstrb = a araddr = 00000000
UVM_INFO axi4_lite_scoreboard.sv(68) @ 375: uvm_test_top.env.scb [RRESP] Matched : exp_rresp=0 actual_rresp =0 write = 0 read = 1
UVM_INFO axi4_lite_scoreboard.sv(72) @ 375: uvm_test_top.env.scb [RDATA] Matched : exp_rdata=00000000 actual_rdata =00000000
UVM_INFO axi4_lite_subscriber.sv(41) @ 425: uvm_test_top.env.sb [sb] INPUT COVERAGE = 54.17 %
UVM_INFO axi4_lite_inp_monitor.sv(44) @ 425: uvm_test_top.env.aa.inp_mon [INPUT MONITOR]  WRITE awaddr=be5f8534 wdata=b48a6cf7 wstrb=1000 
UVM_INFO axi4_lite_out_monitor.sv(28) @ 445: uvm_test_top.env.pa.out_mon [OUTPUT MONITOR] BRESP = 3 RRESP = 0 RDATA = 00000000
UVM_INFO axi4_lite_scoreboard.sv(52) @ 445: uvm_test_top.env.scb [BRESP] Matched : exp_bresp= 3 actual_bresp=3 write = 1 read = 0
UVM_INFO axi4_lite_subscriber.sv(41) @ 455: uvm_test_top.env.sb [sb] INPUT COVERAGE = 54.17 %
UVM_INFO axi4_lite_inp_monitor.sv(38) @ 455: uvm_test_top.env.aa.inp_mon [INPUT MONITOR] READ araddr=0000000c
UVM_INFO axi4_lite_out_monitor.sv(28) @ 465: uvm_test_top.env.pa.out_mon [OUTPUT MONITOR] BRESP = 0 RRESP = 0 RDATA = 00000000
UVM_INFO axi4_lite_driver.sv(34) @ 465: uvm_test_top.env.aa.drv [DRV] awaddr = be5f8534 wdata = b48a6cf7 wstrb = 8 araddr = 0000000c
UVM_INFO axi4_lite_scoreboard.sv(68) @ 465: uvm_test_top.env.scb [RRESP] Matched : exp_rresp=0 actual_rresp =0 write = 0 read = 1
UVM_INFO axi4_lite_scoreboard.sv(72) @ 465: uvm_test_top.env.scb [RDATA] Matched : exp_rdata=00000000 actual_rdata =00000000
UVM_INFO axi4_lite_subscriber.sv(41) @ 505: uvm_test_top.env.sb [sb] INPUT COVERAGE = 57.29 %
UVM_INFO axi4_lite_inp_monitor.sv(44) @ 505: uvm_test_top.env.aa.inp_mon [INPUT MONITOR]  WRITE awaddr=8a062bdc wdata=807a1bc4 wstrb=0011 
UVM_INFO axi4_lite_out_monitor.sv(28) @ 525: uvm_test_top.env.pa.out_mon [OUTPUT MONITOR] BRESP = 3 RRESP = 0 RDATA = 00000000
UVM_INFO axi4_lite_scoreboard.sv(52) @ 525: uvm_test_top.env.scb [BRESP] Matched : exp_bresp= 3 actual_bresp=3 write = 1 read = 0
UVM_INFO axi4_lite_subscriber.sv(41) @ 535: uvm_test_top.env.sb [sb] INPUT COVERAGE = 65.62 %
UVM_INFO axi4_lite_inp_monitor.sv(38) @ 535: uvm_test_top.env.aa.inp_mon [INPUT MONITOR] READ araddr=00000028
UVM_INFO axi4_lite_out_monitor.sv(28) @ 545: uvm_test_top.env.pa.out_mon [OUTPUT MONITOR] BRESP = 0 RRESP = 0 RDATA = 00000000
UVM_INFO axi4_lite_driver.sv(34) @ 545: uvm_test_top.env.aa.drv [DRV] awaddr = 8a062bdc wdata = 807a1bc4 wstrb = 3 araddr = 00000028
UVM_INFO axi4_lite_scoreboard.sv(68) @ 545: uvm_test_top.env.scb [RRESP] Matched : exp_rresp=0 actual_rresp =0 write = 0 read = 1
UVM_INFO axi4_lite_scoreboard.sv(72) @ 545: uvm_test_top.env.scb [RDATA] Matched : exp_rdata=00000000 actual_rdata =00000000
UVM_INFO axi4_lite_subscriber.sv(41) @ 585: uvm_test_top.env.sb [sb] INPUT COVERAGE = 65.62 %
UVM_INFO axi4_lite_inp_monitor.sv(44) @ 585: uvm_test_top.env.aa.inp_mon [INPUT MONITOR]  WRITE awaddr=2850861c wdata=b3c1b45e wstrb=0101 
UVM_INFO axi4_lite_out_monitor.sv(28) @ 605: uvm_test_top.env.pa.out_mon [OUTPUT MONITOR] BRESP = 3 RRESP = 0 RDATA = 00000000
UVM_INFO axi4_lite_scoreboard.sv(52) @ 605: uvm_test_top.env.scb [BRESP] Matched : exp_bresp= 3 actual_bresp=3 write = 1 read = 0
UVM_INFO axi4_lite_subscriber.sv(41) @ 615: uvm_test_top.env.sb [sb] INPUT COVERAGE = 65.62 %
UVM_INFO axi4_lite_inp_monitor.sv(38) @ 615: uvm_test_top.env.aa.inp_mon [INPUT MONITOR] READ araddr=00000024
UVM_INFO axi4_lite_out_monitor.sv(28) @ 625: uvm_test_top.env.pa.out_mon [OUTPUT MONITOR] BRESP = 0 RRESP = 0 RDATA = 00000000
UVM_INFO axi4_lite_driver.sv(34) @ 625: uvm_test_top.env.aa.drv [DRV] awaddr = 2850861c wdata = b3c1b45e wstrb = 5 araddr = 00000024
UVM_INFO axi4_lite_scoreboard.sv(68) @ 625: uvm_test_top.env.scb [RRESP] Matched : exp_rresp=0 actual_rresp =0 write = 0 read = 1
UVM_INFO axi4_lite_scoreboard.sv(72) @ 625: uvm_test_top.env.scb [RDATA] Matched : exp_rdata=00000000 actual_rdata =00000000
UVM_INFO axi4_lite_subscriber.sv(41) @ 645: uvm_test_top.env.sb [sb] INPUT COVERAGE = 65.62 %
UVM_INFO axi4_lite_inp_monitor.sv(44) @ 645: uvm_test_top.env.aa.inp_mon [INPUT MONITOR]  WRITE awaddr=eecbd3a0 wdata=b2232c11 wstrb=0110 
UVM_INFO axi4_lite_out_monitor.sv(28) @ 665: uvm_test_top.env.pa.out_mon [OUTPUT MONITOR] BRESP = 3 RRESP = 0 RDATA = 00000000
UVM_INFO axi4_lite_scoreboard.sv(52) @ 665: uvm_test_top.env.scb [BRESP] Matched : exp_bresp= 3 actual_bresp=3 write = 1 read = 0
UVM_INFO axi4_lite_subscriber.sv(41) @ 675: uvm_test_top.env.sb [sb] INPUT COVERAGE = 65.62 %
UVM_INFO axi4_lite_inp_monitor.sv(38) @ 675: uvm_test_top.env.aa.inp_mon [INPUT MONITOR] READ araddr=0000002c
UVM_INFO axi4_lite_out_monitor.sv(28) @ 685: uvm_test_top.env.pa.out_mon [OUTPUT MONITOR] BRESP = 0 RRESP = 0 RDATA = 00000000
UVM_INFO axi4_lite_driver.sv(34) @ 685: uvm_test_top.env.aa.drv [DRV] awaddr = eecbd3a0 wdata = b2232c11 wstrb = 6 araddr = 0000002c
UVM_INFO axi4_lite_scoreboard.sv(68) @ 685: uvm_test_top.env.scb [RRESP] Matched : exp_rresp=0 actual_rresp =0 write = 0 read = 1
UVM_INFO axi4_lite_scoreboard.sv(72) @ 685: uvm_test_top.env.scb [RDATA] Matched : exp_rdata=00000000 actual_rdata =00000000
UVM_INFO axi4_lite_subscriber.sv(41) @ 715: uvm_test_top.env.sb [sb] INPUT COVERAGE = 65.62 %
UVM_INFO axi4_lite_inp_monitor.sv(44) @ 715: uvm_test_top.env.aa.inp_mon [INPUT MONITOR]  WRITE awaddr=2db6e24c wdata=7b79d99a wstrb=0110 
UVM_INFO axi4_lite_out_monitor.sv(28) @ 735: uvm_test_top.env.pa.out_mon [OUTPUT MONITOR] BRESP = 3 RRESP = 0 RDATA = 00000000
UVM_INFO axi4_lite_scoreboard.sv(52) @ 735: uvm_test_top.env.scb [BRESP] Matched : exp_bresp= 3 actual_bresp=3 write = 1 read = 0
UVM_INFO axi4_lite_subscriber.sv(41) @ 745: uvm_test_top.env.sb [sb] INPUT COVERAGE = 65.62 %
UVM_INFO axi4_lite_inp_monitor.sv(38) @ 745: uvm_test_top.env.aa.inp_mon [INPUT MONITOR] READ araddr=00000008
UVM_INFO axi4_lite_out_monitor.sv(28) @ 755: uvm_test_top.env.pa.out_mon [OUTPUT MONITOR] BRESP = 0 RRESP = 0 RDATA = 00000000
UVM_INFO axi4_lite_driver.sv(34) @ 755: uvm_test_top.env.aa.drv [DRV] awaddr = 2db6e24c wdata = 7b79d99a wstrb = 6 araddr = 00000008
UVM_INFO axi4_lite_scoreboard.sv(68) @ 755: uvm_test_top.env.scb [RRESP] Matched : exp_rresp=0 actual_rresp =0 write = 0 read = 1
UVM_INFO axi4_lite_scoreboard.sv(72) @ 755: uvm_test_top.env.scb [RDATA] Matched : exp_rdata=00000000 actual_rdata =00000000
UVM_INFO axi4_lite_subscriber.sv(41) @ 775: uvm_test_top.env.sb [sb] INPUT COVERAGE = 65.62 %
UVM_INFO axi4_lite_inp_monitor.sv(44) @ 775: uvm_test_top.env.aa.inp_mon [INPUT MONITOR]  WRITE awaddr=3a280238 wdata=3f4382e6 wstrb=0101 
UVM_INFO axi4_lite_out_monitor.sv(28) @ 795: uvm_test_top.env.pa.out_mon [OUTPUT MONITOR] BRESP = 3 RRESP = 0 RDATA = 00000000
UVM_INFO axi4_lite_scoreboard.sv(52) @ 795: uvm_test_top.env.scb [BRESP] Matched : exp_bresp= 3 actual_bresp=3 write = 1 read = 0
UVM_INFO axi4_lite_subscriber.sv(41) @ 805: uvm_test_top.env.sb [sb] INPUT COVERAGE = 65.62 %
UVM_INFO axi4_lite_inp_monitor.sv(38) @ 805: uvm_test_top.env.aa.inp_mon [INPUT MONITOR] READ araddr=0000002c
UVM_INFO axi4_lite_out_monitor.sv(28) @ 815: uvm_test_top.env.pa.out_mon [OUTPUT MONITOR] BRESP = 0 RRESP = 0 RDATA = 00000000
UVM_INFO axi4_lite_driver.sv(34) @ 815: uvm_test_top.env.aa.drv [DRV] awaddr = 3a280238 wdata = 3f4382e6 wstrb = 5 araddr = 0000002c
UVM_INFO axi4_lite_scoreboard.sv(68) @ 815: uvm_test_top.env.scb [RRESP] Matched : exp_rresp=0 actual_rresp =0 write = 0 read = 1
UVM_INFO axi4_lite_scoreboard.sv(72) @ 815: uvm_test_top.env.scb [RDATA] Matched : exp_rdata=00000000 actual_rdata =00000000
UVM_INFO axi4_lite_subscriber.sv(41) @ 845: uvm_test_top.env.sb [sb] INPUT COVERAGE = 65.62 %
UVM_INFO axi4_lite_inp_monitor.sv(44) @ 845: uvm_test_top.env.aa.inp_mon [INPUT MONITOR]  WRITE awaddr=cb961ea8 wdata=c11f04e8 wstrb=0100 
UVM_INFO axi4_lite_out_monitor.sv(28) @ 865: uvm_test_top.env.pa.out_mon [OUTPUT MONITOR] BRESP = 3 RRESP = 0 RDATA = 00000000
UVM_INFO axi4_lite_scoreboard.sv(52) @ 865: uvm_test_top.env.scb [BRESP] Matched : exp_bresp= 3 actual_bresp=3 write = 1 read = 0
UVM_INFO axi4_lite_subscriber.sv(41) @ 875: uvm_test_top.env.sb [sb] INPUT COVERAGE = 73.96 %
UVM_INFO axi4_lite_inp_monitor.sv(38) @ 875: uvm_test_top.env.aa.inp_mon [INPUT MONITOR] READ araddr=00000034
UVM_INFO axi4_lite_out_monitor.sv(28) @ 885: uvm_test_top.env.pa.out_mon [OUTPUT MONITOR] BRESP = 0 RRESP = 2 RDATA = 00000000
UVM_INFO axi4_lite_driver.sv(34) @ 885: uvm_test_top.env.aa.drv [DRV] awaddr = cb961ea8 wdata = c11f04e8 wstrb = 4 araddr = 00000034
UVM_INFO axi4_lite_scoreboard.sv(68) @ 885: uvm_test_top.env.scb [RRESP] Matched : exp_rresp=2 actual_rresp =2 write = 0 read = 1
UVM_INFO axi4_lite_scoreboard.sv(72) @ 885: uvm_test_top.env.scb [RDATA] Matched : exp_rdata=00000000 actual_rdata =00000000
UVM_INFO axi4_lite_subscriber.sv(41) @ 915: uvm_test_top.env.sb [sb] INPUT COVERAGE = 73.96 %
UVM_INFO axi4_lite_inp_monitor.sv(44) @ 915: uvm_test_top.env.aa.inp_mon [INPUT MONITOR]  WRITE awaddr=acfa9bbc wdata=83c53d9d wstrb=1010 
UVM_INFO axi4_lite_out_monitor.sv(28) @ 935: uvm_test_top.env.pa.out_mon [OUTPUT MONITOR] BRESP = 3 RRESP = 0 RDATA = 00000000
UVM_INFO axi4_lite_scoreboard.sv(52) @ 935: uvm_test_top.env.scb [BRESP] Matched : exp_bresp= 3 actual_bresp=3 write = 1 read = 0
UVM_INFO axi4_lite_subscriber.sv(41) @ 945: uvm_test_top.env.sb [sb] INPUT COVERAGE = 73.96 %
UVM_INFO axi4_lite_inp_monitor.sv(38) @ 945: uvm_test_top.env.aa.inp_mon [INPUT MONITOR] READ araddr=00000004
UVM_INFO axi4_lite_out_monitor.sv(28) @ 955: uvm_test_top.env.pa.out_mon [OUTPUT MONITOR] BRESP = 0 RRESP = 0 RDATA = 00000000
UVM_INFO axi4_lite_driver.sv(34) @ 955: uvm_test_top.env.aa.drv [DRV] awaddr = acfa9bbc wdata = 83c53d9d wstrb = a araddr = 00000004
UVM_INFO axi4_lite_scoreboard.sv(68) @ 955: uvm_test_top.env.scb [RRESP] Matched : exp_rresp=0 actual_rresp =0 write = 0 read = 1
UVM_INFO axi4_lite_scoreboard.sv(72) @ 955: uvm_test_top.env.scb [RDATA] Matched : exp_rdata=00000000 actual_rdata =00000000
UVM_INFO axi4_lite_subscriber.sv(41) @ 985: uvm_test_top.env.sb [sb] INPUT COVERAGE = 73.96 %
UVM_INFO axi4_lite_inp_monitor.sv(44) @ 985: uvm_test_top.env.aa.inp_mon [INPUT MONITOR]  WRITE awaddr=172070a4 wdata=527070c5 wstrb=1001 
UVM_INFO axi4_lite_out_monitor.sv(28) @ 1005: uvm_test_top.env.pa.out_mon [OUTPUT MONITOR] BRESP = 3 RRESP = 0 RDATA = 00000000
UVM_INFO axi4_lite_scoreboard.sv(52) @ 1005: uvm_test_top.env.scb [BRESP] Matched : exp_bresp= 3 actual_bresp=3 write = 1 read = 0
UVM_INFO axi4_lite_subscriber.sv(41) @ 1015: uvm_test_top.env.sb [sb] INPUT COVERAGE = 73.96 %
UVM_INFO axi4_lite_inp_monitor.sv(38) @ 1015: uvm_test_top.env.aa.inp_mon [INPUT MONITOR] READ araddr=00000004
UVM_INFO axi4_lite_out_monitor.sv(28) @ 1025: uvm_test_top.env.pa.out_mon [OUTPUT MONITOR] BRESP = 0 RRESP = 0 RDATA = 00000000
UVM_INFO axi4_lite_driver.sv(34) @ 1025: uvm_test_top.env.aa.drv [DRV] awaddr = 172070a4 wdata = 527070c5 wstrb = 9 araddr = 00000004
UVM_INFO axi4_lite_scoreboard.sv(68) @ 1025: uvm_test_top.env.scb [RRESP] Matched : exp_rresp=0 actual_rresp =0 write = 0 read = 1
UVM_INFO axi4_lite_scoreboard.sv(72) @ 1025: uvm_test_top.env.scb [RDATA] Matched : exp_rdata=00000000 actual_rdata =00000000
UVM_INFO axi4_lite_subscriber.sv(41) @ 1075: uvm_test_top.env.sb [sb] INPUT COVERAGE = 73.96 %
UVM_INFO axi4_lite_inp_monitor.sv(44) @ 1075: uvm_test_top.env.aa.inp_mon [INPUT MONITOR]  WRITE awaddr=687e1478 wdata=2acd73d7 wstrb=1000 
UVM_INFO axi4_lite_out_monitor.sv(28) @ 1095: uvm_test_top.env.pa.out_mon [OUTPUT MONITOR] BRESP = 3 RRESP = 0 RDATA = 00000000
UVM_INFO axi4_lite_scoreboard.sv(52) @ 1095: uvm_test_top.env.scb [BRESP] Matched : exp_bresp= 3 actual_bresp=3 write = 1 read = 0
UVM_INFO axi4_lite_subscriber.sv(41) @ 1105: uvm_test_top.env.sb [sb] INPUT COVERAGE = 73.96 %
UVM_INFO axi4_lite_inp_monitor.sv(38) @ 1105: uvm_test_top.env.aa.inp_mon [INPUT MONITOR] READ araddr=00000024
UVM_INFO axi4_lite_out_monitor.sv(28) @ 1115: uvm_test_top.env.pa.out_mon [OUTPUT MONITOR] BRESP = 0 RRESP = 0 RDATA = 00000000
UVM_INFO axi4_lite_driver.sv(34) @ 1115: uvm_test_top.env.aa.drv [DRV] awaddr = 687e1478 wdata = 2acd73d7 wstrb = 8 araddr = 00000024
UVM_INFO axi4_lite_scoreboard.sv(68) @ 1115: uvm_test_top.env.scb [RRESP] Matched : exp_rresp=0 actual_rresp =0 write = 0 read = 1
UVM_INFO axi4_lite_scoreboard.sv(72) @ 1115: uvm_test_top.env.scb [RDATA] Matched : exp_rdata=00000000 actual_rdata =00000000
UVM_INFO axi4_lite_subscriber.sv(41) @ 1165: uvm_test_top.env.sb [sb] INPUT COVERAGE = 73.96 %
UVM_INFO axi4_lite_inp_monitor.sv(44) @ 1165: uvm_test_top.env.aa.inp_mon [INPUT MONITOR]  WRITE awaddr=6972010c wdata=7da8d8bc wstrb=1001 
UVM_INFO axi4_lite_out_monitor.sv(28) @ 1185: uvm_test_top.env.pa.out_mon [OUTPUT MONITOR] BRESP = 3 RRESP = 0 RDATA = 00000000
UVM_INFO axi4_lite_scoreboard.sv(52) @ 1185: uvm_test_top.env.scb [BRESP] Matched : exp_bresp= 3 actual_bresp=3 write = 1 read = 0
UVM_INFO axi4_lite_subscriber.sv(41) @ 1195: uvm_test_top.env.sb [sb] INPUT COVERAGE = 73.96 %
UVM_INFO axi4_lite_inp_monitor.sv(38) @ 1195: uvm_test_top.env.aa.inp_mon [INPUT MONITOR] READ araddr=0000002c
UVM_INFO axi4_lite_out_monitor.sv(28) @ 1205: uvm_test_top.env.pa.out_mon [OUTPUT MONITOR] BRESP = 0 RRESP = 0 RDATA = 00000000
UVM_INFO axi4_lite_driver.sv(34) @ 1205: uvm_test_top.env.aa.drv [DRV] awaddr = 6972010c wdata = 7da8d8bc wstrb = 9 araddr = 0000002c
UVM_INFO axi4_lite_scoreboard.sv(68) @ 1205: uvm_test_top.env.scb [RRESP] Matched : exp_rresp=0 actual_rresp =0 write = 0 read = 1
UVM_INFO axi4_lite_scoreboard.sv(72) @ 1205: uvm_test_top.env.scb [RDATA] Matched : exp_rdata=00000000 actual_rdata =00000000
UVM_INFO axi4_lite_subscriber.sv(41) @ 1245: uvm_test_top.env.sb [sb] INPUT COVERAGE = 73.96 %
UVM_INFO axi4_lite_inp_monitor.sv(44) @ 1245: uvm_test_top.env.aa.inp_mon [INPUT MONITOR]  WRITE awaddr=d5439ca0 wdata=0ba519c8 wstrb=1101 
UVM_INFO axi4_lite_out_monitor.sv(28) @ 1265: uvm_test_top.env.pa.out_mon [OUTPUT MONITOR] BRESP = 3 RRESP = 0 RDATA = 00000000
UVM_INFO axi4_lite_scoreboard.sv(52) @ 1265: uvm_test_top.env.scb [BRESP] Matched : exp_bresp= 3 actual_bresp=3 write = 1 read = 0
UVM_INFO axi4_lite_subscriber.sv(41) @ 1275: uvm_test_top.env.sb [sb] INPUT COVERAGE = 73.96 %
UVM_INFO axi4_lite_inp_monitor.sv(38) @ 1275: uvm_test_top.env.aa.inp_mon [INPUT MONITOR] READ araddr=00000000
UVM_INFO axi4_lite_out_monitor.sv(28) @ 1285: uvm_test_top.env.pa.out_mon [OUTPUT MONITOR] BRESP = 0 RRESP = 0 RDATA = 00000000
UVM_INFO axi4_lite_driver.sv(34) @ 1285: uvm_test_top.env.aa.drv [DRV] awaddr = d5439ca0 wdata = 0ba519c8 wstrb = d araddr = 00000000
UVM_INFO axi4_lite_scoreboard.sv(68) @ 1285: uvm_test_top.env.scb [RRESP] Matched : exp_rresp=0 actual_rresp =0 write = 0 read = 1
UVM_INFO axi4_lite_scoreboard.sv(72) @ 1285: uvm_test_top.env.scb [RDATA] Matched : exp_rdata=00000000 actual_rdata =00000000
UVM_INFO axi4_lite_subscriber.sv(41) @ 1325: uvm_test_top.env.sb [sb] INPUT COVERAGE = 73.96 %
UVM_INFO axi4_lite_inp_monitor.sv(44) @ 1325: uvm_test_top.env.aa.inp_mon [INPUT MONITOR]  WRITE awaddr=864f0e40 wdata=b76d30a3 wstrb=0110 
UVM_INFO axi4_lite_out_monitor.sv(28) @ 1345: uvm_test_top.env.pa.out_mon [OUTPUT MONITOR] BRESP = 3 RRESP = 0 RDATA = 00000000
UVM_INFO axi4_lite_scoreboard.sv(52) @ 1345: uvm_test_top.env.scb [BRESP] Matched : exp_bresp= 3 actual_bresp=3 write = 1 read = 0
UVM_INFO axi4_lite_subscriber.sv(41) @ 1355: uvm_test_top.env.sb [sb] INPUT COVERAGE = 73.96 %
UVM_INFO axi4_lite_inp_monitor.sv(38) @ 1355: uvm_test_top.env.aa.inp_mon [INPUT MONITOR] READ araddr=00000038
UVM_INFO axi4_lite_out_monitor.sv(28) @ 1365: uvm_test_top.env.pa.out_mon [OUTPUT MONITOR] BRESP = 0 RRESP = 2 RDATA = 00000000
UVM_INFO axi4_lite_driver.sv(34) @ 1365: uvm_test_top.env.aa.drv [DRV] awaddr = 864f0e40 wdata = b76d30a3 wstrb = 6 araddr = 00000038
UVM_INFO axi4_lite_scoreboard.sv(68) @ 1365: uvm_test_top.env.scb [RRESP] Matched : exp_rresp=2 actual_rresp =2 write = 0 read = 1
UVM_INFO axi4_lite_scoreboard.sv(72) @ 1365: uvm_test_top.env.scb [RDATA] Matched : exp_rdata=00000000 actual_rdata =00000000
UVM_INFO axi4_lite_subscriber.sv(41) @ 1415: uvm_test_top.env.sb [sb] INPUT COVERAGE = 73.96 %
UVM_INFO axi4_lite_inp_monitor.sv(44) @ 1415: uvm_test_top.env.aa.inp_mon [INPUT MONITOR]  WRITE awaddr=1c196d98 wdata=5297dd91 wstrb=1001 
UVM_INFO axi4_lite_out_monitor.sv(28) @ 1435: uvm_test_top.env.pa.out_mon [OUTPUT MONITOR] BRESP = 3 RRESP = 0 RDATA = 00000000
UVM_INFO axi4_lite_scoreboard.sv(52) @ 1435: uvm_test_top.env.scb [BRESP] Matched : exp_bresp= 3 actual_bresp=3 write = 1 read = 0
UVM_INFO axi4_lite_subscriber.sv(41) @ 1445: uvm_test_top.env.sb [sb] INPUT COVERAGE = 73.96 %
UVM_INFO axi4_lite_inp_monitor.sv(38) @ 1445: uvm_test_top.env.aa.inp_mon [INPUT MONITOR] READ araddr=0000000c
UVM_INFO axi4_lite_out_monitor.sv(28) @ 1455: uvm_test_top.env.pa.out_mon [OUTPUT MONITOR] BRESP = 0 RRESP = 0 RDATA = 00000000
UVM_INFO axi4_lite_driver.sv(34) @ 1455: uvm_test_top.env.aa.drv [DRV] awaddr = 1c196d98 wdata = 5297dd91 wstrb = 9 araddr = 0000000c
UVM_INFO axi4_lite_scoreboard.sv(68) @ 1455: uvm_test_top.env.scb [RRESP] Matched : exp_rresp=0 actual_rresp =0 write = 0 read = 1
UVM_INFO axi4_lite_scoreboard.sv(72) @ 1455: uvm_test_top.env.scb [RDATA] Matched : exp_rdata=00000000 actual_rdata =00000000
UVM_INFO axi4_lite_subscriber.sv(41) @ 1475: uvm_test_top.env.sb [sb] INPUT COVERAGE = 73.96 %
UVM_INFO axi4_lite_inp_monitor.sv(44) @ 1475: uvm_test_top.env.aa.inp_mon [INPUT MONITOR]  WRITE awaddr=edd5691c wdata=d51c83f0 wstrb=1111 
UVM_INFO axi4_lite_out_monitor.sv(28) @ 1495: uvm_test_top.env.pa.out_mon [OUTPUT MONITOR] BRESP = 3 RRESP = 0 RDATA = 00000000
UVM_INFO axi4_lite_scoreboard.sv(52) @ 1495: uvm_test_top.env.scb [BRESP] Matched : exp_bresp= 3 actual_bresp=3 write = 1 read = 0
UVM_INFO axi4_lite_subscriber.sv(41) @ 1505: uvm_test_top.env.sb [sb] INPUT COVERAGE = 73.96 %
UVM_INFO axi4_lite_inp_monitor.sv(38) @ 1505: uvm_test_top.env.aa.inp_mon [INPUT MONITOR] READ araddr=00000010
UVM_INFO axi4_lite_out_monitor.sv(28) @ 1515: uvm_test_top.env.pa.out_mon [OUTPUT MONITOR] BRESP = 0 RRESP = 0 RDATA = 00000000
UVM_INFO axi4_lite_driver.sv(34) @ 1515: uvm_test_top.env.aa.drv [DRV] awaddr = edd5691c wdata = d51c83f0 wstrb = f araddr = 00000010
UVM_INFO axi4_lite_scoreboard.sv(68) @ 1515: uvm_test_top.env.scb [RRESP] Matched : exp_rresp=0 actual_rresp =0 write = 0 read = 1
UVM_INFO axi4_lite_scoreboard.sv(72) @ 1515: uvm_test_top.env.scb [RDATA] Matched : exp_rdata=00000000 actual_rdata =00000000
UVM_INFO axi4_lite_subscriber.sv(41) @ 1555: uvm_test_top.env.sb [sb] INPUT COVERAGE = 73.96 %
UVM_INFO axi4_lite_inp_monitor.sv(44) @ 1555: uvm_test_top.env.aa.inp_mon [INPUT MONITOR]  WRITE awaddr=53ae0784 wdata=2b80d75e wstrb=1010 
UVM_INFO axi4_lite_out_monitor.sv(28) @ 1575: uvm_test_top.env.pa.out_mon [OUTPUT MONITOR] BRESP = 3 RRESP = 0 RDATA = 00000000
UVM_INFO axi4_lite_scoreboard.sv(52) @ 1575: uvm_test_top.env.scb [BRESP] Matched : exp_bresp= 3 actual_bresp=3 write = 1 read = 0
UVM_INFO axi4_lite_subscriber.sv(41) @ 1585: uvm_test_top.env.sb [sb] INPUT COVERAGE = 73.96 %
UVM_INFO axi4_lite_inp_monitor.sv(38) @ 1585: uvm_test_top.env.aa.inp_mon [INPUT MONITOR] READ araddr=0000000c
UVM_INFO axi4_lite_out_monitor.sv(28) @ 1595: uvm_test_top.env.pa.out_mon [OUTPUT MONITOR] BRESP = 0 RRESP = 0 RDATA = 00000000
UVM_INFO axi4_lite_driver.sv(34) @ 1595: uvm_test_top.env.aa.drv [DRV] awaddr = 53ae0784 wdata = 2b80d75e wstrb = a araddr = 0000000c
UVM_INFO axi4_lite_scoreboard.sv(68) @ 1595: uvm_test_top.env.scb [RRESP] Matched : exp_rresp=0 actual_rresp =0 write = 0 read = 1
UVM_INFO axi4_lite_scoreboard.sv(72) @ 1595: uvm_test_top.env.scb [RDATA] Matched : exp_rdata=00000000 actual_rdata =00000000
UVM_INFO axi4_lite_subscriber.sv(41) @ 1625: uvm_test_top.env.sb [sb] INPUT COVERAGE = 73.96 %
UVM_INFO axi4_lite_inp_monitor.sv(44) @ 1625: uvm_test_top.env.aa.inp_mon [INPUT MONITOR]  WRITE awaddr=ffca2610 wdata=7afa6f5b wstrb=0110 
UVM_INFO axi4_lite_out_monitor.sv(28) @ 1645: uvm_test_top.env.pa.out_mon [OUTPUT MONITOR] BRESP = 3 RRESP = 0 RDATA = 00000000
UVM_INFO axi4_lite_scoreboard.sv(52) @ 1645: uvm_test_top.env.scb [BRESP] Matched : exp_bresp= 3 actual_bresp=3 write = 1 read = 0
UVM_INFO axi4_lite_subscriber.sv(41) @ 1655: uvm_test_top.env.sb [sb] INPUT COVERAGE = 73.96 %
UVM_INFO axi4_lite_inp_monitor.sv(38) @ 1655: uvm_test_top.env.aa.inp_mon [INPUT MONITOR] READ araddr=00000000
UVM_INFO axi4_lite_out_monitor.sv(28) @ 1665: uvm_test_top.env.pa.out_mon [OUTPUT MONITOR] BRESP = 0 RRESP = 0 RDATA = 00000000
UVM_INFO axi4_lite_driver.sv(34) @ 1665: uvm_test_top.env.aa.drv [DRV] awaddr = ffca2610 wdata = 7afa6f5b wstrb = 6 araddr = 00000000
UVM_INFO axi4_lite_scoreboard.sv(68) @ 1665: uvm_test_top.env.scb [RRESP] Matched : exp_rresp=0 actual_rresp =0 write = 0 read = 1
UVM_INFO axi4_lite_scoreboard.sv(72) @ 1665: uvm_test_top.env.scb [RDATA] Matched : exp_rdata=00000000 actual_rdata =00000000
UVM_INFO axi4_lite_subscriber.sv(41) @ 1695: uvm_test_top.env.sb [sb] INPUT COVERAGE = 73.96 %
UVM_INFO axi4_lite_inp_monitor.sv(44) @ 1695: uvm_test_top.env.aa.inp_mon [INPUT MONITOR]  WRITE awaddr=7d6c1428 wdata=ecb54f12 wstrb=0111 
UVM_INFO axi4_lite_out_monitor.sv(28) @ 1715: uvm_test_top.env.pa.out_mon [OUTPUT MONITOR] BRESP = 3 RRESP = 0 RDATA = 00000000
UVM_INFO axi4_lite_scoreboard.sv(52) @ 1715: uvm_test_top.env.scb [BRESP] Matched : exp_bresp= 3 actual_bresp=3 write = 1 read = 0
UVM_INFO axi4_lite_subscriber.sv(41) @ 1725: uvm_test_top.env.sb [sb] INPUT COVERAGE = 73.96 %
UVM_INFO axi4_lite_inp_monitor.sv(38) @ 1725: uvm_test_top.env.aa.inp_mon [INPUT MONITOR] READ araddr=0000001c
UVM_INFO axi4_lite_out_monitor.sv(28) @ 1735: uvm_test_top.env.pa.out_mon [OUTPUT MONITOR] BRESP = 0 RRESP = 0 RDATA = 00000000
UVM_INFO axi4_lite_driver.sv(34) @ 1735: uvm_test_top.env.aa.drv [DRV] awaddr = 7d6c1428 wdata = ecb54f12 wstrb = 7 araddr = 0000001c
UVM_INFO axi4_lite_scoreboard.sv(68) @ 1735: uvm_test_top.env.scb [RRESP] Matched : exp_rresp=0 actual_rresp =0 write = 0 read = 1
UVM_INFO axi4_lite_scoreboard.sv(72) @ 1735: uvm_test_top.env.scb [RDATA] Matched : exp_rdata=00000000 actual_rdata =00000000
UVM_INFO axi4_lite_subscriber.sv(41) @ 1775: uvm_test_top.env.sb [sb] INPUT COVERAGE = 73.96 %
UVM_INFO axi4_lite_inp_monitor.sv(44) @ 1775: uvm_test_top.env.aa.inp_mon [INPUT MONITOR]  WRITE awaddr=10275ea4 wdata=a79a0032 wstrb=0101 
UVM_INFO axi4_lite_out_monitor.sv(28) @ 1795: uvm_test_top.env.pa.out_mon [OUTPUT MONITOR] BRESP = 3 RRESP = 0 RDATA = 00000000
UVM_INFO axi4_lite_scoreboard.sv(52) @ 1795: uvm_test_top.env.scb [BRESP] Matched : exp_bresp= 3 actual_bresp=3 write = 1 read = 0
UVM_INFO axi4_lite_subscriber.sv(41) @ 1805: uvm_test_top.env.sb [sb] INPUT COVERAGE = 73.96 %
UVM_INFO axi4_lite_inp_monitor.sv(38) @ 1805: uvm_test_top.env.aa.inp_mon [INPUT MONITOR] READ araddr=00000020
UVM_INFO axi4_lite_out_monitor.sv(28) @ 1815: uvm_test_top.env.pa.out_mon [OUTPUT MONITOR] BRESP = 0 RRESP = 0 RDATA = 00000000
UVM_INFO axi4_lite_driver.sv(34) @ 1815: uvm_test_top.env.aa.drv [DRV] awaddr = 10275ea4 wdata = a79a0032 wstrb = 5 araddr = 00000020
UVM_INFO axi4_lite_scoreboard.sv(68) @ 1815: uvm_test_top.env.scb [RRESP] Matched : exp_rresp=0 actual_rresp =0 write = 0 read = 1
UVM_INFO axi4_lite_scoreboard.sv(72) @ 1815: uvm_test_top.env.scb [RDATA] Matched : exp_rdata=00000000 actual_rdata =00000000
UVM_INFO axi4_lite_subscriber.sv(41) @ 1845: uvm_test_top.env.sb [sb] INPUT COVERAGE = 73.96 %
UVM_INFO axi4_lite_inp_monitor.sv(44) @ 1845: uvm_test_top.env.aa.inp_mon [INPUT MONITOR]  WRITE awaddr=f159c040 wdata=5b9decec wstrb=1001 
UVM_INFO axi4_lite_out_monitor.sv(28) @ 1865: uvm_test_top.env.pa.out_mon [OUTPUT MONITOR] BRESP = 3 RRESP = 0 RDATA = 00000000
UVM_INFO axi4_lite_scoreboard.sv(52) @ 1865: uvm_test_top.env.scb [BRESP] Matched : exp_bresp= 3 actual_bresp=3 write = 1 read = 0
UVM_INFO axi4_lite_subscriber.sv(41) @ 1875: uvm_test_top.env.sb [sb] INPUT COVERAGE = 73.96 %
UVM_INFO axi4_lite_inp_monitor.sv(38) @ 1875: uvm_test_top.env.aa.inp_mon [INPUT MONITOR] READ araddr=00000034
UVM_INFO axi4_lite_out_monitor.sv(28) @ 1885: uvm_test_top.env.pa.out_mon [OUTPUT MONITOR] BRESP = 0 RRESP = 2 RDATA = 00000000
UVM_INFO axi4_lite_driver.sv(34) @ 1885: uvm_test_top.env.aa.drv [DRV] awaddr = f159c040 wdata = 5b9decec wstrb = 9 araddr = 00000034
UVM_INFO axi4_lite_scoreboard.sv(68) @ 1885: uvm_test_top.env.scb [RRESP] Matched : exp_rresp=2 actual_rresp =2 write = 0 read = 1
UVM_INFO axi4_lite_scoreboard.sv(72) @ 1885: uvm_test_top.env.scb [RDATA] Matched : exp_rdata=00000000 actual_rdata =00000000
UVM_INFO axi4_lite_subscriber.sv(41) @ 1925: uvm_test_top.env.sb [sb] INPUT COVERAGE = 73.96 %
UVM_INFO axi4_lite_inp_monitor.sv(44) @ 1925: uvm_test_top.env.aa.inp_mon [INPUT MONITOR]  WRITE awaddr=258d4384 wdata=5c570b90 wstrb=0000 
UVM_INFO axi4_lite_out_monitor.sv(28) @ 1945: uvm_test_top.env.pa.out_mon [OUTPUT MONITOR] BRESP = 3 RRESP = 0 RDATA = 00000000
UVM_INFO axi4_lite_scoreboard.sv(52) @ 1945: uvm_test_top.env.scb [BRESP] Matched : exp_bresp= 3 actual_bresp=3 write = 1 read = 0
UVM_INFO axi4_lite_subscriber.sv(41) @ 1955: uvm_test_top.env.sb [sb] INPUT COVERAGE = 73.96 %
UVM_INFO axi4_lite_inp_monitor.sv(38) @ 1955: uvm_test_top.env.aa.inp_mon [INPUT MONITOR] READ araddr=00000028
UVM_INFO axi4_lite_out_monitor.sv(28) @ 1965: uvm_test_top.env.pa.out_mon [OUTPUT MONITOR] BRESP = 0 RRESP = 0 RDATA = 00000000
UVM_INFO axi4_lite_driver.sv(34) @ 1965: uvm_test_top.env.aa.drv [DRV] awaddr = 258d4384 wdata = 5c570b90 wstrb = 0 araddr = 00000028
UVM_INFO axi4_lite_scoreboard.sv(68) @ 1965: uvm_test_top.env.scb [RRESP] Matched : exp_rresp=0 actual_rresp =0 write = 0 read = 1
UVM_INFO axi4_lite_scoreboard.sv(72) @ 1965: uvm_test_top.env.scb [RDATA] Matched : exp_rdata=00000000 actual_rdata =00000000
UVM_INFO axi4_lite_subscriber.sv(41) @ 2015: uvm_test_top.env.sb [sb] INPUT COVERAGE = 73.96 %
UVM_INFO axi4_lite_inp_monitor.sv(44) @ 2015: uvm_test_top.env.aa.inp_mon [INPUT MONITOR]  WRITE awaddr=acd52b08 wdata=62f89722 wstrb=1111 
UVM_INFO axi4_lite_out_monitor.sv(28) @ 2035: uvm_test_top.env.pa.out_mon [OUTPUT MONITOR] BRESP = 3 RRESP = 0 RDATA = 00000000
UVM_INFO axi4_lite_scoreboard.sv(52) @ 2035: uvm_test_top.env.scb [BRESP] Matched : exp_bresp= 3 actual_bresp=3 write = 1 read = 0
UVM_INFO axi4_lite_subscriber.sv(41) @ 2045: uvm_test_top.env.sb [sb] INPUT COVERAGE = 73.96 %
UVM_INFO axi4_lite_inp_monitor.sv(38) @ 2045: uvm_test_top.env.aa.inp_mon [INPUT MONITOR] READ araddr=00000030
UVM_INFO axi4_lite_out_monitor.sv(28) @ 2055: uvm_test_top.env.pa.out_mon [OUTPUT MONITOR] BRESP = 0 RRESP = 0 RDATA = 00000000
UVM_INFO axi4_lite_driver.sv(34) @ 2055: uvm_test_top.env.aa.drv [DRV] awaddr = acd52b08 wdata = 62f89722 wstrb = f araddr = 00000030
UVM_INFO axi4_lite_scoreboard.sv(68) @ 2055: uvm_test_top.env.scb [RRESP] Matched : exp_rresp=0 actual_rresp =0 write = 0 read = 1
UVM_INFO axi4_lite_scoreboard.sv(72) @ 2055: uvm_test_top.env.scb [RDATA] Matched : exp_rdata=00000000 actual_rdata =00000000
UVM_INFO axi4_lite_subscriber.sv(41) @ 2085: uvm_test_top.env.sb [sb] INPUT COVERAGE = 73.96 %
UVM_INFO axi4_lite_inp_monitor.sv(44) @ 2085: uvm_test_top.env.aa.inp_mon [INPUT MONITOR]  WRITE awaddr=4ee239a4 wdata=28749d1e wstrb=1000 
UVM_INFO axi4_lite_out_monitor.sv(28) @ 2105: uvm_test_top.env.pa.out_mon [OUTPUT MONITOR] BRESP = 3 RRESP = 0 RDATA = 00000000
UVM_INFO axi4_lite_scoreboard.sv(52) @ 2105: uvm_test_top.env.scb [BRESP] Matched : exp_bresp= 3 actual_bresp=3 write = 1 read = 0
UVM_INFO axi4_lite_subscriber.sv(41) @ 2115: uvm_test_top.env.sb [sb] INPUT COVERAGE = 73.96 %
UVM_INFO axi4_lite_inp_monitor.sv(38) @ 2115: uvm_test_top.env.aa.inp_mon [INPUT MONITOR] READ araddr=00000008
UVM_INFO axi4_lite_out_monitor.sv(28) @ 2125: uvm_test_top.env.pa.out_mon [OUTPUT MONITOR] BRESP = 0 RRESP = 0 RDATA = 00000000
UVM_INFO axi4_lite_driver.sv(34) @ 2125: uvm_test_top.env.aa.drv [DRV] awaddr = 4ee239a4 wdata = 28749d1e wstrb = 8 araddr = 00000008
UVM_INFO axi4_lite_scoreboard.sv(68) @ 2125: uvm_test_top.env.scb [RRESP] Matched : exp_rresp=0 actual_rresp =0 write = 0 read = 1
UVM_INFO axi4_lite_scoreboard.sv(72) @ 2125: uvm_test_top.env.scb [RDATA] Matched : exp_rdata=00000000 actual_rdata =00000000
UVM_INFO axi4_lite_subscriber.sv(41) @ 2175: uvm_test_top.env.sb [sb] INPUT COVERAGE = 73.96 %
UVM_INFO axi4_lite_inp_monitor.sv(44) @ 2175: uvm_test_top.env.aa.inp_mon [INPUT MONITOR]  WRITE awaddr=0b22260c wdata=0f13c821 wstrb=0111 
UVM_INFO axi4_lite_out_monitor.sv(28) @ 2195: uvm_test_top.env.pa.out_mon [OUTPUT MONITOR] BRESP = 3 RRESP = 0 RDATA = 00000000
UVM_INFO axi4_lite_scoreboard.sv(52) @ 2195: uvm_test_top.env.scb [BRESP] Matched : exp_bresp= 3 actual_bresp=3 write = 1 read = 0
UVM_INFO axi4_lite_subscriber.sv(41) @ 2205: uvm_test_top.env.sb [sb] INPUT COVERAGE = 73.96 %
UVM_INFO axi4_lite_inp_monitor.sv(38) @ 2205: uvm_test_top.env.aa.inp_mon [INPUT MONITOR] READ araddr=00000030
UVM_INFO axi4_lite_out_monitor.sv(28) @ 2215: uvm_test_top.env.pa.out_mon [OUTPUT MONITOR] BRESP = 0 RRESP = 0 RDATA = 00000000
UVM_INFO axi4_lite_driver.sv(34) @ 2215: uvm_test_top.env.aa.drv [DRV] awaddr = 0b22260c wdata = 0f13c821 wstrb = 7 araddr = 00000030
UVM_INFO axi4_lite_scoreboard.sv(68) @ 2215: uvm_test_top.env.scb [RRESP] Matched : exp_rresp=0 actual_rresp =0 write = 0 read = 1
UVM_INFO axi4_lite_scoreboard.sv(72) @ 2215: uvm_test_top.env.scb [RDATA] Matched : exp_rdata=00000000 actual_rdata =00000000
UVM_INFO axi4_lite_subscriber.sv(41) @ 2245: uvm_test_top.env.sb [sb] INPUT COVERAGE = 73.96 %
UVM_INFO axi4_lite_inp_monitor.sv(44) @ 2245: uvm_test_top.env.aa.inp_mon [INPUT MONITOR]  WRITE awaddr=b8047fb8 wdata=f0b4a20f wstrb=1010 
UVM_INFO axi4_lite_out_monitor.sv(28) @ 2265: uvm_test_top.env.pa.out_mon [OUTPUT MONITOR] BRESP = 3 RRESP = 0 RDATA = 00000000
UVM_INFO axi4_lite_scoreboard.sv(52) @ 2265: uvm_test_top.env.scb [BRESP] Matched : exp_bresp= 3 actual_bresp=3 write = 1 read = 0
UVM_INFO axi4_lite_subscriber.sv(41) @ 2275: uvm_test_top.env.sb [sb] INPUT COVERAGE = 73.96 %
UVM_INFO axi4_lite_inp_monitor.sv(38) @ 2275: uvm_test_top.env.aa.inp_mon [INPUT MONITOR] READ araddr=0000002c
UVM_INFO axi4_lite_out_monitor.sv(28) @ 2285: uvm_test_top.env.pa.out_mon [OUTPUT MONITOR] BRESP = 0 RRESP = 0 RDATA = 00000000
UVM_INFO axi4_lite_driver.sv(34) @ 2285: uvm_test_top.env.aa.drv [DRV] awaddr = b8047fb8 wdata = f0b4a20f wstrb = a araddr = 0000002c
UVM_INFO axi4_lite_scoreboard.sv(68) @ 2285: uvm_test_top.env.scb [RRESP] Matched : exp_rresp=0 actual_rresp =0 write = 0 read = 1
UVM_INFO axi4_lite_scoreboard.sv(72) @ 2285: uvm_test_top.env.scb [RDATA] Matched : exp_rdata=00000000 actual_rdata =00000000
UVM_INFO axi4_lite_subscriber.sv(41) @ 2335: uvm_test_top.env.sb [sb] INPUT COVERAGE = 73.96 %
UVM_INFO axi4_lite_inp_monitor.sv(44) @ 2335: uvm_test_top.env.aa.inp_mon [INPUT MONITOR]  WRITE awaddr=709e092c wdata=3fe530c7 wstrb=1111 
UVM_INFO axi4_lite_out_monitor.sv(28) @ 2355: uvm_test_top.env.pa.out_mon [OUTPUT MONITOR] BRESP = 3 RRESP = 0 RDATA = 00000000
UVM_INFO axi4_lite_scoreboard.sv(52) @ 2355: uvm_test_top.env.scb [BRESP] Matched : exp_bresp= 3 actual_bresp=3 write = 1 read = 0
UVM_INFO axi4_lite_subscriber.sv(41) @ 2365: uvm_test_top.env.sb [sb] INPUT COVERAGE = 73.96 %
UVM_INFO axi4_lite_inp_monitor.sv(38) @ 2365: uvm_test_top.env.aa.inp_mon [INPUT MONITOR] READ araddr=0000000c
UVM_INFO axi4_lite_out_monitor.sv(28) @ 2375: uvm_test_top.env.pa.out_mon [OUTPUT MONITOR] BRESP = 0 RRESP = 0 RDATA = 00000000
UVM_INFO axi4_lite_driver.sv(34) @ 2375: uvm_test_top.env.aa.drv [DRV] awaddr = 709e092c wdata = 3fe530c7 wstrb = f araddr = 0000000c
UVM_INFO axi4_lite_scoreboard.sv(68) @ 2375: uvm_test_top.env.scb [RRESP] Matched : exp_rresp=0 actual_rresp =0 write = 0 read = 1
UVM_INFO axi4_lite_scoreboard.sv(72) @ 2375: uvm_test_top.env.scb [RDATA] Matched : exp_rdata=00000000 actual_rdata =00000000
UVM_INFO axi4_lite_subscriber.sv(41) @ 2415: uvm_test_top.env.sb [sb] INPUT COVERAGE = 77.08 %
UVM_INFO axi4_lite_inp_monitor.sv(44) @ 2415: uvm_test_top.env.aa.inp_mon [INPUT MONITOR]  WRITE awaddr=7920eb14 wdata=8fee8fbe wstrb=0010 
UVM_INFO axi4_lite_out_monitor.sv(28) @ 2435: uvm_test_top.env.pa.out_mon [OUTPUT MONITOR] BRESP = 3 RRESP = 0 RDATA = 00000000
UVM_INFO axi4_lite_scoreboard.sv(52) @ 2435: uvm_test_top.env.scb [BRESP] Matched : exp_bresp= 3 actual_bresp=3 write = 1 read = 0
UVM_INFO axi4_lite_subscriber.sv(41) @ 2445: uvm_test_top.env.sb [sb] INPUT COVERAGE = 77.08 %
UVM_INFO axi4_lite_inp_monitor.sv(38) @ 2445: uvm_test_top.env.aa.inp_mon [INPUT MONITOR] READ araddr=00000004
UVM_INFO axi4_lite_out_monitor.sv(28) @ 2455: uvm_test_top.env.pa.out_mon [OUTPUT MONITOR] BRESP = 0 RRESP = 0 RDATA = 00000000
UVM_INFO axi4_lite_driver.sv(34) @ 2455: uvm_test_top.env.aa.drv [DRV] awaddr = 7920eb14 wdata = 8fee8fbe wstrb = 2 araddr = 00000004
UVM_INFO axi4_lite_scoreboard.sv(68) @ 2455: uvm_test_top.env.scb [RRESP] Matched : exp_rresp=0 actual_rresp =0 write = 0 read = 1
UVM_INFO axi4_lite_scoreboard.sv(72) @ 2455: uvm_test_top.env.scb [RDATA] Matched : exp_rdata=00000000 actual_rdata =00000000
UVM_INFO axi4_lite_subscriber.sv(41) @ 2495: uvm_test_top.env.sb [sb] INPUT COVERAGE = 77.08 %
UVM_INFO axi4_lite_inp_monitor.sv(44) @ 2495: uvm_test_top.env.aa.inp_mon [INPUT MONITOR]  WRITE awaddr=02707950 wdata=3afbdc6d wstrb=0000 
UVM_INFO axi4_lite_out_monitor.sv(28) @ 2515: uvm_test_top.env.pa.out_mon [OUTPUT MONITOR] BRESP = 3 RRESP = 0 RDATA = 00000000
UVM_INFO axi4_lite_scoreboard.sv(52) @ 2515: uvm_test_top.env.scb [BRESP] Matched : exp_bresp= 3 actual_bresp=3 write = 1 read = 0
UVM_INFO axi4_lite_subscriber.sv(41) @ 2525: uvm_test_top.env.sb [sb] INPUT COVERAGE = 77.08 %
UVM_INFO axi4_lite_inp_monitor.sv(38) @ 2525: uvm_test_top.env.aa.inp_mon [INPUT MONITOR] READ araddr=00000008
UVM_INFO axi4_lite_out_monitor.sv(28) @ 2535: uvm_test_top.env.pa.out_mon [OUTPUT MONITOR] BRESP = 0 RRESP = 0 RDATA = 00000000
UVM_INFO axi4_lite_driver.sv(34) @ 2535: uvm_test_top.env.aa.drv [DRV] awaddr = 02707950 wdata = 3afbdc6d wstrb = 0 araddr = 00000008
UVM_INFO axi4_lite_scoreboard.sv(68) @ 2535: uvm_test_top.env.scb [RRESP] Matched : exp_rresp=0 actual_rresp =0 write = 0 read = 1
UVM_INFO axi4_lite_scoreboard.sv(72) @ 2535: uvm_test_top.env.scb [RDATA] Matched : exp_rdata=00000000 actual_rdata =00000000
UVM_INFO axi4_lite_subscriber.sv(41) @ 2585: uvm_test_top.env.sb [sb] INPUT COVERAGE = 77.08 %
UVM_INFO axi4_lite_inp_monitor.sv(44) @ 2585: uvm_test_top.env.aa.inp_mon [INPUT MONITOR]  WRITE awaddr=636ff230 wdata=898d5f7c wstrb=0101 
UVM_INFO axi4_lite_out_monitor.sv(28) @ 2605: uvm_test_top.env.pa.out_mon [OUTPUT MONITOR] BRESP = 3 RRESP = 0 RDATA = 00000000
UVM_INFO axi4_lite_scoreboard.sv(52) @ 2605: uvm_test_top.env.scb [BRESP] Matched : exp_bresp= 3 actual_bresp=3 write = 1 read = 0
UVM_INFO axi4_lite_subscriber.sv(41) @ 2615: uvm_test_top.env.sb [sb] INPUT COVERAGE = 77.08 %
UVM_INFO axi4_lite_inp_monitor.sv(38) @ 2615: uvm_test_top.env.aa.inp_mon [INPUT MONITOR] READ araddr=00000020
UVM_INFO axi4_lite_out_monitor.sv(28) @ 2625: uvm_test_top.env.pa.out_mon [OUTPUT MONITOR] BRESP = 0 RRESP = 0 RDATA = 00000000
UVM_INFO axi4_lite_driver.sv(34) @ 2625: uvm_test_top.env.aa.drv [DRV] awaddr = 636ff230 wdata = 898d5f7c wstrb = 5 araddr = 00000020
UVM_INFO axi4_lite_scoreboard.sv(68) @ 2625: uvm_test_top.env.scb [RRESP] Matched : exp_rresp=0 actual_rresp =0 write = 0 read = 1
UVM_INFO axi4_lite_scoreboard.sv(72) @ 2625: uvm_test_top.env.scb [RDATA] Matched : exp_rdata=00000000 actual_rdata =00000000
UVM_INFO axi4_lite_subscriber.sv(41) @ 2665: uvm_test_top.env.sb [sb] INPUT COVERAGE = 77.08 %
UVM_INFO axi4_lite_inp_monitor.sv(44) @ 2665: uvm_test_top.env.aa.inp_mon [INPUT MONITOR]  WRITE awaddr=003c0f44 wdata=b3725013 wstrb=1001 
UVM_INFO axi4_lite_out_monitor.sv(28) @ 2685: uvm_test_top.env.pa.out_mon [OUTPUT MONITOR] BRESP = 3 RRESP = 0 RDATA = 00000000
UVM_INFO axi4_lite_scoreboard.sv(52) @ 2685: uvm_test_top.env.scb [BRESP] Matched : exp_bresp= 3 actual_bresp=3 write = 1 read = 0
UVM_INFO axi4_lite_subscriber.sv(41) @ 2695: uvm_test_top.env.sb [sb] INPUT COVERAGE = 77.08 %
UVM_INFO axi4_lite_inp_monitor.sv(38) @ 2695: uvm_test_top.env.aa.inp_mon [INPUT MONITOR] READ araddr=00000024
UVM_INFO axi4_lite_out_monitor.sv(28) @ 2705: uvm_test_top.env.pa.out_mon [OUTPUT MONITOR] BRESP = 0 RRESP = 0 RDATA = 00000000
UVM_INFO axi4_lite_driver.sv(34) @ 2705: uvm_test_top.env.aa.drv [DRV] awaddr = 003c0f44 wdata = b3725013 wstrb = 9 araddr = 00000024
UVM_INFO axi4_lite_scoreboard.sv(68) @ 2705: uvm_test_top.env.scb [RRESP] Matched : exp_rresp=0 actual_rresp =0 write = 0 read = 1
UVM_INFO axi4_lite_scoreboard.sv(72) @ 2705: uvm_test_top.env.scb [RDATA] Matched : exp_rdata=00000000 actual_rdata =00000000
UVM_INFO axi4_lite_subscriber.sv(41) @ 2735: uvm_test_top.env.sb [sb] INPUT COVERAGE = 77.08 %
UVM_INFO axi4_lite_inp_monitor.sv(44) @ 2735: uvm_test_top.env.aa.inp_mon [INPUT MONITOR]  WRITE awaddr=3ebc7d70 wdata=a49aa96a wstrb=1111 
UVM_INFO axi4_lite_out_monitor.sv(28) @ 2755: uvm_test_top.env.pa.out_mon [OUTPUT MONITOR] BRESP = 3 RRESP = 0 RDATA = 00000000
UVM_INFO axi4_lite_scoreboard.sv(52) @ 2755: uvm_test_top.env.scb [BRESP] Matched : exp_bresp= 3 actual_bresp=3 write = 1 read = 0
UVM_INFO axi4_lite_subscriber.sv(41) @ 2765: uvm_test_top.env.sb [sb] INPUT COVERAGE = 77.08 %
UVM_INFO axi4_lite_inp_monitor.sv(38) @ 2765: uvm_test_top.env.aa.inp_mon [INPUT MONITOR] READ araddr=0000000c
UVM_INFO axi4_lite_out_monitor.sv(28) @ 2775: uvm_test_top.env.pa.out_mon [OUTPUT MONITOR] BRESP = 0 RRESP = 0 RDATA = 00000000
UVM_INFO axi4_lite_driver.sv(34) @ 2775: uvm_test_top.env.aa.drv [DRV] awaddr = 3ebc7d70 wdata = a49aa96a wstrb = f araddr = 0000000c
UVM_INFO axi4_lite_scoreboard.sv(68) @ 2775: uvm_test_top.env.scb [RRESP] Matched : exp_rresp=0 actual_rresp =0 write = 0 read = 1
UVM_INFO axi4_lite_scoreboard.sv(72) @ 2775: uvm_test_top.env.scb [RDATA] Matched : exp_rdata=00000000 actual_rdata =00000000
UVM_INFO axi4_lite_subscriber.sv(41) @ 2795: uvm_test_top.env.sb [sb] INPUT COVERAGE = 77.08 %
UVM_INFO axi4_lite_inp_monitor.sv(44) @ 2795: uvm_test_top.env.aa.inp_mon [INPUT MONITOR]  WRITE awaddr=01ec592c wdata=5670f998 wstrb=0101 
UVM_INFO axi4_lite_out_monitor.sv(28) @ 2815: uvm_test_top.env.pa.out_mon [OUTPUT MONITOR] BRESP = 3 RRESP = 0 RDATA = 00000000
UVM_INFO axi4_lite_scoreboard.sv(52) @ 2815: uvm_test_top.env.scb [BRESP] Matched : exp_bresp= 3 actual_bresp=3 write = 1 read = 0
UVM_INFO axi4_lite_subscriber.sv(41) @ 2825: uvm_test_top.env.sb [sb] INPUT COVERAGE = 77.08 %
UVM_INFO axi4_lite_inp_monitor.sv(38) @ 2825: uvm_test_top.env.aa.inp_mon [INPUT MONITOR] READ araddr=0000001c
UVM_INFO axi4_lite_out_monitor.sv(28) @ 2835: uvm_test_top.env.pa.out_mon [OUTPUT MONITOR] BRESP = 0 RRESP = 0 RDATA = 00000000
UVM_INFO axi4_lite_driver.sv(34) @ 2835: uvm_test_top.env.aa.drv [DRV] awaddr = 01ec592c wdata = 5670f998 wstrb = 5 araddr = 0000001c
UVM_INFO axi4_lite_scoreboard.sv(68) @ 2835: uvm_test_top.env.scb [RRESP] Matched : exp_rresp=0 actual_rresp =0 write = 0 read = 1
UVM_INFO axi4_lite_scoreboard.sv(72) @ 2835: uvm_test_top.env.scb [RDATA] Matched : exp_rdata=00000000 actual_rdata =00000000
UVM_INFO axi4_lite_subscriber.sv(41) @ 2865: uvm_test_top.env.sb [sb] INPUT COVERAGE = 77.08 %
UVM_INFO axi4_lite_inp_monitor.sv(44) @ 2865: uvm_test_top.env.aa.inp_mon [INPUT MONITOR]  WRITE awaddr=cc31dc78 wdata=a59bf311 wstrb=1000 
UVM_INFO axi4_lite_out_monitor.sv(28) @ 2885: uvm_test_top.env.pa.out_mon [OUTPUT MONITOR] BRESP = 3 RRESP = 0 RDATA = 00000000
UVM_INFO axi4_lite_scoreboard.sv(52) @ 2885: uvm_test_top.env.scb [BRESP] Matched : exp_bresp= 3 actual_bresp=3 write = 1 read = 0
UVM_INFO axi4_lite_subscriber.sv(41) @ 2895: uvm_test_top.env.sb [sb] INPUT COVERAGE = 77.08 %
UVM_INFO axi4_lite_inp_monitor.sv(38) @ 2895: uvm_test_top.env.aa.inp_mon [INPUT MONITOR] READ araddr=00000028
UVM_INFO axi4_lite_out_monitor.sv(28) @ 2905: uvm_test_top.env.pa.out_mon [OUTPUT MONITOR] BRESP = 0 RRESP = 0 RDATA = 00000000
UVM_INFO axi4_lite_driver.sv(34) @ 2905: uvm_test_top.env.aa.drv [DRV] awaddr = cc31dc78 wdata = a59bf311 wstrb = 8 araddr = 00000028
UVM_INFO axi4_lite_scoreboard.sv(68) @ 2905: uvm_test_top.env.scb [RRESP] Matched : exp_rresp=0 actual_rresp =0 write = 0 read = 1
UVM_INFO axi4_lite_scoreboard.sv(72) @ 2905: uvm_test_top.env.scb [RDATA] Matched : exp_rdata=00000000 actual_rdata =00000000
UVM_INFO axi4_lite_subscriber.sv(41) @ 2935: uvm_test_top.env.sb [sb] INPUT COVERAGE = 77.08 %
UVM_INFO axi4_lite_inp_monitor.sv(44) @ 2935: uvm_test_top.env.aa.inp_mon [INPUT MONITOR]  WRITE awaddr=7ed1928c wdata=b85ba22a wstrb=0010 
UVM_INFO axi4_lite_out_monitor.sv(28) @ 2955: uvm_test_top.env.pa.out_mon [OUTPUT MONITOR] BRESP = 3 RRESP = 0 RDATA = 00000000
UVM_INFO axi4_lite_scoreboard.sv(52) @ 2955: uvm_test_top.env.scb [BRESP] Matched : exp_bresp= 3 actual_bresp=3 write = 1 read = 0
UVM_INFO axi4_lite_subscriber.sv(41) @ 2965: uvm_test_top.env.sb [sb] INPUT COVERAGE = 77.08 %
UVM_INFO axi4_lite_inp_monitor.sv(38) @ 2965: uvm_test_top.env.aa.inp_mon [INPUT MONITOR] READ araddr=0000002c
UVM_INFO axi4_lite_out_monitor.sv(28) @ 2975: uvm_test_top.env.pa.out_mon [OUTPUT MONITOR] BRESP = 0 RRESP = 0 RDATA = 00000000
UVM_INFO axi4_lite_driver.sv(34) @ 2975: uvm_test_top.env.aa.drv [DRV] awaddr = 7ed1928c wdata = b85ba22a wstrb = 2 araddr = 0000002c
UVM_INFO axi4_lite_scoreboard.sv(68) @ 2975: uvm_test_top.env.scb [RRESP] Matched : exp_rresp=0 actual_rresp =0 write = 0 read = 1
UVM_INFO axi4_lite_scoreboard.sv(72) @ 2975: uvm_test_top.env.scb [RDATA] Matched : exp_rdata=00000000 actual_rdata =00000000
UVM_INFO axi4_lite_subscriber.sv(41) @ 3025: uvm_test_top.env.sb [sb] INPUT COVERAGE = 77.08 %
UVM_INFO axi4_lite_inp_monitor.sv(44) @ 3025: uvm_test_top.env.aa.inp_mon [INPUT MONITOR]  WRITE awaddr=4e950a94 wdata=ecf28ce4 wstrb=1110 
UVM_INFO axi4_lite_out_monitor.sv(28) @ 3045: uvm_test_top.env.pa.out_mon [OUTPUT MONITOR] BRESP = 3 RRESP = 0 RDATA = 00000000
UVM_INFO axi4_lite_scoreboard.sv(52) @ 3045: uvm_test_top.env.scb [BRESP] Matched : exp_bresp= 3 actual_bresp=3 write = 1 read = 0
UVM_INFO axi4_lite_subscriber.sv(41) @ 3055: uvm_test_top.env.sb [sb] INPUT COVERAGE = 77.08 %
UVM_INFO axi4_lite_inp_monitor.sv(38) @ 3055: uvm_test_top.env.aa.inp_mon [INPUT MONITOR] READ araddr=00000030
UVM_INFO axi4_lite_out_monitor.sv(28) @ 3065: uvm_test_top.env.pa.out_mon [OUTPUT MONITOR] BRESP = 0 RRESP = 0 RDATA = 00000000
UVM_INFO axi4_lite_driver.sv(34) @ 3065: uvm_test_top.env.aa.drv [DRV] awaddr = 4e950a94 wdata = ecf28ce4 wstrb = e araddr = 00000030
UVM_INFO axi4_lite_scoreboard.sv(68) @ 3065: uvm_test_top.env.scb [RRESP] Matched : exp_rresp=0 actual_rresp =0 write = 0 read = 1
UVM_INFO axi4_lite_scoreboard.sv(72) @ 3065: uvm_test_top.env.scb [RDATA] Matched : exp_rdata=00000000 actual_rdata =00000000
UVM_INFO axi4_lite_subscriber.sv(41) @ 3105: uvm_test_top.env.sb [sb] INPUT COVERAGE = 77.08 %
UVM_INFO axi4_lite_inp_monitor.sv(44) @ 3105: uvm_test_top.env.aa.inp_mon [INPUT MONITOR]  WRITE awaddr=10b5a960 wdata=3ff562fb wstrb=1110 
UVM_INFO axi4_lite_out_monitor.sv(28) @ 3125: uvm_test_top.env.pa.out_mon [OUTPUT MONITOR] BRESP = 3 RRESP = 0 RDATA = 00000000
UVM_INFO axi4_lite_scoreboard.sv(52) @ 3125: uvm_test_top.env.scb [BRESP] Matched : exp_bresp= 3 actual_bresp=3 write = 1 read = 0
UVM_INFO axi4_lite_subscriber.sv(41) @ 3135: uvm_test_top.env.sb [sb] INPUT COVERAGE = 77.08 %
UVM_INFO axi4_lite_inp_monitor.sv(38) @ 3135: uvm_test_top.env.aa.inp_mon [INPUT MONITOR] READ araddr=00000034
UVM_INFO axi4_lite_out_monitor.sv(28) @ 3145: uvm_test_top.env.pa.out_mon [OUTPUT MONITOR] BRESP = 0 RRESP = 2 RDATA = 00000000
UVM_INFO axi4_lite_driver.sv(34) @ 3145: uvm_test_top.env.aa.drv [DRV] awaddr = 10b5a960 wdata = 3ff562fb wstrb = e araddr = 00000034
UVM_INFO axi4_lite_scoreboard.sv(68) @ 3145: uvm_test_top.env.scb [RRESP] Matched : exp_rresp=2 actual_rresp =2 write = 0 read = 1
UVM_INFO axi4_lite_scoreboard.sv(72) @ 3145: uvm_test_top.env.scb [RDATA] Matched : exp_rdata=00000000 actual_rdata =00000000
UVM_INFO axi4_lite_subscriber.sv(41) @ 3165: uvm_test_top.env.sb [sb] INPUT COVERAGE = 77.08 %
UVM_INFO axi4_lite_inp_monitor.sv(44) @ 3165: uvm_test_top.env.aa.inp_mon [INPUT MONITOR]  WRITE awaddr=f10d3d7c wdata=2c7dfea8 wstrb=1110 
UVM_INFO axi4_lite_out_monitor.sv(28) @ 3185: uvm_test_top.env.pa.out_mon [OUTPUT MONITOR] BRESP = 3 RRESP = 0 RDATA = 00000000
UVM_INFO axi4_lite_scoreboard.sv(52) @ 3185: uvm_test_top.env.scb [BRESP] Matched : exp_bresp= 3 actual_bresp=3 write = 1 read = 0
UVM_INFO axi4_lite_subscriber.sv(41) @ 3195: uvm_test_top.env.sb [sb] INPUT COVERAGE = 77.08 %
UVM_INFO axi4_lite_inp_monitor.sv(38) @ 3195: uvm_test_top.env.aa.inp_mon [INPUT MONITOR] READ araddr=00000034
UVM_INFO axi4_lite_out_monitor.sv(28) @ 3205: uvm_test_top.env.pa.out_mon [OUTPUT MONITOR] BRESP = 0 RRESP = 2 RDATA = 00000000
UVM_INFO axi4_lite_driver.sv(34) @ 3205: uvm_test_top.env.aa.drv [DRV] awaddr = f10d3d7c wdata = 2c7dfea8 wstrb = e araddr = 00000034
UVM_INFO axi4_lite_scoreboard.sv(68) @ 3205: uvm_test_top.env.scb [RRESP] Matched : exp_rresp=2 actual_rresp =2 write = 0 read = 1
UVM_INFO axi4_lite_scoreboard.sv(72) @ 3205: uvm_test_top.env.scb [RDATA] Matched : exp_rdata=00000000 actual_rdata =00000000
UVM_INFO axi4_lite_subscriber.sv(41) @ 3255: uvm_test_top.env.sb [sb] INPUT COVERAGE = 80.21 %
UVM_INFO axi4_lite_inp_monitor.sv(44) @ 3255: uvm_test_top.env.aa.inp_mon [INPUT MONITOR]  WRITE awaddr=bd546a78 wdata=95adf1bd wstrb=1100 
UVM_INFO axi4_lite_out_monitor.sv(28) @ 3275: uvm_test_top.env.pa.out_mon [OUTPUT MONITOR] BRESP = 3 RRESP = 0 RDATA = 00000000
UVM_INFO axi4_lite_scoreboard.sv(52) @ 3275: uvm_test_top.env.scb [BRESP] Matched : exp_bresp= 3 actual_bresp=3 write = 1 read = 0
UVM_INFO axi4_lite_subscriber.sv(41) @ 3285: uvm_test_top.env.sb [sb] INPUT COVERAGE = 80.21 %
UVM_INFO axi4_lite_inp_monitor.sv(38) @ 3285: uvm_test_top.env.aa.inp_mon [INPUT MONITOR] READ araddr=00000008
UVM_INFO axi4_lite_out_monitor.sv(28) @ 3295: uvm_test_top.env.pa.out_mon [OUTPUT MONITOR] BRESP = 0 RRESP = 0 RDATA = 00000000
UVM_INFO axi4_lite_driver.sv(34) @ 3295: uvm_test_top.env.aa.drv [DRV] awaddr = bd546a78 wdata = 95adf1bd wstrb = c araddr = 00000008
UVM_INFO axi4_lite_scoreboard.sv(68) @ 3295: uvm_test_top.env.scb [RRESP] Matched : exp_rresp=0 actual_rresp =0 write = 0 read = 1
UVM_INFO axi4_lite_scoreboard.sv(72) @ 3295: uvm_test_top.env.scb [RDATA] Matched : exp_rdata=00000000 actual_rdata =00000000
UVM_INFO axi4_lite_subscriber.sv(41) @ 3345: uvm_test_top.env.sb [sb] INPUT COVERAGE = 80.21 %
UVM_INFO axi4_lite_inp_monitor.sv(44) @ 3345: uvm_test_top.env.aa.inp_mon [INPUT MONITOR]  WRITE awaddr=7fcfe4bc wdata=432496fc wstrb=1000 
UVM_INFO axi4_lite_out_monitor.sv(28) @ 3365: uvm_test_top.env.pa.out_mon [OUTPUT MONITOR] BRESP = 3 RRESP = 0 RDATA = 00000000
UVM_INFO axi4_lite_scoreboard.sv(52) @ 3365: uvm_test_top.env.scb [BRESP] Matched : exp_bresp= 3 actual_bresp=3 write = 1 read = 0
UVM_INFO axi4_lite_subscriber.sv(41) @ 3375: uvm_test_top.env.sb [sb] INPUT COVERAGE = 80.21 %
UVM_INFO axi4_lite_inp_monitor.sv(38) @ 3375: uvm_test_top.env.aa.inp_mon [INPUT MONITOR] READ araddr=00000034
UVM_INFO axi4_lite_out_monitor.sv(28) @ 3385: uvm_test_top.env.pa.out_mon [OUTPUT MONITOR] BRESP = 0 RRESP = 2 RDATA = 00000000
UVM_INFO axi4_lite_driver.sv(34) @ 3385: uvm_test_top.env.aa.drv [DRV] awaddr = 7fcfe4bc wdata = 432496fc wstrb = 8 araddr = 00000034
UVM_INFO axi4_lite_scoreboard.sv(68) @ 3385: uvm_test_top.env.scb [RRESP] Matched : exp_rresp=2 actual_rresp =2 write = 0 read = 1
UVM_INFO axi4_lite_scoreboard.sv(72) @ 3385: uvm_test_top.env.scb [RDATA] Matched : exp_rdata=00000000 actual_rdata =00000000
UVM_INFO axi4_lite_subscriber.sv(41) @ 3405: uvm_test_top.env.sb [sb] INPUT COVERAGE = 80.21 %
UVM_INFO axi4_lite_inp_monitor.sv(44) @ 3405: uvm_test_top.env.aa.inp_mon [INPUT MONITOR]  WRITE awaddr=39a9bd94 wdata=e8d7e109 wstrb=0101 
UVM_INFO axi4_lite_out_monitor.sv(28) @ 3425: uvm_test_top.env.pa.out_mon [OUTPUT MONITOR] BRESP = 3 RRESP = 0 RDATA = 00000000
UVM_INFO axi4_lite_scoreboard.sv(52) @ 3425: uvm_test_top.env.scb [BRESP] Matched : exp_bresp= 3 actual_bresp=3 write = 1 read = 0
UVM_INFO axi4_lite_subscriber.sv(41) @ 3435: uvm_test_top.env.sb [sb] INPUT COVERAGE = 80.21 %
UVM_INFO axi4_lite_inp_monitor.sv(38) @ 3435: uvm_test_top.env.aa.inp_mon [INPUT MONITOR] READ araddr=00000008
UVM_INFO axi4_lite_out_monitor.sv(28) @ 3445: uvm_test_top.env.pa.out_mon [OUTPUT MONITOR] BRESP = 0 RRESP = 0 RDATA = 00000000
UVM_INFO axi4_lite_driver.sv(34) @ 3445: uvm_test_top.env.aa.drv [DRV] awaddr = 39a9bd94 wdata = e8d7e109 wstrb = 5 araddr = 00000008
UVM_INFO axi4_lite_scoreboard.sv(68) @ 3445: uvm_test_top.env.scb [RRESP] Matched : exp_rresp=0 actual_rresp =0 write = 0 read = 1
UVM_INFO axi4_lite_scoreboard.sv(72) @ 3445: uvm_test_top.env.scb [RDATA] Matched : exp_rdata=00000000 actual_rdata =00000000
UVM_INFO axi4_lite_subscriber.sv(41) @ 3475: uvm_test_top.env.sb [sb] INPUT COVERAGE = 80.21 %
UVM_INFO axi4_lite_inp_monitor.sv(44) @ 3475: uvm_test_top.env.aa.inp_mon [INPUT MONITOR]  WRITE awaddr=c7175504 wdata=dfacb57e wstrb=1111 
UVM_INFO axi4_lite_out_monitor.sv(28) @ 3495: uvm_test_top.env.pa.out_mon [OUTPUT MONITOR] BRESP = 3 RRESP = 0 RDATA = 00000000
UVM_INFO axi4_lite_scoreboard.sv(52) @ 3495: uvm_test_top.env.scb [BRESP] Matched : exp_bresp= 3 actual_bresp=3 write = 1 read = 0
UVM_INFO axi4_lite_subscriber.sv(41) @ 3505: uvm_test_top.env.sb [sb] INPUT COVERAGE = 80.21 %
UVM_INFO axi4_lite_inp_monitor.sv(38) @ 3505: uvm_test_top.env.aa.inp_mon [INPUT MONITOR] READ araddr=00000038
UVM_INFO axi4_lite_out_monitor.sv(28) @ 3515: uvm_test_top.env.pa.out_mon [OUTPUT MONITOR] BRESP = 0 RRESP = 2 RDATA = 00000000
UVM_INFO axi4_lite_driver.sv(34) @ 3515: uvm_test_top.env.aa.drv [DRV] awaddr = c7175504 wdata = dfacb57e wstrb = f araddr = 00000038
UVM_INFO axi4_lite_scoreboard.sv(68) @ 3515: uvm_test_top.env.scb [RRESP] Matched : exp_rresp=2 actual_rresp =2 write = 0 read = 1
UVM_INFO axi4_lite_scoreboard.sv(72) @ 3515: uvm_test_top.env.scb [RDATA] Matched : exp_rdata=00000000 actual_rdata =00000000
UVM_INFO axi4_lite_subscriber.sv(41) @ 3545: uvm_test_top.env.sb [sb] INPUT COVERAGE = 80.21 %
UVM_INFO axi4_lite_inp_monitor.sv(44) @ 3545: uvm_test_top.env.aa.inp_mon [INPUT MONITOR]  WRITE awaddr=6af62a68 wdata=80c515bb wstrb=1101 
UVM_INFO axi4_lite_out_monitor.sv(28) @ 3565: uvm_test_top.env.pa.out_mon [OUTPUT MONITOR] BRESP = 3 RRESP = 0 RDATA = 00000000
UVM_INFO axi4_lite_scoreboard.sv(52) @ 3565: uvm_test_top.env.scb [BRESP] Matched : exp_bresp= 3 actual_bresp=3 write = 1 read = 0
UVM_INFO axi4_lite_subscriber.sv(41) @ 3575: uvm_test_top.env.sb [sb] INPUT COVERAGE = 80.21 %
UVM_INFO axi4_lite_inp_monitor.sv(38) @ 3575: uvm_test_top.env.aa.inp_mon [INPUT MONITOR] READ araddr=00000004
UVM_INFO axi4_lite_out_monitor.sv(28) @ 3585: uvm_test_top.env.pa.out_mon [OUTPUT MONITOR] BRESP = 0 RRESP = 0 RDATA = 00000000
UVM_INFO axi4_lite_driver.sv(34) @ 3585: uvm_test_top.env.aa.drv [DRV] awaddr = 6af62a68 wdata = 80c515bb wstrb = d araddr = 00000004
UVM_INFO axi4_lite_scoreboard.sv(68) @ 3585: uvm_test_top.env.scb [RRESP] Matched : exp_rresp=0 actual_rresp =0 write = 0 read = 1
UVM_INFO axi4_lite_scoreboard.sv(72) @ 3585: uvm_test_top.env.scb [RDATA] Matched : exp_rdata=00000000 actual_rdata =00000000
UVM_INFO axi4_lite_subscriber.sv(41) @ 3605: uvm_test_top.env.sb [sb] INPUT COVERAGE = 80.21 %
UVM_INFO axi4_lite_inp_monitor.sv(44) @ 3605: uvm_test_top.env.aa.inp_mon [INPUT MONITOR]  WRITE awaddr=6230c2e0 wdata=34e25391 wstrb=1111 
UVM_INFO axi4_lite_out_monitor.sv(28) @ 3625: uvm_test_top.env.pa.out_mon [OUTPUT MONITOR] BRESP = 3 RRESP = 0 RDATA = 00000000
UVM_INFO axi4_lite_scoreboard.sv(52) @ 3625: uvm_test_top.env.scb [BRESP] Matched : exp_bresp= 3 actual_bresp=3 write = 1 read = 0
UVM_INFO axi4_lite_subscriber.sv(41) @ 3635: uvm_test_top.env.sb [sb] INPUT COVERAGE = 80.21 %
UVM_INFO axi4_lite_inp_monitor.sv(38) @ 3635: uvm_test_top.env.aa.inp_mon [INPUT MONITOR] READ araddr=0000002c
UVM_INFO axi4_lite_out_monitor.sv(28) @ 3645: uvm_test_top.env.pa.out_mon [OUTPUT MONITOR] BRESP = 0 RRESP = 0 RDATA = 00000000
UVM_INFO axi4_lite_driver.sv(34) @ 3645: uvm_test_top.env.aa.drv [DRV] awaddr = 6230c2e0 wdata = 34e25391 wstrb = f araddr = 0000002c
UVM_INFO axi4_lite_scoreboard.sv(68) @ 3645: uvm_test_top.env.scb [RRESP] Matched : exp_rresp=0 actual_rresp =0 write = 0 read = 1
UVM_INFO axi4_lite_scoreboard.sv(72) @ 3645: uvm_test_top.env.scb [RDATA] Matched : exp_rdata=00000000 actual_rdata =00000000
UVM_INFO axi4_lite_subscriber.sv(41) @ 3695: uvm_test_top.env.sb [sb] INPUT COVERAGE = 80.21 %
UVM_INFO axi4_lite_inp_monitor.sv(44) @ 3695: uvm_test_top.env.aa.inp_mon [INPUT MONITOR]  WRITE awaddr=3e3200ac wdata=3369e910 wstrb=1101 
UVM_INFO axi4_lite_out_monitor.sv(28) @ 3715: uvm_test_top.env.pa.out_mon [OUTPUT MONITOR] BRESP = 3 RRESP = 0 RDATA = 00000000
UVM_INFO axi4_lite_scoreboard.sv(52) @ 3715: uvm_test_top.env.scb [BRESP] Matched : exp_bresp= 3 actual_bresp=3 write = 1 read = 0
UVM_INFO axi4_lite_subscriber.sv(41) @ 3725: uvm_test_top.env.sb [sb] INPUT COVERAGE = 80.21 %
UVM_INFO axi4_lite_inp_monitor.sv(38) @ 3725: uvm_test_top.env.aa.inp_mon [INPUT MONITOR] READ araddr=00000008
UVM_INFO axi4_lite_out_monitor.sv(28) @ 3735: uvm_test_top.env.pa.out_mon [OUTPUT MONITOR] BRESP = 0 RRESP = 0 RDATA = 00000000
UVM_INFO axi4_lite_driver.sv(34) @ 3735: uvm_test_top.env.aa.drv [DRV] awaddr = 3e3200ac wdata = 3369e910 wstrb = d araddr = 00000008
UVM_INFO axi4_lite_scoreboard.sv(68) @ 3735: uvm_test_top.env.scb [RRESP] Matched : exp_rresp=0 actual_rresp =0 write = 0 read = 1
UVM_INFO axi4_lite_scoreboard.sv(72) @ 3735: uvm_test_top.env.scb [RDATA] Matched : exp_rdata=00000000 actual_rdata =00000000
UVM_INFO axi4_lite_subscriber.sv(41) @ 3775: uvm_test_top.env.sb [sb] INPUT COVERAGE = 80.21 %
UVM_INFO axi4_lite_inp_monitor.sv(44) @ 3775: uvm_test_top.env.aa.inp_mon [INPUT MONITOR]  WRITE awaddr=7fd0da74 wdata=d131a9e8 wstrb=1011 
UVM_INFO axi4_lite_out_monitor.sv(28) @ 3795: uvm_test_top.env.pa.out_mon [OUTPUT MONITOR] BRESP = 3 RRESP = 0 RDATA = 00000000
UVM_INFO axi4_lite_scoreboard.sv(52) @ 3795: uvm_test_top.env.scb [BRESP] Matched : exp_bresp= 3 actual_bresp=3 write = 1 read = 0
UVM_INFO axi4_lite_subscriber.sv(41) @ 3805: uvm_test_top.env.sb [sb] INPUT COVERAGE = 80.21 %
UVM_INFO axi4_lite_inp_monitor.sv(38) @ 3805: uvm_test_top.env.aa.inp_mon [INPUT MONITOR] READ araddr=00000020
UVM_INFO axi4_lite_out_monitor.sv(28) @ 3815: uvm_test_top.env.pa.out_mon [OUTPUT MONITOR] BRESP = 0 RRESP = 0 RDATA = 00000000
UVM_INFO axi4_lite_driver.sv(34) @ 3815: uvm_test_top.env.aa.drv [DRV] awaddr = 7fd0da74 wdata = d131a9e8 wstrb = b araddr = 00000020
UVM_INFO axi4_lite_scoreboard.sv(68) @ 3815: uvm_test_top.env.scb [RRESP] Matched : exp_rresp=0 actual_rresp =0 write = 0 read = 1
UVM_INFO axi4_lite_scoreboard.sv(72) @ 3815: uvm_test_top.env.scb [RDATA] Matched : exp_rdata=00000000 actual_rdata =00000000
UVM_INFO axi4_lite_subscriber.sv(41) @ 3845: uvm_test_top.env.sb [sb] INPUT COVERAGE = 80.21 %
UVM_INFO axi4_lite_inp_monitor.sv(44) @ 3845: uvm_test_top.env.aa.inp_mon [INPUT MONITOR]  WRITE awaddr=bd6d0cdc wdata=74c98696 wstrb=1111 
UVM_INFO axi4_lite_out_monitor.sv(28) @ 3865: uvm_test_top.env.pa.out_mon [OUTPUT MONITOR] BRESP = 3 RRESP = 0 RDATA = 00000000
UVM_INFO axi4_lite_scoreboard.sv(52) @ 3865: uvm_test_top.env.scb [BRESP] Matched : exp_bresp= 3 actual_bresp=3 write = 1 read = 0
UVM_INFO axi4_lite_subscriber.sv(41) @ 3875: uvm_test_top.env.sb [sb] INPUT COVERAGE = 80.21 %
UVM_INFO axi4_lite_inp_monitor.sv(38) @ 3875: uvm_test_top.env.aa.inp_mon [INPUT MONITOR] READ araddr=00000018
UVM_INFO axi4_lite_out_monitor.sv(28) @ 3885: uvm_test_top.env.pa.out_mon [OUTPUT MONITOR] BRESP = 0 RRESP = 0 RDATA = 00000000
UVM_INFO axi4_lite_driver.sv(34) @ 3885: uvm_test_top.env.aa.drv [DRV] awaddr = bd6d0cdc wdata = 74c98696 wstrb = f araddr = 00000018
UVM_INFO axi4_lite_scoreboard.sv(68) @ 3885: uvm_test_top.env.scb [RRESP] Matched : exp_rresp=0 actual_rresp =0 write = 0 read = 1
UVM_INFO axi4_lite_scoreboard.sv(72) @ 3885: uvm_test_top.env.scb [RDATA] Matched : exp_rdata=00000000 actual_rdata =00000000
UVM_INFO axi4_lite_subscriber.sv(41) @ 3925: uvm_test_top.env.sb [sb] INPUT COVERAGE = 80.21 %
UVM_INFO axi4_lite_inp_monitor.sv(44) @ 3925: uvm_test_top.env.aa.inp_mon [INPUT MONITOR]  WRITE awaddr=8bb91c3c wdata=4f851013 wstrb=1111 
UVM_INFO axi4_lite_out_monitor.sv(28) @ 3945: uvm_test_top.env.pa.out_mon [OUTPUT MONITOR] BRESP = 3 RRESP = 0 RDATA = 00000000
UVM_INFO axi4_lite_scoreboard.sv(52) @ 3945: uvm_test_top.env.scb [BRESP] Matched : exp_bresp= 3 actual_bresp=3 write = 1 read = 0
UVM_INFO axi4_lite_subscriber.sv(41) @ 3955: uvm_test_top.env.sb [sb] INPUT COVERAGE = 80.21 %
UVM_INFO axi4_lite_inp_monitor.sv(38) @ 3955: uvm_test_top.env.aa.inp_mon [INPUT MONITOR] READ araddr=00000024
UVM_INFO axi4_lite_out_monitor.sv(28) @ 3965: uvm_test_top.env.pa.out_mon [OUTPUT MONITOR] BRESP = 0 RRESP = 0 RDATA = 00000000
UVM_INFO axi4_lite_driver.sv(34) @ 3965: uvm_test_top.env.aa.drv [DRV] awaddr = 8bb91c3c wdata = 4f851013 wstrb = f araddr = 00000024
UVM_INFO axi4_lite_scoreboard.sv(68) @ 3965: uvm_test_top.env.scb [RRESP] Matched : exp_rresp=0 actual_rresp =0 write = 0 read = 1
UVM_INFO axi4_lite_scoreboard.sv(72) @ 3965: uvm_test_top.env.scb [RDATA] Matched : exp_rdata=00000000 actual_rdata =00000000
UVM_INFO axi4_lite_subscriber.sv(41) @ 4005: uvm_test_top.env.sb [sb] INPUT COVERAGE = 83.33 %
UVM_INFO axi4_lite_inp_monitor.sv(44) @ 4005: uvm_test_top.env.aa.inp_mon [INPUT MONITOR]  WRITE awaddr=d156f870 wdata=79914acb wstrb=0001 
UVM_INFO axi4_lite_out_monitor.sv(28) @ 4025: uvm_test_top.env.pa.out_mon [OUTPUT MONITOR] BRESP = 3 RRESP = 0 RDATA = 00000000
UVM_INFO axi4_lite_scoreboard.sv(52) @ 4025: uvm_test_top.env.scb [BRESP] Matched : exp_bresp= 3 actual_bresp=3 write = 1 read = 0
UVM_INFO axi4_lite_subscriber.sv(41) @ 4035: uvm_test_top.env.sb [sb] INPUT COVERAGE = 83.33 %
UVM_INFO axi4_lite_inp_monitor.sv(38) @ 4035: uvm_test_top.env.aa.inp_mon [INPUT MONITOR] READ araddr=0000000c
UVM_INFO axi4_lite_out_monitor.sv(28) @ 4045: uvm_test_top.env.pa.out_mon [OUTPUT MONITOR] BRESP = 0 RRESP = 0 RDATA = 00000000
UVM_INFO axi4_lite_driver.sv(34) @ 4045: uvm_test_top.env.aa.drv [DRV] awaddr = d156f870 wdata = 79914acb wstrb = 1 araddr = 0000000c
UVM_INFO axi4_lite_scoreboard.sv(68) @ 4045: uvm_test_top.env.scb [RRESP] Matched : exp_rresp=0 actual_rresp =0 write = 0 read = 1
UVM_INFO axi4_lite_scoreboard.sv(72) @ 4045: uvm_test_top.env.scb [RDATA] Matched : exp_rdata=00000000 actual_rdata =00000000
UVM_INFO axi4_lite_subscriber.sv(41) @ 4065: uvm_test_top.env.sb [sb] INPUT COVERAGE = 83.33 %
UVM_INFO axi4_lite_inp_monitor.sv(44) @ 4065: uvm_test_top.env.aa.inp_mon [INPUT MONITOR]  WRITE awaddr=59b8a6d0 wdata=02590f72 wstrb=1110 
UVM_INFO axi4_lite_out_monitor.sv(28) @ 4085: uvm_test_top.env.pa.out_mon [OUTPUT MONITOR] BRESP = 3 RRESP = 0 RDATA = 00000000
UVM_INFO axi4_lite_scoreboard.sv(52) @ 4085: uvm_test_top.env.scb [BRESP] Matched : exp_bresp= 3 actual_bresp=3 write = 1 read = 0
UVM_INFO axi4_lite_subscriber.sv(41) @ 4095: uvm_test_top.env.sb [sb] INPUT COVERAGE = 83.33 %
UVM_INFO axi4_lite_inp_monitor.sv(38) @ 4095: uvm_test_top.env.aa.inp_mon [INPUT MONITOR] READ araddr=00000014
UVM_INFO axi4_lite_out_monitor.sv(28) @ 4105: uvm_test_top.env.pa.out_mon [OUTPUT MONITOR] BRESP = 0 RRESP = 0 RDATA = 00000000
UVM_INFO axi4_lite_driver.sv(34) @ 4105: uvm_test_top.env.aa.drv [DRV] awaddr = 59b8a6d0 wdata = 02590f72 wstrb = e araddr = 00000014
UVM_INFO axi4_lite_scoreboard.sv(68) @ 4105: uvm_test_top.env.scb [RRESP] Matched : exp_rresp=0 actual_rresp =0 write = 0 read = 1
UVM_INFO axi4_lite_scoreboard.sv(72) @ 4105: uvm_test_top.env.scb [RDATA] Matched : exp_rdata=00000000 actual_rdata =00000000
UVM_INFO axi4_lite_subscriber.sv(41) @ 4135: uvm_test_top.env.sb [sb] INPUT COVERAGE = 83.33 %
UVM_INFO axi4_lite_inp_monitor.sv(44) @ 4135: uvm_test_top.env.aa.inp_mon [INPUT MONITOR]  WRITE awaddr=ef3008c0 wdata=b2434857 wstrb=0111 
UVM_INFO axi4_lite_out_monitor.sv(28) @ 4155: uvm_test_top.env.pa.out_mon [OUTPUT MONITOR] BRESP = 3 RRESP = 0 RDATA = 00000000
UVM_INFO axi4_lite_scoreboard.sv(52) @ 4155: uvm_test_top.env.scb [BRESP] Matched : exp_bresp= 3 actual_bresp=3 write = 1 read = 0
UVM_INFO axi4_lite_subscriber.sv(41) @ 4165: uvm_test_top.env.sb [sb] INPUT COVERAGE = 83.33 %
UVM_INFO axi4_lite_inp_monitor.sv(38) @ 4165: uvm_test_top.env.aa.inp_mon [INPUT MONITOR] READ araddr=00000004
UVM_INFO axi4_lite_out_monitor.sv(28) @ 4175: uvm_test_top.env.pa.out_mon [OUTPUT MONITOR] BRESP = 0 RRESP = 0 RDATA = 00000000
UVM_INFO axi4_lite_driver.sv(34) @ 4175: uvm_test_top.env.aa.drv [DRV] awaddr = ef3008c0 wdata = b2434857 wstrb = 7 araddr = 00000004
UVM_INFO axi4_lite_scoreboard.sv(68) @ 4175: uvm_test_top.env.scb [RRESP] Matched : exp_rresp=0 actual_rresp =0 write = 0 read = 1
UVM_INFO axi4_lite_scoreboard.sv(72) @ 4175: uvm_test_top.env.scb [RDATA] Matched : exp_rdata=00000000 actual_rdata =00000000
UVM_INFO axi4_lite_subscriber.sv(41) @ 4215: uvm_test_top.env.sb [sb] INPUT COVERAGE = 83.33 %
UVM_INFO axi4_lite_inp_monitor.sv(44) @ 4215: uvm_test_top.env.aa.inp_mon [INPUT MONITOR]  WRITE awaddr=b1ccd824 wdata=f91e6a1c wstrb=0111 
UVM_INFO axi4_lite_out_monitor.sv(28) @ 4235: uvm_test_top.env.pa.out_mon [OUTPUT MONITOR] BRESP = 3 RRESP = 0 RDATA = 00000000
UVM_INFO axi4_lite_scoreboard.sv(52) @ 4235: uvm_test_top.env.scb [BRESP] Matched : exp_bresp= 3 actual_bresp=3 write = 1 read = 0
UVM_INFO axi4_lite_subscriber.sv(41) @ 4245: uvm_test_top.env.sb [sb] INPUT COVERAGE = 83.33 %
UVM_INFO axi4_lite_inp_monitor.sv(38) @ 4245: uvm_test_top.env.aa.inp_mon [INPUT MONITOR] READ araddr=00000018
UVM_INFO axi4_lite_out_monitor.sv(28) @ 4255: uvm_test_top.env.pa.out_mon [OUTPUT MONITOR] BRESP = 0 RRESP = 0 RDATA = 00000000
UVM_INFO axi4_lite_driver.sv(34) @ 4255: uvm_test_top.env.aa.drv [DRV] awaddr = b1ccd824 wdata = f91e6a1c wstrb = 7 araddr = 00000018
UVM_INFO axi4_lite_scoreboard.sv(68) @ 4255: uvm_test_top.env.scb [RRESP] Matched : exp_rresp=0 actual_rresp =0 write = 0 read = 1
UVM_INFO axi4_lite_scoreboard.sv(72) @ 4255: uvm_test_top.env.scb [RDATA] Matched : exp_rdata=00000000 actual_rdata =00000000
UVM_INFO axi4_lite_subscriber.sv(41) @ 4305: uvm_test_top.env.sb [sb] INPUT COVERAGE = 83.33 %
UVM_INFO axi4_lite_inp_monitor.sv(44) @ 4305: uvm_test_top.env.aa.inp_mon [INPUT MONITOR]  WRITE awaddr=4f4374f4 wdata=0dbc0f11 wstrb=1101 
UVM_INFO axi4_lite_out_monitor.sv(28) @ 4325: uvm_test_top.env.pa.out_mon [OUTPUT MONITOR] BRESP = 3 RRESP = 0 RDATA = 00000000
UVM_INFO axi4_lite_scoreboard.sv(52) @ 4325: uvm_test_top.env.scb [BRESP] Matched : exp_bresp= 3 actual_bresp=3 write = 1 read = 0
UVM_INFO axi4_lite_subscriber.sv(41) @ 4335: uvm_test_top.env.sb [sb] INPUT COVERAGE = 83.33 %
UVM_INFO axi4_lite_inp_monitor.sv(38) @ 4335: uvm_test_top.env.aa.inp_mon [INPUT MONITOR] READ araddr=00000008
UVM_INFO axi4_lite_out_monitor.sv(28) @ 4345: uvm_test_top.env.pa.out_mon [OUTPUT MONITOR] BRESP = 0 RRESP = 0 RDATA = 00000000
UVM_INFO axi4_lite_driver.sv(34) @ 4345: uvm_test_top.env.aa.drv [DRV] awaddr = 4f4374f4 wdata = 0dbc0f11 wstrb = d araddr = 00000008
UVM_INFO axi4_lite_scoreboard.sv(68) @ 4345: uvm_test_top.env.scb [RRESP] Matched : exp_rresp=0 actual_rresp =0 write = 0 read = 1
UVM_INFO axi4_lite_scoreboard.sv(72) @ 4345: uvm_test_top.env.scb [RDATA] Matched : exp_rdata=00000000 actual_rdata =00000000
UVM_INFO axi4_lite_subscriber.sv(41) @ 4385: uvm_test_top.env.sb [sb] INPUT COVERAGE = 83.33 %
UVM_INFO axi4_lite_inp_monitor.sv(44) @ 4385: uvm_test_top.env.aa.inp_mon [INPUT MONITOR]  WRITE awaddr=02011a08 wdata=4c855614 wstrb=1000 
UVM_INFO axi4_lite_out_monitor.sv(28) @ 4405: uvm_test_top.env.pa.out_mon [OUTPUT MONITOR] BRESP = 3 RRESP = 0 RDATA = 00000000
UVM_INFO axi4_lite_scoreboard.sv(52) @ 4405: uvm_test_top.env.scb [BRESP] Matched : exp_bresp= 3 actual_bresp=3 write = 1 read = 0
UVM_INFO axi4_lite_subscriber.sv(41) @ 4415: uvm_test_top.env.sb [sb] INPUT COVERAGE = 83.33 %
UVM_INFO axi4_lite_inp_monitor.sv(38) @ 4415: uvm_test_top.env.aa.inp_mon [INPUT MONITOR] READ araddr=00000024
UVM_INFO axi4_lite_out_monitor.sv(28) @ 4425: uvm_test_top.env.pa.out_mon [OUTPUT MONITOR] BRESP = 0 RRESP = 0 RDATA = 00000000
UVM_INFO axi4_lite_driver.sv(34) @ 4425: uvm_test_top.env.aa.drv [DRV] awaddr = 02011a08 wdata = 4c855614 wstrb = 8 araddr = 00000024
UVM_INFO axi4_lite_scoreboard.sv(68) @ 4425: uvm_test_top.env.scb [RRESP] Matched : exp_rresp=0 actual_rresp =0 write = 0 read = 1
UVM_INFO axi4_lite_scoreboard.sv(72) @ 4425: uvm_test_top.env.scb [RDATA] Matched : exp_rdata=00000000 actual_rdata =00000000
UVM_INFO axi4_lite_subscriber.sv(41) @ 4465: uvm_test_top.env.sb [sb] INPUT COVERAGE = 83.33 %
UVM_INFO axi4_lite_inp_monitor.sv(44) @ 4465: uvm_test_top.env.aa.inp_mon [INPUT MONITOR]  WRITE awaddr=43ba0714 wdata=33d1b071 wstrb=1100 
UVM_INFO axi4_lite_out_monitor.sv(28) @ 4485: uvm_test_top.env.pa.out_mon [OUTPUT MONITOR] BRESP = 3 RRESP = 0 RDATA = 00000000
UVM_INFO axi4_lite_scoreboard.sv(52) @ 4485: uvm_test_top.env.scb [BRESP] Matched : exp_bresp= 3 actual_bresp=3 write = 1 read = 0
UVM_INFO axi4_lite_subscriber.sv(41) @ 4495: uvm_test_top.env.sb [sb] INPUT COVERAGE = 83.33 %
UVM_INFO axi4_lite_inp_monitor.sv(38) @ 4495: uvm_test_top.env.aa.inp_mon [INPUT MONITOR] READ araddr=00000028
UVM_INFO axi4_lite_out_monitor.sv(28) @ 4505: uvm_test_top.env.pa.out_mon [OUTPUT MONITOR] BRESP = 0 RRESP = 0 RDATA = 00000000
UVM_INFO axi4_lite_driver.sv(34) @ 4505: uvm_test_top.env.aa.drv [DRV] awaddr = 43ba0714 wdata = 33d1b071 wstrb = c araddr = 00000028
UVM_INFO axi4_lite_scoreboard.sv(68) @ 4505: uvm_test_top.env.scb [RRESP] Matched : exp_rresp=0 actual_rresp =0 write = 0 read = 1
UVM_INFO axi4_lite_scoreboard.sv(72) @ 4505: uvm_test_top.env.scb [RDATA] Matched : exp_rdata=00000000 actual_rdata =00000000
UVM_INFO axi4_lite_subscriber.sv(41) @ 4555: uvm_test_top.env.sb [sb] INPUT COVERAGE = 83.33 %
UVM_INFO axi4_lite_inp_monitor.sv(44) @ 4555: uvm_test_top.env.aa.inp_mon [INPUT MONITOR]  WRITE awaddr=d35977cc wdata=b86dc9d3 wstrb=1001 
UVM_INFO axi4_lite_out_monitor.sv(28) @ 4575: uvm_test_top.env.pa.out_mon [OUTPUT MONITOR] BRESP = 3 RRESP = 0 RDATA = 00000000
UVM_INFO axi4_lite_scoreboard.sv(52) @ 4575: uvm_test_top.env.scb [BRESP] Matched : exp_bresp= 3 actual_bresp=3 write = 1 read = 0
UVM_INFO axi4_lite_subscriber.sv(41) @ 4585: uvm_test_top.env.sb [sb] INPUT COVERAGE = 83.33 %
UVM_INFO axi4_lite_inp_monitor.sv(38) @ 4585: uvm_test_top.env.aa.inp_mon [INPUT MONITOR] READ araddr=0000000c
UVM_INFO axi4_lite_out_monitor.sv(28) @ 4595: uvm_test_top.env.pa.out_mon [OUTPUT MONITOR] BRESP = 0 RRESP = 0 RDATA = 00000000
UVM_INFO axi4_lite_driver.sv(34) @ 4595: uvm_test_top.env.aa.drv [DRV] awaddr = d35977cc wdata = b86dc9d3 wstrb = 9 araddr = 0000000c
UVM_INFO axi4_lite_scoreboard.sv(68) @ 4595: uvm_test_top.env.scb [RRESP] Matched : exp_rresp=0 actual_rresp =0 write = 0 read = 1
UVM_INFO axi4_lite_scoreboard.sv(72) @ 4595: uvm_test_top.env.scb [RDATA] Matched : exp_rdata=00000000 actual_rdata =00000000
UVM_INFO axi4_lite_subscriber.sv(41) @ 4615: uvm_test_top.env.sb [sb] INPUT COVERAGE = 83.33 %
UVM_INFO axi4_lite_inp_monitor.sv(44) @ 4615: uvm_test_top.env.aa.inp_mon [INPUT MONITOR]  WRITE awaddr=9049a5f4 wdata=e39af0fd wstrb=1010 
UVM_INFO axi4_lite_out_monitor.sv(28) @ 4635: uvm_test_top.env.pa.out_mon [OUTPUT MONITOR] BRESP = 3 RRESP = 0 RDATA = 00000000
UVM_INFO axi4_lite_scoreboard.sv(52) @ 4635: uvm_test_top.env.scb [BRESP] Matched : exp_bresp= 3 actual_bresp=3 write = 1 read = 0
UVM_INFO axi4_lite_subscriber.sv(41) @ 4645: uvm_test_top.env.sb [sb] INPUT COVERAGE = 83.33 %
UVM_INFO axi4_lite_inp_monitor.sv(38) @ 4645: uvm_test_top.env.aa.inp_mon [INPUT MONITOR] READ araddr=0000002c
UVM_INFO axi4_lite_out_monitor.sv(28) @ 4655: uvm_test_top.env.pa.out_mon [OUTPUT MONITOR] BRESP = 0 RRESP = 0 RDATA = 00000000
UVM_INFO axi4_lite_driver.sv(34) @ 4655: uvm_test_top.env.aa.drv [DRV] awaddr = 9049a5f4 wdata = e39af0fd wstrb = a araddr = 0000002c
UVM_INFO axi4_lite_scoreboard.sv(68) @ 4655: uvm_test_top.env.scb [RRESP] Matched : exp_rresp=0 actual_rresp =0 write = 0 read = 1
UVM_INFO axi4_lite_scoreboard.sv(72) @ 4655: uvm_test_top.env.scb [RDATA] Matched : exp_rdata=00000000 actual_rdata =00000000
UVM_INFO axi4_lite_subscriber.sv(41) @ 4695: uvm_test_top.env.sb [sb] INPUT COVERAGE = 83.33 %
UVM_INFO axi4_lite_inp_monitor.sv(44) @ 4695: uvm_test_top.env.aa.inp_mon [INPUT MONITOR]  WRITE awaddr=17691350 wdata=1dc459ee wstrb=1011 
UVM_INFO axi4_lite_out_monitor.sv(28) @ 4715: uvm_test_top.env.pa.out_mon [OUTPUT MONITOR] BRESP = 3 RRESP = 0 RDATA = 00000000
UVM_INFO axi4_lite_scoreboard.sv(52) @ 4715: uvm_test_top.env.scb [BRESP] Matched : exp_bresp= 3 actual_bresp=3 write = 1 read = 0
UVM_INFO axi4_lite_subscriber.sv(41) @ 4725: uvm_test_top.env.sb [sb] INPUT COVERAGE = 83.33 %
UVM_INFO axi4_lite_inp_monitor.sv(38) @ 4725: uvm_test_top.env.aa.inp_mon [INPUT MONITOR] READ araddr=00000000
UVM_INFO axi4_lite_out_monitor.sv(28) @ 4735: uvm_test_top.env.pa.out_mon [OUTPUT MONITOR] BRESP = 0 RRESP = 0 RDATA = 00000000
UVM_INFO axi4_lite_driver.sv(34) @ 4735: uvm_test_top.env.aa.drv [DRV] awaddr = 17691350 wdata = 1dc459ee wstrb = b araddr = 00000000
UVM_INFO axi4_lite_scoreboard.sv(68) @ 4735: uvm_test_top.env.scb [RRESP] Matched : exp_rresp=0 actual_rresp =0 write = 0 read = 1
UVM_INFO axi4_lite_scoreboard.sv(72) @ 4735: uvm_test_top.env.scb [RDATA] Matched : exp_rdata=00000000 actual_rdata =00000000
UVM_INFO axi4_lite_subscriber.sv(41) @ 4765: uvm_test_top.env.sb [sb] INPUT COVERAGE = 83.33 %
UVM_INFO axi4_lite_inp_monitor.sv(44) @ 4765: uvm_test_top.env.aa.inp_mon [INPUT MONITOR]  WRITE awaddr=1a614928 wdata=562a51ed wstrb=1110 
UVM_INFO axi4_lite_out_monitor.sv(28) @ 4785: uvm_test_top.env.pa.out_mon [OUTPUT MONITOR] BRESP = 3 RRESP = 0 RDATA = 00000000
UVM_INFO axi4_lite_scoreboard.sv(52) @ 4785: uvm_test_top.env.scb [BRESP] Matched : exp_bresp= 3 actual_bresp=3 write = 1 read = 0
UVM_INFO axi4_lite_subscriber.sv(41) @ 4795: uvm_test_top.env.sb [sb] INPUT COVERAGE = 83.33 %
UVM_INFO axi4_lite_inp_monitor.sv(38) @ 4795: uvm_test_top.env.aa.inp_mon [INPUT MONITOR] READ araddr=00000004
UVM_INFO axi4_lite_out_monitor.sv(28) @ 4805: uvm_test_top.env.pa.out_mon [OUTPUT MONITOR] BRESP = 0 RRESP = 0 RDATA = 00000000
UVM_INFO axi4_lite_driver.sv(34) @ 4805: uvm_test_top.env.aa.drv [DRV] awaddr = 1a614928 wdata = 562a51ed wstrb = e araddr = 00000004
UVM_INFO axi4_lite_scoreboard.sv(68) @ 4805: uvm_test_top.env.scb [RRESP] Matched : exp_rresp=0 actual_rresp =0 write = 0 read = 1
UVM_INFO axi4_lite_scoreboard.sv(72) @ 4805: uvm_test_top.env.scb [RDATA] Matched : exp_rdata=00000000 actual_rdata =00000000
UVM_INFO axi4_lite_subscriber.sv(41) @ 4835: uvm_test_top.env.sb [sb] INPUT COVERAGE = 83.33 %
UVM_INFO axi4_lite_inp_monitor.sv(44) @ 4835: uvm_test_top.env.aa.inp_mon [INPUT MONITOR]  WRITE awaddr=887da2ac wdata=490375d9 wstrb=1100 
UVM_INFO axi4_lite_out_monitor.sv(28) @ 4855: uvm_test_top.env.pa.out_mon [OUTPUT MONITOR] BRESP = 3 RRESP = 0 RDATA = 00000000
UVM_INFO axi4_lite_scoreboard.sv(52) @ 4855: uvm_test_top.env.scb [BRESP] Matched : exp_bresp= 3 actual_bresp=3 write = 1 read = 0
UVM_INFO axi4_lite_subscriber.sv(41) @ 4865: uvm_test_top.env.sb [sb] INPUT COVERAGE = 83.33 %
UVM_INFO axi4_lite_inp_monitor.sv(38) @ 4865: uvm_test_top.env.aa.inp_mon [INPUT MONITOR] READ araddr=00000010
UVM_INFO axi4_lite_out_monitor.sv(28) @ 4875: uvm_test_top.env.pa.out_mon [OUTPUT MONITOR] BRESP = 0 RRESP = 0 RDATA = 00000000
UVM_INFO axi4_lite_driver.sv(34) @ 4875: uvm_test_top.env.aa.drv [DRV] awaddr = 887da2ac wdata = 490375d9 wstrb = c araddr = 00000010
UVM_INFO axi4_lite_scoreboard.sv(68) @ 4875: uvm_test_top.env.scb [RRESP] Matched : exp_rresp=0 actual_rresp =0 write = 0 read = 1
UVM_INFO axi4_lite_scoreboard.sv(72) @ 4875: uvm_test_top.env.scb [RDATA] Matched : exp_rdata=00000000 actual_rdata =00000000
UVM_INFO axi4_lite_subscriber.sv(41) @ 4925: uvm_test_top.env.sb [sb] INPUT COVERAGE = 83.33 %
UVM_INFO axi4_lite_inp_monitor.sv(44) @ 4925: uvm_test_top.env.aa.inp_mon [INPUT MONITOR]  WRITE awaddr=d5d56a38 wdata=c2348bfd wstrb=1110 
UVM_INFO axi4_lite_out_monitor.sv(28) @ 4945: uvm_test_top.env.pa.out_mon [OUTPUT MONITOR] BRESP = 3 RRESP = 0 RDATA = 00000000
UVM_INFO axi4_lite_scoreboard.sv(52) @ 4945: uvm_test_top.env.scb [BRESP] Matched : exp_bresp= 3 actual_bresp=3 write = 1 read = 0
UVM_INFO axi4_lite_subscriber.sv(41) @ 4955: uvm_test_top.env.sb [sb] INPUT COVERAGE = 83.33 %
UVM_INFO axi4_lite_inp_monitor.sv(38) @ 4955: uvm_test_top.env.aa.inp_mon [INPUT MONITOR] READ araddr=00000028
UVM_INFO axi4_lite_out_monitor.sv(28) @ 4965: uvm_test_top.env.pa.out_mon [OUTPUT MONITOR] BRESP = 0 RRESP = 0 RDATA = 00000000
UVM_INFO axi4_lite_driver.sv(34) @ 4965: uvm_test_top.env.aa.drv [DRV] awaddr = d5d56a38 wdata = c2348bfd wstrb = e araddr = 00000028
UVM_INFO axi4_lite_scoreboard.sv(68) @ 4965: uvm_test_top.env.scb [RRESP] Matched : exp_rresp=0 actual_rresp =0 write = 0 read = 1
UVM_INFO axi4_lite_scoreboard.sv(72) @ 4965: uvm_test_top.env.scb [RDATA] Matched : exp_rdata=00000000 actual_rdata =00000000
UVM_INFO axi4_lite_subscriber.sv(41) @ 4985: uvm_test_top.env.sb [sb] INPUT COVERAGE = 83.33 %
UVM_INFO axi4_lite_inp_monitor.sv(44) @ 4985: uvm_test_top.env.aa.inp_mon [INPUT MONITOR]  WRITE awaddr=198b6f98 wdata=75e69331 wstrb=1100 
UVM_INFO axi4_lite_out_monitor.sv(28) @ 5005: uvm_test_top.env.pa.out_mon [OUTPUT MONITOR] BRESP = 3 RRESP = 0 RDATA = 00000000
UVM_INFO axi4_lite_scoreboard.sv(52) @ 5005: uvm_test_top.env.scb [BRESP] Matched : exp_bresp= 3 actual_bresp=3 write = 1 read = 0
UVM_INFO axi4_lite_subscriber.sv(41) @ 5015: uvm_test_top.env.sb [sb] INPUT COVERAGE = 83.33 %
UVM_INFO axi4_lite_inp_monitor.sv(38) @ 5015: uvm_test_top.env.aa.inp_mon [INPUT MONITOR] READ araddr=00000018
UVM_INFO axi4_lite_out_monitor.sv(28) @ 5025: uvm_test_top.env.pa.out_mon [OUTPUT MONITOR] BRESP = 0 RRESP = 0 RDATA = 00000000
UVM_INFO axi4_lite_driver.sv(34) @ 5025: uvm_test_top.env.aa.drv [DRV] awaddr = 198b6f98 wdata = 75e69331 wstrb = c araddr = 00000018
UVM_INFO axi4_lite_scoreboard.sv(68) @ 5025: uvm_test_top.env.scb [RRESP] Matched : exp_rresp=0 actual_rresp =0 write = 0 read = 1
UVM_INFO axi4_lite_scoreboard.sv(72) @ 5025: uvm_test_top.env.scb [RDATA] Matched : exp_rdata=00000000 actual_rdata =00000000
UVM_INFO axi4_lite_subscriber.sv(41) @ 5075: uvm_test_top.env.sb [sb] INPUT COVERAGE = 83.33 %
UVM_INFO axi4_lite_inp_monitor.sv(44) @ 5075: uvm_test_top.env.aa.inp_mon [INPUT MONITOR]  WRITE awaddr=63cd278c wdata=d5528016 wstrb=0010 
UVM_INFO axi4_lite_out_monitor.sv(28) @ 5095: uvm_test_top.env.pa.out_mon [OUTPUT MONITOR] BRESP = 3 RRESP = 0 RDATA = 00000000
UVM_INFO axi4_lite_scoreboard.sv(52) @ 5095: uvm_test_top.env.scb [BRESP] Matched : exp_bresp= 3 actual_bresp=3 write = 1 read = 0
UVM_INFO axi4_lite_subscriber.sv(41) @ 5105: uvm_test_top.env.sb [sb] INPUT COVERAGE = 83.33 %
UVM_INFO axi4_lite_inp_monitor.sv(38) @ 5105: uvm_test_top.env.aa.inp_mon [INPUT MONITOR] READ araddr=00000010
UVM_INFO axi4_lite_out_monitor.sv(28) @ 5115: uvm_test_top.env.pa.out_mon [OUTPUT MONITOR] BRESP = 0 RRESP = 0 RDATA = 00000000
UVM_INFO axi4_lite_driver.sv(34) @ 5115: uvm_test_top.env.aa.drv [DRV] awaddr = 63cd278c wdata = d5528016 wstrb = 2 araddr = 00000010
UVM_INFO axi4_lite_scoreboard.sv(68) @ 5115: uvm_test_top.env.scb [RRESP] Matched : exp_rresp=0 actual_rresp =0 write = 0 read = 1
UVM_INFO axi4_lite_scoreboard.sv(72) @ 5115: uvm_test_top.env.scb [RDATA] Matched : exp_rdata=00000000 actual_rdata =00000000
UVM_INFO axi4_lite_subscriber.sv(41) @ 5155: uvm_test_top.env.sb [sb] INPUT COVERAGE = 83.33 %
UVM_INFO axi4_lite_inp_monitor.sv(44) @ 5155: uvm_test_top.env.aa.inp_mon [INPUT MONITOR]  WRITE awaddr=4c4af4f8 wdata=9d49bdfc wstrb=0110 
UVM_INFO axi4_lite_out_monitor.sv(28) @ 5175: uvm_test_top.env.pa.out_mon [OUTPUT MONITOR] BRESP = 3 RRESP = 0 RDATA = 00000000
UVM_INFO axi4_lite_scoreboard.sv(52) @ 5175: uvm_test_top.env.scb [BRESP] Matched : exp_bresp= 3 actual_bresp=3 write = 1 read = 0
UVM_INFO axi4_lite_subscriber.sv(41) @ 5185: uvm_test_top.env.sb [sb] INPUT COVERAGE = 83.33 %
UVM_INFO axi4_lite_inp_monitor.sv(38) @ 5185: uvm_test_top.env.aa.inp_mon [INPUT MONITOR] READ araddr=00000028
UVM_INFO axi4_lite_out_monitor.sv(28) @ 5195: uvm_test_top.env.pa.out_mon [OUTPUT MONITOR] BRESP = 0 RRESP = 0 RDATA = 00000000
UVM_INFO axi4_lite_driver.sv(34) @ 5195: uvm_test_top.env.aa.drv [DRV] awaddr = 4c4af4f8 wdata = 9d49bdfc wstrb = 6 araddr = 00000028
UVM_INFO axi4_lite_scoreboard.sv(68) @ 5195: uvm_test_top.env.scb [RRESP] Matched : exp_rresp=0 actual_rresp =0 write = 0 read = 1
UVM_INFO axi4_lite_scoreboard.sv(72) @ 5195: uvm_test_top.env.scb [RDATA] Matched : exp_rdata=00000000 actual_rdata =00000000
UVM_INFO axi4_lite_subscriber.sv(41) @ 5225: uvm_test_top.env.sb [sb] INPUT COVERAGE = 83.33 %
UVM_INFO axi4_lite_inp_monitor.sv(44) @ 5225: uvm_test_top.env.aa.inp_mon [INPUT MONITOR]  WRITE awaddr=b8cdfc80 wdata=0447f971 wstrb=0010 
UVM_INFO axi4_lite_out_monitor.sv(28) @ 5245: uvm_test_top.env.pa.out_mon [OUTPUT MONITOR] BRESP = 3 RRESP = 0 RDATA = 00000000
UVM_INFO axi4_lite_scoreboard.sv(52) @ 5245: uvm_test_top.env.scb [BRESP] Matched : exp_bresp= 3 actual_bresp=3 write = 1 read = 0
UVM_INFO axi4_lite_subscriber.sv(41) @ 5255: uvm_test_top.env.sb [sb] INPUT COVERAGE = 83.33 %
UVM_INFO axi4_lite_inp_monitor.sv(38) @ 5255: uvm_test_top.env.aa.inp_mon [INPUT MONITOR] READ araddr=0000000c
UVM_INFO axi4_lite_out_monitor.sv(28) @ 5265: uvm_test_top.env.pa.out_mon [OUTPUT MONITOR] BRESP = 0 RRESP = 0 RDATA = 00000000
UVM_INFO axi4_lite_driver.sv(34) @ 5265: uvm_test_top.env.aa.drv [DRV] awaddr = b8cdfc80 wdata = 0447f971 wstrb = 2 araddr = 0000000c
UVM_INFO axi4_lite_scoreboard.sv(68) @ 5265: uvm_test_top.env.scb [RRESP] Matched : exp_rresp=0 actual_rresp =0 write = 0 read = 1
UVM_INFO axi4_lite_scoreboard.sv(72) @ 5265: uvm_test_top.env.scb [RDATA] Matched : exp_rdata=00000000 actual_rdata =00000000
UVM_INFO axi4_lite_subscriber.sv(41) @ 5315: uvm_test_top.env.sb [sb] INPUT COVERAGE = 83.33 %
UVM_INFO axi4_lite_inp_monitor.sv(44) @ 5315: uvm_test_top.env.aa.inp_mon [INPUT MONITOR]  WRITE awaddr=fb7b42fc wdata=c16b8448 wstrb=1000 
UVM_INFO axi4_lite_out_monitor.sv(28) @ 5335: uvm_test_top.env.pa.out_mon [OUTPUT MONITOR] BRESP = 3 RRESP = 0 RDATA = 00000000
UVM_INFO axi4_lite_scoreboard.sv(52) @ 5335: uvm_test_top.env.scb [BRESP] Matched : exp_bresp= 3 actual_bresp=3 write = 1 read = 0
UVM_INFO axi4_lite_subscriber.sv(41) @ 5345: uvm_test_top.env.sb [sb] INPUT COVERAGE = 83.33 %
UVM_INFO axi4_lite_inp_monitor.sv(38) @ 5345: uvm_test_top.env.aa.inp_mon [INPUT MONITOR] READ araddr=00000000
UVM_INFO axi4_lite_out_monitor.sv(28) @ 5355: uvm_test_top.env.pa.out_mon [OUTPUT MONITOR] BRESP = 0 RRESP = 0 RDATA = 00000000
UVM_INFO axi4_lite_driver.sv(34) @ 5355: uvm_test_top.env.aa.drv [DRV] awaddr = fb7b42fc wdata = c16b8448 wstrb = 8 araddr = 00000000
UVM_INFO axi4_lite_scoreboard.sv(68) @ 5355: uvm_test_top.env.scb [RRESP] Matched : exp_rresp=0 actual_rresp =0 write = 0 read = 1
UVM_INFO axi4_lite_scoreboard.sv(72) @ 5355: uvm_test_top.env.scb [RDATA] Matched : exp_rdata=00000000 actual_rdata =00000000
UVM_INFO axi4_lite_subscriber.sv(41) @ 5395: uvm_test_top.env.sb [sb] INPUT COVERAGE = 83.33 %
UVM_INFO axi4_lite_inp_monitor.sv(44) @ 5395: uvm_test_top.env.aa.inp_mon [INPUT MONITOR]  WRITE awaddr=b2ffa9cc wdata=a2597e11 wstrb=1000 
UVM_INFO axi4_lite_out_monitor.sv(28) @ 5415: uvm_test_top.env.pa.out_mon [OUTPUT MONITOR] BRESP = 3 RRESP = 0 RDATA = 00000000
UVM_INFO axi4_lite_scoreboard.sv(52) @ 5415: uvm_test_top.env.scb [BRESP] Matched : exp_bresp= 3 actual_bresp=3 write = 1 read = 0
UVM_INFO axi4_lite_subscriber.sv(41) @ 5425: uvm_test_top.env.sb [sb] INPUT COVERAGE = 83.33 %
UVM_INFO axi4_lite_inp_monitor.sv(38) @ 5425: uvm_test_top.env.aa.inp_mon [INPUT MONITOR] READ araddr=0000000c
UVM_INFO axi4_lite_out_monitor.sv(28) @ 5435: uvm_test_top.env.pa.out_mon [OUTPUT MONITOR] BRESP = 0 RRESP = 0 RDATA = 00000000
UVM_INFO axi4_lite_driver.sv(34) @ 5435: uvm_test_top.env.aa.drv [DRV] awaddr = b2ffa9cc wdata = a2597e11 wstrb = 8 araddr = 0000000c
UVM_INFO axi4_lite_scoreboard.sv(68) @ 5435: uvm_test_top.env.scb [RRESP] Matched : exp_rresp=0 actual_rresp =0 write = 0 read = 1
UVM_INFO axi4_lite_scoreboard.sv(72) @ 5435: uvm_test_top.env.scb [RDATA] Matched : exp_rdata=00000000 actual_rdata =00000000
UVM_INFO axi4_lite_subscriber.sv(41) @ 5475: uvm_test_top.env.sb [sb] INPUT COVERAGE = 83.33 %
UVM_INFO axi4_lite_inp_monitor.sv(44) @ 5475: uvm_test_top.env.aa.inp_mon [INPUT MONITOR]  WRITE awaddr=2073c73c wdata=e8f722b3 wstrb=1110 
UVM_INFO axi4_lite_out_monitor.sv(28) @ 5495: uvm_test_top.env.pa.out_mon [OUTPUT MONITOR] BRESP = 3 RRESP = 0 RDATA = 00000000
UVM_INFO axi4_lite_scoreboard.sv(52) @ 5495: uvm_test_top.env.scb [BRESP] Matched : exp_bresp= 3 actual_bresp=3 write = 1 read = 0
UVM_INFO axi4_lite_subscriber.sv(41) @ 5505: uvm_test_top.env.sb [sb] INPUT COVERAGE = 83.33 %
UVM_INFO axi4_lite_inp_monitor.sv(38) @ 5505: uvm_test_top.env.aa.inp_mon [INPUT MONITOR] READ araddr=00000030
UVM_INFO axi4_lite_out_monitor.sv(28) @ 5515: uvm_test_top.env.pa.out_mon [OUTPUT MONITOR] BRESP = 0 RRESP = 0 RDATA = 00000000
UVM_INFO axi4_lite_driver.sv(34) @ 5515: uvm_test_top.env.aa.drv [DRV] awaddr = 2073c73c wdata = e8f722b3 wstrb = e araddr = 00000030
UVM_INFO axi4_lite_scoreboard.sv(68) @ 5515: uvm_test_top.env.scb [RRESP] Matched : exp_rresp=0 actual_rresp =0 write = 0 read = 1
UVM_INFO axi4_lite_scoreboard.sv(72) @ 5515: uvm_test_top.env.scb [RDATA] Matched : exp_rdata=00000000 actual_rdata =00000000
UVM_INFO axi4_lite_subscriber.sv(41) @ 5565: uvm_test_top.env.sb [sb] INPUT COVERAGE = 83.33 %
UVM_INFO axi4_lite_inp_monitor.sv(44) @ 5565: uvm_test_top.env.aa.inp_mon [INPUT MONITOR]  WRITE awaddr=f9cf2c50 wdata=15dcab2c wstrb=1001 
UVM_INFO axi4_lite_out_monitor.sv(28) @ 5585: uvm_test_top.env.pa.out_mon [OUTPUT MONITOR] BRESP = 3 RRESP = 0 RDATA = 00000000
UVM_INFO axi4_lite_scoreboard.sv(52) @ 5585: uvm_test_top.env.scb [BRESP] Matched : exp_bresp= 3 actual_bresp=3 write = 1 read = 0
UVM_INFO axi4_lite_subscriber.sv(41) @ 5595: uvm_test_top.env.sb [sb] INPUT COVERAGE = 83.33 %
UVM_INFO axi4_lite_inp_monitor.sv(38) @ 5595: uvm_test_top.env.aa.inp_mon [INPUT MONITOR] READ araddr=0000002c
UVM_INFO axi4_lite_out_monitor.sv(28) @ 5605: uvm_test_top.env.pa.out_mon [OUTPUT MONITOR] BRESP = 0 RRESP = 0 RDATA = 00000000
UVM_INFO axi4_lite_driver.sv(34) @ 5605: uvm_test_top.env.aa.drv [DRV] awaddr = f9cf2c50 wdata = 15dcab2c wstrb = 9 araddr = 0000002c
UVM_INFO axi4_lite_scoreboard.sv(68) @ 5605: uvm_test_top.env.scb [RRESP] Matched : exp_rresp=0 actual_rresp =0 write = 0 read = 1
UVM_INFO axi4_lite_scoreboard.sv(72) @ 5605: uvm_test_top.env.scb [RDATA] Matched : exp_rdata=00000000 actual_rdata =00000000
UVM_INFO axi4_lite_subscriber.sv(41) @ 5645: uvm_test_top.env.sb [sb] INPUT COVERAGE = 83.33 %
UVM_INFO axi4_lite_inp_monitor.sv(44) @ 5645: uvm_test_top.env.aa.inp_mon [INPUT MONITOR]  WRITE awaddr=d47a3720 wdata=4dfe8273 wstrb=1100 
UVM_INFO axi4_lite_out_monitor.sv(28) @ 5665: uvm_test_top.env.pa.out_mon [OUTPUT MONITOR] BRESP = 3 RRESP = 0 RDATA = 00000000
UVM_INFO axi4_lite_scoreboard.sv(52) @ 5665: uvm_test_top.env.scb [BRESP] Matched : exp_bresp= 3 actual_bresp=3 write = 1 read = 0
UVM_INFO axi4_lite_subscriber.sv(41) @ 5675: uvm_test_top.env.sb [sb] INPUT COVERAGE = 83.33 %
UVM_INFO axi4_lite_inp_monitor.sv(38) @ 5675: uvm_test_top.env.aa.inp_mon [INPUT MONITOR] READ araddr=00000018
UVM_INFO axi4_lite_out_monitor.sv(28) @ 5685: uvm_test_top.env.pa.out_mon [OUTPUT MONITOR] BRESP = 0 RRESP = 0 RDATA = 00000000
UVM_INFO axi4_lite_driver.sv(34) @ 5685: uvm_test_top.env.aa.drv [DRV] awaddr = d47a3720 wdata = 4dfe8273 wstrb = c araddr = 00000018
UVM_INFO axi4_lite_scoreboard.sv(68) @ 5685: uvm_test_top.env.scb [RRESP] Matched : exp_rresp=0 actual_rresp =0 write = 0 read = 1
UVM_INFO axi4_lite_scoreboard.sv(72) @ 5685: uvm_test_top.env.scb [RDATA] Matched : exp_rdata=00000000 actual_rdata =00000000
UVM_INFO axi4_lite_subscriber.sv(41) @ 5715: uvm_test_top.env.sb [sb] INPUT COVERAGE = 83.33 %
UVM_INFO axi4_lite_inp_monitor.sv(44) @ 5715: uvm_test_top.env.aa.inp_mon [INPUT MONITOR]  WRITE awaddr=8334a0a4 wdata=5fa03d7a wstrb=0110 
UVM_INFO axi4_lite_out_monitor.sv(28) @ 5735: uvm_test_top.env.pa.out_mon [OUTPUT MONITOR] BRESP = 3 RRESP = 0 RDATA = 00000000
UVM_INFO axi4_lite_scoreboard.sv(52) @ 5735: uvm_test_top.env.scb [BRESP] Matched : exp_bresp= 3 actual_bresp=3 write = 1 read = 0
UVM_INFO axi4_lite_subscriber.sv(41) @ 5745: uvm_test_top.env.sb [sb] INPUT COVERAGE = 83.33 %
UVM_INFO axi4_lite_inp_monitor.sv(38) @ 5745: uvm_test_top.env.aa.inp_mon [INPUT MONITOR] READ araddr=00000018
UVM_INFO axi4_lite_out_monitor.sv(28) @ 5755: uvm_test_top.env.pa.out_mon [OUTPUT MONITOR] BRESP = 0 RRESP = 0 RDATA = 00000000
UVM_INFO axi4_lite_driver.sv(34) @ 5755: uvm_test_top.env.aa.drv [DRV] awaddr = 8334a0a4 wdata = 5fa03d7a wstrb = 6 araddr = 00000018
UVM_INFO axi4_lite_scoreboard.sv(68) @ 5755: uvm_test_top.env.scb [RRESP] Matched : exp_rresp=0 actual_rresp =0 write = 0 read = 1
UVM_INFO axi4_lite_scoreboard.sv(72) @ 5755: uvm_test_top.env.scb [RDATA] Matched : exp_rdata=00000000 actual_rdata =00000000
UVM_INFO axi4_lite_subscriber.sv(41) @ 5785: uvm_test_top.env.sb [sb] INPUT COVERAGE = 83.33 %
UVM_INFO axi4_lite_inp_monitor.sv(44) @ 5785: uvm_test_top.env.aa.inp_mon [INPUT MONITOR]  WRITE awaddr=0590cb90 wdata=1e09aab5 wstrb=1011 
UVM_INFO axi4_lite_out_monitor.sv(28) @ 5805: uvm_test_top.env.pa.out_mon [OUTPUT MONITOR] BRESP = 3 RRESP = 0 RDATA = 00000000
UVM_INFO axi4_lite_scoreboard.sv(52) @ 5805: uvm_test_top.env.scb [BRESP] Matched : exp_bresp= 3 actual_bresp=3 write = 1 read = 0
UVM_INFO axi4_lite_subscriber.sv(41) @ 5815: uvm_test_top.env.sb [sb] INPUT COVERAGE = 83.33 %
UVM_INFO axi4_lite_inp_monitor.sv(38) @ 5815: uvm_test_top.env.aa.inp_mon [INPUT MONITOR] READ araddr=00000018
UVM_INFO axi4_lite_out_monitor.sv(28) @ 5825: uvm_test_top.env.pa.out_mon [OUTPUT MONITOR] BRESP = 0 RRESP = 0 RDATA = 00000000
UVM_INFO axi4_lite_driver.sv(34) @ 5825: uvm_test_top.env.aa.drv [DRV] awaddr = 0590cb90 wdata = 1e09aab5 wstrb = b araddr = 00000018
UVM_INFO axi4_lite_scoreboard.sv(68) @ 5825: uvm_test_top.env.scb [RRESP] Matched : exp_rresp=0 actual_rresp =0 write = 0 read = 1
UVM_INFO axi4_lite_scoreboard.sv(72) @ 5825: uvm_test_top.env.scb [RDATA] Matched : exp_rdata=00000000 actual_rdata =00000000
UVM_INFO axi4_lite_subscriber.sv(41) @ 5855: uvm_test_top.env.sb [sb] INPUT COVERAGE = 83.33 %
UVM_INFO axi4_lite_inp_monitor.sv(44) @ 5855: uvm_test_top.env.aa.inp_mon [INPUT MONITOR]  WRITE awaddr=50062fd0 wdata=3ecf8954 wstrb=0101 
UVM_INFO axi4_lite_out_monitor.sv(28) @ 5875: uvm_test_top.env.pa.out_mon [OUTPUT MONITOR] BRESP = 3 RRESP = 0 RDATA = 00000000
UVM_INFO axi4_lite_scoreboard.sv(52) @ 5875: uvm_test_top.env.scb [BRESP] Matched : exp_bresp= 3 actual_bresp=3 write = 1 read = 0
UVM_INFO axi4_lite_subscriber.sv(41) @ 5885: uvm_test_top.env.sb [sb] INPUT COVERAGE = 83.33 %
UVM_INFO axi4_lite_inp_monitor.sv(38) @ 5885: uvm_test_top.env.aa.inp_mon [INPUT MONITOR] READ araddr=0000000c
UVM_INFO axi4_lite_out_monitor.sv(28) @ 5895: uvm_test_top.env.pa.out_mon [OUTPUT MONITOR] BRESP = 0 RRESP = 0 RDATA = 00000000
UVM_INFO axi4_lite_driver.sv(34) @ 5895: uvm_test_top.env.aa.drv [DRV] awaddr = 50062fd0 wdata = 3ecf8954 wstrb = 5 araddr = 0000000c
UVM_INFO axi4_lite_scoreboard.sv(68) @ 5895: uvm_test_top.env.scb [RRESP] Matched : exp_rresp=0 actual_rresp =0 write = 0 read = 1
UVM_INFO axi4_lite_scoreboard.sv(72) @ 5895: uvm_test_top.env.scb [RDATA] Matched : exp_rdata=00000000 actual_rdata =00000000
UVM_INFO axi4_lite_subscriber.sv(41) @ 5935: uvm_test_top.env.sb [sb] INPUT COVERAGE = 83.33 %
UVM_INFO axi4_lite_inp_monitor.sv(44) @ 5935: uvm_test_top.env.aa.inp_mon [INPUT MONITOR]  WRITE awaddr=c8a699c4 wdata=d6a5f01d wstrb=1111 
UVM_INFO axi4_lite_out_monitor.sv(28) @ 5955: uvm_test_top.env.pa.out_mon [OUTPUT MONITOR] BRESP = 3 RRESP = 0 RDATA = 00000000
UVM_INFO axi4_lite_scoreboard.sv(52) @ 5955: uvm_test_top.env.scb [BRESP] Matched : exp_bresp= 3 actual_bresp=3 write = 1 read = 0
UVM_INFO axi4_lite_subscriber.sv(41) @ 5965: uvm_test_top.env.sb [sb] INPUT COVERAGE = 83.33 %
UVM_INFO axi4_lite_inp_monitor.sv(38) @ 5965: uvm_test_top.env.aa.inp_mon [INPUT MONITOR] READ araddr=00000004
UVM_INFO axi4_lite_out_monitor.sv(28) @ 5975: uvm_test_top.env.pa.out_mon [OUTPUT MONITOR] BRESP = 0 RRESP = 0 RDATA = 00000000
UVM_INFO axi4_lite_driver.sv(34) @ 5975: uvm_test_top.env.aa.drv [DRV] awaddr = c8a699c4 wdata = d6a5f01d wstrb = f araddr = 00000004
UVM_INFO axi4_lite_scoreboard.sv(68) @ 5975: uvm_test_top.env.scb [RRESP] Matched : exp_rresp=0 actual_rresp =0 write = 0 read = 1
UVM_INFO axi4_lite_scoreboard.sv(72) @ 5975: uvm_test_top.env.scb [RDATA] Matched : exp_rdata=00000000 actual_rdata =00000000
UVM_INFO axi4_lite_subscriber.sv(41) @ 6005: uvm_test_top.env.sb [sb] INPUT COVERAGE = 83.33 %
UVM_INFO axi4_lite_inp_monitor.sv(44) @ 6005: uvm_test_top.env.aa.inp_mon [INPUT MONITOR]  WRITE awaddr=247214b4 wdata=15528c22 wstrb=1110 
UVM_INFO axi4_lite_out_monitor.sv(28) @ 6025: uvm_test_top.env.pa.out_mon [OUTPUT MONITOR] BRESP = 3 RRESP = 0 RDATA = 00000000
UVM_INFO axi4_lite_scoreboard.sv(52) @ 6025: uvm_test_top.env.scb [BRESP] Matched : exp_bresp= 3 actual_bresp=3 write = 1 read = 0
UVM_INFO axi4_lite_subscriber.sv(41) @ 6035: uvm_test_top.env.sb [sb] INPUT COVERAGE = 83.33 %
UVM_INFO axi4_lite_inp_monitor.sv(38) @ 6035: uvm_test_top.env.aa.inp_mon [INPUT MONITOR] READ araddr=00000004
UVM_INFO axi4_lite_out_monitor.sv(28) @ 6045: uvm_test_top.env.pa.out_mon [OUTPUT MONITOR] BRESP = 0 RRESP = 0 RDATA = 00000000
UVM_INFO axi4_lite_driver.sv(34) @ 6045: uvm_test_top.env.aa.drv [DRV] awaddr = 247214b4 wdata = 15528c22 wstrb = e araddr = 00000004
UVM_INFO axi4_lite_scoreboard.sv(68) @ 6045: uvm_test_top.env.scb [RRESP] Matched : exp_rresp=0 actual_rresp =0 write = 0 read = 1
UVM_INFO axi4_lite_scoreboard.sv(72) @ 6045: uvm_test_top.env.scb [RDATA] Matched : exp_rdata=00000000 actual_rdata =00000000
UVM_INFO axi4_lite_subscriber.sv(41) @ 6095: uvm_test_top.env.sb [sb] INPUT COVERAGE = 83.33 %
UVM_INFO axi4_lite_inp_monitor.sv(44) @ 6095: uvm_test_top.env.aa.inp_mon [INPUT MONITOR]  WRITE awaddr=fa88aaf0 wdata=8cb209a3 wstrb=0110 
