Command: /fetools/work_area/frontend/Batch_11/ananyaganesh/system_verilog/AXI4_LITE_SLAVE/src/./simv +UVM_TESTNAME=axi4_lite_test_write_decerr +UVM_VERBOSITY=UVM_HIGH -cm line+cond+fsm+tgl+branch+assert -cm_dir regression.vdb -cm_name axi4_lite_test_write_decerr -l axi4_lite_test_write_decerr_regr.log
Chronologic VCS simulator copyright 1991-2020
Contains Synopsys proprietary information.
Compiler version Q-2020.03-SP2-8_Full64; Runtime version Q-2020.03-SP2-8_Full64;  Sep 18 16:14 2026
----------------------------------------------------------------
UVM-1.1d.Synopsys
(C) 2007-2013 Mentor Graphics Corporation
(C) 2007-2013 Cadence Design Systems, Inc.
(C) 2006-2013 Synopsys, Inc.
(C) 2011-2013 Cypress Semiconductor Corp.
----------------------------------------------------------------

  ***********       IMPORTANT RELEASE NOTES         ************

  You are using a version of the UVM library that has been compiled
  with `UVM_NO_DEPRECATED undefined.
  See http://www.eda.org/svdb/view.php?id=3313 for more details.

  You are using a version of the UVM library that has been compiled
  with `UVM_OBJECT_MUST_HAVE_CONSTRUCTOR undefined.
  See http://www.eda.org/svdb/view.php?id=3770 for more details.

      (Specify +UVM_NO_RELNOTES to turn off this notice)

UVM_INFO @ 0: reporter [RNTST] Running test axi4_lite_test_write_decerr...
UVM_INFO @ 0: reporter [UVMTOP] UVM testbench topology:
-------------------------------------------------------------------
Name                       Type                         Size  Value
-------------------------------------------------------------------
uvm_test_top               axi4_lite_test_write_decerr  -     @469 
  env                      axi4_lite_environment        -     @477 
    aa                     axi4_lite_active_agent       -     @489 
      drv                  axi4_lite_driver             -     @569 
        rsp_port           uvm_analysis_port            -     @586 
        seq_item_port      uvm_seq_item_pull_port       -     @577 
      inp_mon              axi4_lite_inp_monitor        -     @552 
        inp_mon_port       uvm_analysis_port            -     @560 
      seqr                 axi4_lite_seqr               -     @595 
        rsp_export         uvm_analysis_export          -     @603 
        seq_item_export    uvm_seq_item_pull_imp        -     @709 
        arbitration_queue  array                        0     -    
        lock_queue         array                        0     -    
        num_last_reqs      integral                     32    'd1  
        num_last_rsps      integral                     32    'd1  
    pa                     axi4_lite_passive_agent      -     @497 
      out_mon              axi4_lite_out_monitor        -     @726 
        out_mon_port       uvm_analysis_port            -     @734 
    sb                     axi4_lite_subscriber         -     @531 
      analysis_imp         uvm_analysis_imp             -     @539 
    scb                    axi4_lite_scoreboard         -     @505 
      inp_port             uvm_analysis_imp_in          -     @513 
      out_port             uvm_analysis_imp_out         -     @522 
-------------------------------------------------------------------

UVM_INFO axi4_lite_subscriber.sv(41) @ 45: uvm_test_top.env.sb [sb] INPUT COVERAGE = 19.79 %
UVM_INFO axi4_lite_inp_monitor.sv(44) @ 45: uvm_test_top.env.aa.inp_mon [INPUT MONITOR]  WRITE awaddr=94613708 wdata=40e1b8d1 wstrb=0100 
UVM_INFO axi4_lite_out_monitor.sv(28) @ 65: uvm_test_top.env.pa.out_mon [OUTPUT MONITOR] BRESP = 3 RRESP = 0 RDATA = 00000000
UVM_INFO axi4_lite_driver.sv(34) @ 65: uvm_test_top.env.aa.drv [DRV] awaddr = 94613708 wdata = 40e1b8d1 wstrb = 4 araddr = 811e1fac
UVM_INFO axi4_lite_scoreboard.sv(52) @ 65: uvm_test_top.env.scb [BRESP] Matched : exp_bresp= 3 actual_bresp=3 write = 1 read = 0
UVM_INFO axi4_lite_subscriber.sv(41) @ 105: uvm_test_top.env.sb [sb] INPUT COVERAGE = 22.92 %
UVM_INFO axi4_lite_inp_monitor.sv(44) @ 105: uvm_test_top.env.aa.inp_mon [INPUT MONITOR]  WRITE awaddr=139c9f94 wdata=042d86fe wstrb=1111 
UVM_INFO axi4_lite_out_monitor.sv(28) @ 125: uvm_test_top.env.pa.out_mon [OUTPUT MONITOR] BRESP = 3 RRESP = 0 RDATA = 00000000
UVM_INFO axi4_lite_driver.sv(34) @ 125: uvm_test_top.env.aa.drv [DRV] awaddr = 139c9f94 wdata = 042d86fe wstrb = f araddr = 54343ae4
UVM_INFO axi4_lite_scoreboard.sv(52) @ 125: uvm_test_top.env.scb [BRESP] Matched : exp_bresp= 3 actual_bresp=3 write = 1 read = 0
UVM_INFO axi4_lite_subscriber.sv(41) @ 175: uvm_test_top.env.sb [sb] INPUT COVERAGE = 31.25 %
UVM_INFO axi4_lite_inp_monitor.sv(44) @ 175: uvm_test_top.env.aa.inp_mon [INPUT MONITOR]  WRITE awaddr=6b5727b0 wdata=81d8d677 wstrb=0110 
UVM_INFO axi4_lite_out_monitor.sv(28) @ 195: uvm_test_top.env.pa.out_mon [OUTPUT MONITOR] BRESP = 3 RRESP = 0 RDATA = 00000000
UVM_INFO axi4_lite_driver.sv(34) @ 195: uvm_test_top.env.aa.drv [DRV] awaddr = 6b5727b0 wdata = 81d8d677 wstrb = 6 araddr = 36b07c84
UVM_INFO axi4_lite_scoreboard.sv(52) @ 195: uvm_test_top.env.scb [BRESP] Matched : exp_bresp= 3 actual_bresp=3 write = 1 read = 0
UVM_INFO axi4_lite_subscriber.sv(41) @ 215: uvm_test_top.env.sb [sb] INPUT COVERAGE = 39.58 %
UVM_INFO axi4_lite_inp_monitor.sv(44) @ 215: uvm_test_top.env.aa.inp_mon [INPUT MONITOR]  WRITE awaddr=0700b7d0 wdata=d6d8d48b wstrb=1110 
UVM_INFO axi4_lite_out_monitor.sv(28) @ 235: uvm_test_top.env.pa.out_mon [OUTPUT MONITOR] BRESP = 3 RRESP = 0 RDATA = 00000000
UVM_INFO axi4_lite_driver.sv(34) @ 235: uvm_test_top.env.aa.drv [DRV] awaddr = 0700b7d0 wdata = d6d8d48b wstrb = e araddr = 91dd93e8
UVM_INFO axi4_lite_scoreboard.sv(52) @ 235: uvm_test_top.env.scb [BRESP] Matched : exp_bresp= 3 actual_bresp=3 write = 1 read = 0
UVM_INFO axi4_lite_subscriber.sv(41) @ 255: uvm_test_top.env.sb [sb] INPUT COVERAGE = 39.58 %
UVM_INFO axi4_lite_inp_monitor.sv(44) @ 255: uvm_test_top.env.aa.inp_mon [INPUT MONITOR]  WRITE awaddr=0a668798 wdata=82dad5b7 wstrb=1010 
UVM_INFO axi4_lite_out_monitor.sv(28) @ 275: uvm_test_top.env.pa.out_mon [OUTPUT MONITOR] BRESP = 3 RRESP = 0 RDATA = 00000000
UVM_INFO axi4_lite_driver.sv(34) @ 275: uvm_test_top.env.aa.drv [DRV] awaddr = 0a668798 wdata = 82dad5b7 wstrb = a araddr = d109e63c
UVM_INFO axi4_lite_scoreboard.sv(52) @ 275: uvm_test_top.env.scb [BRESP] Matched : exp_bresp= 3 actual_bresp=3 write = 1 read = 0
UVM_INFO axi4_lite_subscriber.sv(41) @ 325: uvm_test_top.env.sb [sb] INPUT COVERAGE = 42.71 %
UVM_INFO axi4_lite_inp_monitor.sv(44) @ 325: uvm_test_top.env.aa.inp_mon [INPUT MONITOR]  WRITE awaddr=72aeb774 wdata=b48a6cf7 wstrb=1000 
UVM_INFO axi4_lite_out_monitor.sv(28) @ 345: uvm_test_top.env.pa.out_mon [OUTPUT MONITOR] BRESP = 3 RRESP = 0 RDATA = 00000000
UVM_INFO axi4_lite_driver.sv(34) @ 345: uvm_test_top.env.aa.drv [DRV] awaddr = 72aeb774 wdata = b48a6cf7 wstrb = 8 araddr = be5f8534
UVM_INFO axi4_lite_scoreboard.sv(52) @ 345: uvm_test_top.env.scb [BRESP] Matched : exp_bresp= 3 actual_bresp=3 write = 1 read = 0
UVM_INFO axi4_lite_subscriber.sv(41) @ 385: uvm_test_top.env.sb [sb] INPUT COVERAGE = 45.83 %
UVM_INFO axi4_lite_inp_monitor.sv(44) @ 385: uvm_test_top.env.aa.inp_mon [INPUT MONITOR]  WRITE awaddr=9da160f0 wdata=807a1bc4 wstrb=0011 
UVM_INFO axi4_lite_out_monitor.sv(28) @ 405: uvm_test_top.env.pa.out_mon [OUTPUT MONITOR] BRESP = 3 RRESP = 0 RDATA = 00000000
UVM_INFO axi4_lite_driver.sv(34) @ 405: uvm_test_top.env.aa.drv [DRV] awaddr = 9da160f0 wdata = 807a1bc4 wstrb = 3 araddr = 8a062bdc
UVM_INFO axi4_lite_scoreboard.sv(52) @ 405: uvm_test_top.env.scb [BRESP] Matched : exp_bresp= 3 actual_bresp=3 write = 1 read = 0
UVM_INFO axi4_lite_subscriber.sv(41) @ 445: uvm_test_top.env.sb [sb] INPUT COVERAGE = 45.83 %
UVM_INFO axi4_lite_inp_monitor.sv(44) @ 445: uvm_test_top.env.aa.inp_mon [INPUT MONITOR]  WRITE awaddr=91f0c048 wdata=b3c1b45e wstrb=0101 
UVM_INFO axi4_lite_out_monitor.sv(28) @ 465: uvm_test_top.env.pa.out_mon [OUTPUT MONITOR] BRESP = 3 RRESP = 0 RDATA = 00000000
UVM_INFO axi4_lite_driver.sv(34) @ 465: uvm_test_top.env.aa.drv [DRV] awaddr = 91f0c048 wdata = b3c1b45e wstrb = 5 araddr = 2850861c
UVM_INFO axi4_lite_scoreboard.sv(52) @ 465: uvm_test_top.env.scb [BRESP] Matched : exp_bresp= 3 actual_bresp=3 write = 1 read = 0
UVM_INFO axi4_lite_subscriber.sv(41) @ 485: uvm_test_top.env.sb [sb] INPUT COVERAGE = 45.83 %
UVM_INFO axi4_lite_inp_monitor.sv(44) @ 485: uvm_test_top.env.aa.inp_mon [INPUT MONITOR]  WRITE awaddr=9827c858 wdata=b2232c11 wstrb=0110 
UVM_INFO axi4_lite_out_monitor.sv(28) @ 505: uvm_test_top.env.pa.out_mon [OUTPUT MONITOR] BRESP = 3 RRESP = 0 RDATA = 00000000
UVM_INFO axi4_lite_driver.sv(34) @ 505: uvm_test_top.env.aa.drv [DRV] awaddr = 9827c858 wdata = b2232c11 wstrb = 6 araddr = eecbd3a0
UVM_INFO axi4_lite_scoreboard.sv(52) @ 505: uvm_test_top.env.scb [BRESP] Matched : exp_bresp= 3 actual_bresp=3 write = 1 read = 0
UVM_INFO axi4_lite_subscriber.sv(41) @ 535: uvm_test_top.env.sb [sb] INPUT COVERAGE = 45.83 %
UVM_INFO axi4_lite_inp_monitor.sv(44) @ 535: uvm_test_top.env.aa.inp_mon [INPUT MONITOR]  WRITE awaddr=31c3f128 wdata=7b79d99a wstrb=0110 
UVM_INFO axi4_lite_out_monitor.sv(28) @ 555: uvm_test_top.env.pa.out_mon [OUTPUT MONITOR] BRESP = 3 RRESP = 0 RDATA = 00000000
UVM_INFO axi4_lite_driver.sv(34) @ 555: uvm_test_top.env.aa.drv [DRV] awaddr = 31c3f128 wdata = 7b79d99a wstrb = 6 araddr = 2db6e24c
UVM_INFO axi4_lite_scoreboard.sv(52) @ 555: uvm_test_top.env.scb [BRESP] Matched : exp_bresp= 3 actual_bresp=3 write = 1 read = 0
UVM_INFO axi4_lite_subscriber.sv(41) @ 575: uvm_test_top.env.sb [sb] INPUT COVERAGE = 45.83 %
UVM_INFO axi4_lite_inp_monitor.sv(44) @ 575: uvm_test_top.env.aa.inp_mon [INPUT MONITOR]  WRITE awaddr=e0292df8 wdata=3f4382e6 wstrb=0101 
UVM_INFO axi4_lite_out_monitor.sv(28) @ 595: uvm_test_top.env.pa.out_mon [OUTPUT MONITOR] BRESP = 3 RRESP = 0 RDATA = 00000000
UVM_INFO axi4_lite_driver.sv(34) @ 595: uvm_test_top.env.aa.drv [DRV] awaddr = e0292df8 wdata = 3f4382e6 wstrb = 5 araddr = 3a280238
UVM_INFO axi4_lite_scoreboard.sv(52) @ 595: uvm_test_top.env.scb [BRESP] Matched : exp_bresp= 3 actual_bresp=3 write = 1 read = 0
UVM_INFO axi4_lite_subscriber.sv(41) @ 625: uvm_test_top.env.sb [sb] INPUT COVERAGE = 45.83 %
UVM_INFO axi4_lite_inp_monitor.sv(44) @ 625: uvm_test_top.env.aa.inp_mon [INPUT MONITOR]  WRITE awaddr=ba0ebad4 wdata=c11f04e8 wstrb=0100 
UVM_INFO axi4_lite_out_monitor.sv(28) @ 645: uvm_test_top.env.pa.out_mon [OUTPUT MONITOR] BRESP = 3 RRESP = 0 RDATA = 00000000
UVM_INFO axi4_lite_driver.sv(34) @ 645: uvm_test_top.env.aa.drv [DRV] awaddr = ba0ebad4 wdata = c11f04e8 wstrb = 4 araddr = cb961ea8
UVM_INFO axi4_lite_scoreboard.sv(52) @ 645: uvm_test_top.env.scb [BRESP] Matched : exp_bresp= 3 actual_bresp=3 write = 1 read = 0
UVM_INFO axi4_lite_subscriber.sv(41) @ 675: uvm_test_top.env.sb [sb] INPUT COVERAGE = 45.83 %
UVM_INFO axi4_lite_inp_monitor.sv(44) @ 675: uvm_test_top.env.aa.inp_mon [INPUT MONITOR]  WRITE awaddr=5bb4d5a0 wdata=83c53d9d wstrb=1010 
UVM_INFO axi4_lite_out_monitor.sv(28) @ 695: uvm_test_top.env.pa.out_mon [OUTPUT MONITOR] BRESP = 3 RRESP = 0 RDATA = 00000000
UVM_INFO axi4_lite_driver.sv(34) @ 695: uvm_test_top.env.aa.drv [DRV] awaddr = 5bb4d5a0 wdata = 83c53d9d wstrb = a araddr = acfa9bbc
UVM_INFO axi4_lite_scoreboard.sv(52) @ 695: uvm_test_top.env.scb [BRESP] Matched : exp_bresp= 3 actual_bresp=3 write = 1 read = 0
UVM_INFO axi4_lite_subscriber.sv(41) @ 725: uvm_test_top.env.sb [sb] INPUT COVERAGE = 45.83 %
UVM_INFO axi4_lite_inp_monitor.sv(44) @ 725: uvm_test_top.env.aa.inp_mon [INPUT MONITOR]  WRITE awaddr=5b3161c0 wdata=527070c5 wstrb=1001 
UVM_INFO axi4_lite_out_monitor.sv(28) @ 745: uvm_test_top.env.pa.out_mon [OUTPUT MONITOR] BRESP = 3 RRESP = 0 RDATA = 00000000
UVM_INFO axi4_lite_driver.sv(34) @ 745: uvm_test_top.env.aa.drv [DRV] awaddr = 5b3161c0 wdata = 527070c5 wstrb = 9 araddr = 172070a4
UVM_INFO axi4_lite_scoreboard.sv(52) @ 745: uvm_test_top.env.scb [BRESP] Matched : exp_bresp= 3 actual_bresp=3 write = 1 read = 0
UVM_INFO axi4_lite_subscriber.sv(41) @ 795: uvm_test_top.env.sb [sb] INPUT COVERAGE = 45.83 %
UVM_INFO axi4_lite_inp_monitor.sv(44) @ 795: uvm_test_top.env.aa.inp_mon [INPUT MONITOR]  WRITE awaddr=afbc200c wdata=2acd73d7 wstrb=1000 
UVM_INFO axi4_lite_out_monitor.sv(28) @ 815: uvm_test_top.env.pa.out_mon [OUTPUT MONITOR] BRESP = 3 RRESP = 0 RDATA = 00000000
UVM_INFO axi4_lite_driver.sv(34) @ 815: uvm_test_top.env.aa.drv [DRV] awaddr = afbc200c wdata = 2acd73d7 wstrb = 8 araddr = 687e1478
UVM_INFO axi4_lite_scoreboard.sv(52) @ 815: uvm_test_top.env.scb [BRESP] Matched : exp_bresp= 3 actual_bresp=3 write = 1 read = 0
UVM_INFO axi4_lite_subscriber.sv(41) @ 865: uvm_test_top.env.sb [sb] INPUT COVERAGE = 45.83 %
UVM_INFO axi4_lite_inp_monitor.sv(44) @ 865: uvm_test_top.env.aa.inp_mon [INPUT MONITOR]  WRITE awaddr=c5f23f78 wdata=7da8d8bc wstrb=1001 
UVM_INFO axi4_lite_out_monitor.sv(28) @ 885: uvm_test_top.env.pa.out_mon [OUTPUT MONITOR] BRESP = 3 RRESP = 0 RDATA = 00000000
UVM_INFO axi4_lite_driver.sv(34) @ 885: uvm_test_top.env.aa.drv [DRV] awaddr = c5f23f78 wdata = 7da8d8bc wstrb = 9 araddr = 6972010c
UVM_INFO axi4_lite_scoreboard.sv(52) @ 885: uvm_test_top.env.scb [BRESP] Matched : exp_bresp= 3 actual_bresp=3 write = 1 read = 0
UVM_INFO axi4_lite_subscriber.sv(41) @ 925: uvm_test_top.env.sb [sb] INPUT COVERAGE = 45.83 %
UVM_INFO axi4_lite_inp_monitor.sv(44) @ 925: uvm_test_top.env.aa.inp_mon [INPUT MONITOR]  WRITE awaddr=094266cc wdata=0ba519c8 wstrb=1101 
UVM_INFO axi4_lite_out_monitor.sv(28) @ 945: uvm_test_top.env.pa.out_mon [OUTPUT MONITOR] BRESP = 3 RRESP = 0 RDATA = 00000000
UVM_INFO axi4_lite_driver.sv(34) @ 945: uvm_test_top.env.aa.drv [DRV] awaddr = 094266cc wdata = 0ba519c8 wstrb = d araddr = d5439ca0
UVM_INFO axi4_lite_scoreboard.sv(52) @ 945: uvm_test_top.env.scb [BRESP] Matched : exp_bresp= 3 actual_bresp=3 write = 1 read = 0
UVM_INFO axi4_lite_subscriber.sv(41) @ 985: uvm_test_top.env.sb [sb] INPUT COVERAGE = 45.83 %
UVM_INFO axi4_lite_inp_monitor.sv(44) @ 985: uvm_test_top.env.aa.inp_mon [INPUT MONITOR]  WRITE awaddr=da3fec0c wdata=b76d30a3 wstrb=0110 
UVM_INFO axi4_lite_out_monitor.sv(28) @ 1005: uvm_test_top.env.pa.out_mon [OUTPUT MONITOR] BRESP = 3 RRESP = 0 RDATA = 00000000
UVM_INFO axi4_lite_driver.sv(34) @ 1005: uvm_test_top.env.aa.drv [DRV] awaddr = da3fec0c wdata = b76d30a3 wstrb = 6 araddr = 864f0e40
UVM_INFO axi4_lite_scoreboard.sv(52) @ 1005: uvm_test_top.env.scb [BRESP] Matched : exp_bresp= 3 actual_bresp=3 write = 1 read = 0
UVM_INFO axi4_lite_subscriber.sv(41) @ 1055: uvm_test_top.env.sb [sb] INPUT COVERAGE = 45.83 %
UVM_INFO axi4_lite_inp_monitor.sv(44) @ 1055: uvm_test_top.env.aa.inp_mon [INPUT MONITOR]  WRITE awaddr=4b508824 wdata=5297dd91 wstrb=1001 
UVM_INFO axi4_lite_out_monitor.sv(28) @ 1075: uvm_test_top.env.pa.out_mon [OUTPUT MONITOR] BRESP = 3 RRESP = 0 RDATA = 00000000
UVM_INFO axi4_lite_driver.sv(34) @ 1075: uvm_test_top.env.aa.drv [DRV] awaddr = 4b508824 wdata = 5297dd91 wstrb = 9 araddr = 1c196d98
UVM_INFO axi4_lite_scoreboard.sv(52) @ 1075: uvm_test_top.env.scb [BRESP] Matched : exp_bresp= 3 actual_bresp=3 write = 1 read = 0
UVM_INFO axi4_lite_subscriber.sv(41) @ 1095: uvm_test_top.env.sb [sb] INPUT COVERAGE = 45.83 %
UVM_INFO axi4_lite_inp_monitor.sv(44) @ 1095: uvm_test_top.env.aa.inp_mon [INPUT MONITOR]  WRITE awaddr=129834f8 wdata=d51c83f0 wstrb=1111 
UVM_INFO axi4_lite_out_monitor.sv(28) @ 1115: uvm_test_top.env.pa.out_mon [OUTPUT MONITOR] BRESP = 3 RRESP = 0 RDATA = 00000000
UVM_INFO axi4_lite_driver.sv(34) @ 1115: uvm_test_top.env.aa.drv [DRV] awaddr = 129834f8 wdata = d51c83f0 wstrb = f araddr = edd5691c
UVM_INFO axi4_lite_scoreboard.sv(52) @ 1115: uvm_test_top.env.scb [BRESP] Matched : exp_bresp= 3 actual_bresp=3 write = 1 read = 0
UVM_INFO axi4_lite_subscriber.sv(41) @ 1155: uvm_test_top.env.sb [sb] INPUT COVERAGE = 45.83 %
UVM_INFO axi4_lite_inp_monitor.sv(44) @ 1155: uvm_test_top.env.aa.inp_mon [INPUT MONITOR]  WRITE awaddr=c03d23ac wdata=2b80d75e wstrb=1010 
UVM_INFO axi4_lite_out_monitor.sv(28) @ 1175: uvm_test_top.env.pa.out_mon [OUTPUT MONITOR] BRESP = 3 RRESP = 0 RDATA = 00000000
UVM_INFO axi4_lite_driver.sv(34) @ 1175: uvm_test_top.env.aa.drv [DRV] awaddr = c03d23ac wdata = 2b80d75e wstrb = a araddr = 53ae0784
UVM_INFO axi4_lite_scoreboard.sv(52) @ 1175: uvm_test_top.env.scb [BRESP] Matched : exp_bresp= 3 actual_bresp=3 write = 1 read = 0
UVM_INFO axi4_lite_subscriber.sv(41) @ 1205: uvm_test_top.env.sb [sb] INPUT COVERAGE = 45.83 %
UVM_INFO axi4_lite_inp_monitor.sv(44) @ 1205: uvm_test_top.env.aa.inp_mon [INPUT MONITOR]  WRITE awaddr=031b8154 wdata=7afa6f5b wstrb=0110 
UVM_INFO axi4_lite_out_monitor.sv(28) @ 1225: uvm_test_top.env.pa.out_mon [OUTPUT MONITOR] BRESP = 3 RRESP = 0 RDATA = 00000000
UVM_INFO axi4_lite_driver.sv(34) @ 1225: uvm_test_top.env.aa.drv [DRV] awaddr = 031b8154 wdata = 7afa6f5b wstrb = 6 araddr = ffca2610
UVM_INFO axi4_lite_scoreboard.sv(52) @ 1225: uvm_test_top.env.scb [BRESP] Matched : exp_bresp= 3 actual_bresp=3 write = 1 read = 0
UVM_INFO axi4_lite_subscriber.sv(41) @ 1255: uvm_test_top.env.sb [sb] INPUT COVERAGE = 45.83 %
UVM_INFO axi4_lite_inp_monitor.sv(44) @ 1255: uvm_test_top.env.aa.inp_mon [INPUT MONITOR]  WRITE awaddr=5218c53c wdata=ecb54f12 wstrb=0111 
UVM_INFO axi4_lite_out_monitor.sv(28) @ 1275: uvm_test_top.env.pa.out_mon [OUTPUT MONITOR] BRESP = 3 RRESP = 0 RDATA = 00000000
UVM_INFO axi4_lite_driver.sv(34) @ 1275: uvm_test_top.env.aa.drv [DRV] awaddr = 5218c53c wdata = ecb54f12 wstrb = 7 araddr = 7d6c1428
UVM_INFO axi4_lite_scoreboard.sv(52) @ 1275: uvm_test_top.env.scb [BRESP] Matched : exp_bresp= 3 actual_bresp=3 write = 1 read = 0
UVM_INFO axi4_lite_subscriber.sv(41) @ 1315: uvm_test_top.env.sb [sb] INPUT COVERAGE = 45.83 %
UVM_INFO axi4_lite_inp_monitor.sv(44) @ 1315: uvm_test_top.env.aa.inp_mon [INPUT MONITOR]  WRITE awaddr=a11a6380 wdata=a79a0032 wstrb=0101 
UVM_INFO axi4_lite_out_monitor.sv(28) @ 1335: uvm_test_top.env.pa.out_mon [OUTPUT MONITOR] BRESP = 3 RRESP = 0 RDATA = 00000000
UVM_INFO axi4_lite_driver.sv(34) @ 1335: uvm_test_top.env.aa.drv [DRV] awaddr = a11a6380 wdata = a79a0032 wstrb = 5 araddr = 10275ea4
UVM_INFO axi4_lite_scoreboard.sv(52) @ 1335: uvm_test_top.env.scb [BRESP] Matched : exp_bresp= 3 actual_bresp=3 write = 1 read = 0
UVM_INFO axi4_lite_subscriber.sv(41) @ 1365: uvm_test_top.env.sb [sb] INPUT COVERAGE = 45.83 %
UVM_INFO axi4_lite_inp_monitor.sv(44) @ 1365: uvm_test_top.env.aa.inp_mon [INPUT MONITOR]  WRITE awaddr=e4c3c194 wdata=5b9decec wstrb=1001 
UVM_INFO axi4_lite_out_monitor.sv(28) @ 1385: uvm_test_top.env.pa.out_mon [OUTPUT MONITOR] BRESP = 3 RRESP = 0 RDATA = 00000000
UVM_INFO axi4_lite_driver.sv(34) @ 1385: uvm_test_top.env.aa.drv [DRV] awaddr = e4c3c194 wdata = 5b9decec wstrb = 9 araddr = f159c040
UVM_INFO axi4_lite_scoreboard.sv(52) @ 1385: uvm_test_top.env.scb [BRESP] Matched : exp_bresp= 3 actual_bresp=3 write = 1 read = 0
UVM_INFO axi4_lite_subscriber.sv(41) @ 1425: uvm_test_top.env.sb [sb] INPUT COVERAGE = 48.96 %
UVM_INFO axi4_lite_inp_monitor.sv(44) @ 1425: uvm_test_top.env.aa.inp_mon [INPUT MONITOR]  WRITE awaddr=ff8714f0 wdata=5c570b90 wstrb=0000 
UVM_INFO axi4_lite_out_monitor.sv(28) @ 1445: uvm_test_top.env.pa.out_mon [OUTPUT MONITOR] BRESP = 3 RRESP = 0 RDATA = 00000000
UVM_INFO axi4_lite_driver.sv(34) @ 1445: uvm_test_top.env.aa.drv [DRV] awaddr = ff8714f0 wdata = 5c570b90 wstrb = 0 araddr = 258d4384
UVM_INFO axi4_lite_scoreboard.sv(52) @ 1445: uvm_test_top.env.scb [BRESP] Matched : exp_bresp= 3 actual_bresp=3 write = 1 read = 0
UVM_INFO axi4_lite_subscriber.sv(41) @ 1495: uvm_test_top.env.sb [sb] INPUT COVERAGE = 48.96 %
UVM_INFO axi4_lite_inp_monitor.sv(44) @ 1495: uvm_test_top.env.aa.inp_mon [INPUT MONITOR]  WRITE awaddr=8009c3c4 wdata=62f89722 wstrb=1111 
UVM_INFO axi4_lite_out_monitor.sv(28) @ 1515: uvm_test_top.env.pa.out_mon [OUTPUT MONITOR] BRESP = 3 RRESP = 0 RDATA = 00000000
UVM_INFO axi4_lite_driver.sv(34) @ 1515: uvm_test_top.env.aa.drv [DRV] awaddr = 8009c3c4 wdata = 62f89722 wstrb = f araddr = acd52b08
UVM_INFO axi4_lite_scoreboard.sv(52) @ 1515: uvm_test_top.env.scb [BRESP] Matched : exp_bresp= 3 actual_bresp=3 write = 1 read = 0
UVM_INFO axi4_lite_subscriber.sv(41) @ 1545: uvm_test_top.env.sb [sb] INPUT COVERAGE = 48.96 %
UVM_INFO axi4_lite_inp_monitor.sv(44) @ 1545: uvm_test_top.env.aa.inp_mon [INPUT MONITOR]  WRITE awaddr=263561c8 wdata=28749d1e wstrb=1000 
UVM_INFO axi4_lite_out_monitor.sv(28) @ 1565: uvm_test_top.env.pa.out_mon [OUTPUT MONITOR] BRESP = 3 RRESP = 0 RDATA = 00000000
UVM_INFO axi4_lite_driver.sv(34) @ 1565: uvm_test_top.env.aa.drv [DRV] awaddr = 263561c8 wdata = 28749d1e wstrb = 8 araddr = 4ee239a4
UVM_INFO axi4_lite_scoreboard.sv(52) @ 1565: uvm_test_top.env.scb [BRESP] Matched : exp_bresp= 3 actual_bresp=3 write = 1 read = 0
UVM_INFO axi4_lite_subscriber.sv(41) @ 1615: uvm_test_top.env.sb [sb] INPUT COVERAGE = 48.96 %
UVM_INFO axi4_lite_inp_monitor.sv(44) @ 1615: uvm_test_top.env.aa.inp_mon [INPUT MONITOR]  WRITE awaddr=b8f8f0ac wdata=0f13c821 wstrb=0111 
UVM_INFO axi4_lite_out_monitor.sv(28) @ 1635: uvm_test_top.env.pa.out_mon [OUTPUT MONITOR] BRESP = 3 RRESP = 0 RDATA = 00000000
UVM_INFO axi4_lite_driver.sv(34) @ 1635: uvm_test_top.env.aa.drv [DRV] awaddr = b8f8f0ac wdata = 0f13c821 wstrb = 7 araddr = 0b22260c
UVM_INFO axi4_lite_scoreboard.sv(52) @ 1635: uvm_test_top.env.scb [BRESP] Matched : exp_bresp= 3 actual_bresp=3 write = 1 read = 0
UVM_INFO axi4_lite_subscriber.sv(41) @ 1665: uvm_test_top.env.sb [sb] INPUT COVERAGE = 48.96 %
UVM_INFO axi4_lite_inp_monitor.sv(44) @ 1665: uvm_test_top.env.aa.inp_mon [INPUT MONITOR]  WRITE awaddr=c5b134fc wdata=f0b4a20f wstrb=1010 
UVM_INFO axi4_lite_out_monitor.sv(28) @ 1685: uvm_test_top.env.pa.out_mon [OUTPUT MONITOR] BRESP = 3 RRESP = 0 RDATA = 00000000
UVM_INFO axi4_lite_driver.sv(34) @ 1685: uvm_test_top.env.aa.drv [DRV] awaddr = c5b134fc wdata = f0b4a20f wstrb = a araddr = b8047fb8
UVM_INFO axi4_lite_scoreboard.sv(52) @ 1685: uvm_test_top.env.scb [BRESP] Matched : exp_bresp= 3 actual_bresp=3 write = 1 read = 0
UVM_INFO axi4_lite_subscriber.sv(41) @ 1735: uvm_test_top.env.sb [sb] INPUT COVERAGE = 48.96 %
UVM_INFO axi4_lite_inp_monitor.sv(44) @ 1735: uvm_test_top.env.aa.inp_mon [INPUT MONITOR]  WRITE awaddr=5afca524 wdata=3fe530c7 wstrb=1111 
UVM_INFO axi4_lite_out_monitor.sv(28) @ 1755: uvm_test_top.env.pa.out_mon [OUTPUT MONITOR] BRESP = 3 RRESP = 0 RDATA = 00000000
UVM_INFO axi4_lite_driver.sv(34) @ 1755: uvm_test_top.env.aa.drv [DRV] awaddr = 5afca524 wdata = 3fe530c7 wstrb = f araddr = 709e092c
UVM_INFO axi4_lite_scoreboard.sv(52) @ 1755: uvm_test_top.env.scb [BRESP] Matched : exp_bresp= 3 actual_bresp=3 write = 1 read = 0
UVM_INFO axi4_lite_subscriber.sv(41) @ 1795: uvm_test_top.env.sb [sb] INPUT COVERAGE = 52.08 %
UVM_INFO axi4_lite_inp_monitor.sv(44) @ 1795: uvm_test_top.env.aa.inp_mon [INPUT MONITOR]  WRITE awaddr=6fc05510 wdata=8fee8fbe wstrb=0010 
UVM_INFO axi4_lite_out_monitor.sv(28) @ 1815: uvm_test_top.env.pa.out_mon [OUTPUT MONITOR] BRESP = 3 RRESP = 0 RDATA = 00000000
UVM_INFO axi4_lite_driver.sv(34) @ 1815: uvm_test_top.env.aa.drv [DRV] awaddr = 6fc05510 wdata = 8fee8fbe wstrb = 2 araddr = 7920eb14
UVM_INFO axi4_lite_scoreboard.sv(52) @ 1815: uvm_test_top.env.scb [BRESP] Matched : exp_bresp= 3 actual_bresp=3 write = 1 read = 0
UVM_INFO axi4_lite_subscriber.sv(41) @ 1855: uvm_test_top.env.sb [sb] INPUT COVERAGE = 52.08 %
UVM_INFO axi4_lite_inp_monitor.sv(44) @ 1855: uvm_test_top.env.aa.inp_mon [INPUT MONITOR]  WRITE awaddr=3e243c90 wdata=3afbdc6d wstrb=0000 
UVM_INFO axi4_lite_out_monitor.sv(28) @ 1875: uvm_test_top.env.pa.out_mon [OUTPUT MONITOR] BRESP = 3 RRESP = 0 RDATA = 00000000
UVM_INFO axi4_lite_driver.sv(34) @ 1875: uvm_test_top.env.aa.drv [DRV] awaddr = 3e243c90 wdata = 3afbdc6d wstrb = 0 araddr = 02707950
UVM_INFO axi4_lite_scoreboard.sv(52) @ 1875: uvm_test_top.env.scb [BRESP] Matched : exp_bresp= 3 actual_bresp=3 write = 1 read = 0
UVM_INFO axi4_lite_subscriber.sv(41) @ 1925: uvm_test_top.env.sb [sb] INPUT COVERAGE = 52.08 %
UVM_INFO axi4_lite_inp_monitor.sv(44) @ 1925: uvm_test_top.env.aa.inp_mon [INPUT MONITOR]  WRITE awaddr=9d8c1b64 wdata=898d5f7c wstrb=0101 
UVM_INFO axi4_lite_out_monitor.sv(28) @ 1945: uvm_test_top.env.pa.out_mon [OUTPUT MONITOR] BRESP = 3 RRESP = 0 RDATA = 00000000
UVM_INFO axi4_lite_driver.sv(34) @ 1945: uvm_test_top.env.aa.drv [DRV] awaddr = 9d8c1b64 wdata = 898d5f7c wstrb = 5 araddr = 636ff230
UVM_INFO axi4_lite_scoreboard.sv(52) @ 1945: uvm_test_top.env.scb [BRESP] Matched : exp_bresp= 3 actual_bresp=3 write = 1 read = 0
UVM_INFO axi4_lite_subscriber.sv(41) @ 1985: uvm_test_top.env.sb [sb] INPUT COVERAGE = 52.08 %
UVM_INFO axi4_lite_inp_monitor.sv(44) @ 1985: uvm_test_top.env.aa.inp_mon [INPUT MONITOR]  WRITE awaddr=9327b668 wdata=b3725013 wstrb=1001 
UVM_INFO axi4_lite_out_monitor.sv(28) @ 2005: uvm_test_top.env.pa.out_mon [OUTPUT MONITOR] BRESP = 3 RRESP = 0 RDATA = 00000000
UVM_INFO axi4_lite_driver.sv(34) @ 2005: uvm_test_top.env.aa.drv [DRV] awaddr = 9327b668 wdata = b3725013 wstrb = 9 araddr = 003c0f44
UVM_INFO axi4_lite_scoreboard.sv(52) @ 2005: uvm_test_top.env.scb [BRESP] Matched : exp_bresp= 3 actual_bresp=3 write = 1 read = 0
UVM_INFO axi4_lite_subscriber.sv(41) @ 2035: uvm_test_top.env.sb [sb] INPUT COVERAGE = 52.08 %
UVM_INFO axi4_lite_inp_monitor.sv(44) @ 2035: uvm_test_top.env.aa.inp_mon [INPUT MONITOR]  WRITE awaddr=74230104 wdata=a49aa96a wstrb=1111 
UVM_INFO axi4_lite_out_monitor.sv(28) @ 2055: uvm_test_top.env.pa.out_mon [OUTPUT MONITOR] BRESP = 3 RRESP = 0 RDATA = 00000000
UVM_INFO axi4_lite_driver.sv(34) @ 2055: uvm_test_top.env.aa.drv [DRV] awaddr = 74230104 wdata = a49aa96a wstrb = f araddr = 3ebc7d70
UVM_INFO axi4_lite_scoreboard.sv(52) @ 2055: uvm_test_top.env.scb [BRESP] Matched : exp_bresp= 3 actual_bresp=3 write = 1 read = 0
UVM_INFO axi4_lite_subscriber.sv(41) @ 2075: uvm_test_top.env.sb [sb] INPUT COVERAGE = 52.08 %
UVM_INFO axi4_lite_inp_monitor.sv(44) @ 2075: uvm_test_top.env.aa.inp_mon [INPUT MONITOR]  WRITE awaddr=4ac92cec wdata=5670f998 wstrb=0101 
UVM_INFO axi4_lite_out_monitor.sv(28) @ 2095: uvm_test_top.env.pa.out_mon [OUTPUT MONITOR] BRESP = 3 RRESP = 0 RDATA = 00000000
UVM_INFO axi4_lite_driver.sv(34) @ 2095: uvm_test_top.env.aa.drv [DRV] awaddr = 4ac92cec wdata = 5670f998 wstrb = 5 araddr = 01ec592c
UVM_INFO axi4_lite_scoreboard.sv(52) @ 2095: uvm_test_top.env.scb [BRESP] Matched : exp_bresp= 3 actual_bresp=3 write = 1 read = 0
UVM_INFO axi4_lite_subscriber.sv(41) @ 2125: uvm_test_top.env.sb [sb] INPUT COVERAGE = 52.08 %
UVM_INFO axi4_lite_inp_monitor.sv(44) @ 2125: uvm_test_top.env.aa.inp_mon [INPUT MONITOR]  WRITE awaddr=adb35730 wdata=a59bf311 wstrb=1000 
UVM_INFO axi4_lite_out_monitor.sv(28) @ 2145: uvm_test_top.env.pa.out_mon [OUTPUT MONITOR] BRESP = 3 RRESP = 0 RDATA = 00000000
UVM_INFO axi4_lite_driver.sv(34) @ 2145: uvm_test_top.env.aa.drv [DRV] awaddr = adb35730 wdata = a59bf311 wstrb = 8 araddr = cc31dc78
UVM_INFO axi4_lite_scoreboard.sv(52) @ 2145: uvm_test_top.env.scb [BRESP] Matched : exp_bresp= 3 actual_bresp=3 write = 1 read = 0
UVM_INFO axi4_lite_subscriber.sv(41) @ 2175: uvm_test_top.env.sb [sb] INPUT COVERAGE = 52.08 %
UVM_INFO axi4_lite_inp_monitor.sv(44) @ 2175: uvm_test_top.env.aa.inp_mon [INPUT MONITOR]  WRITE awaddr=c6279f3c wdata=b85ba22a wstrb=0010 
UVM_INFO axi4_lite_out_monitor.sv(28) @ 2195: uvm_test_top.env.pa.out_mon [OUTPUT MONITOR] BRESP = 3 RRESP = 0 RDATA = 00000000
UVM_INFO axi4_lite_driver.sv(34) @ 2195: uvm_test_top.env.aa.drv [DRV] awaddr = c6279f3c wdata = b85ba22a wstrb = 2 araddr = 7ed1928c
UVM_INFO axi4_lite_scoreboard.sv(52) @ 2195: uvm_test_top.env.scb [BRESP] Matched : exp_bresp= 3 actual_bresp=3 write = 1 read = 0
UVM_INFO axi4_lite_subscriber.sv(41) @ 2245: uvm_test_top.env.sb [sb] INPUT COVERAGE = 52.08 %
UVM_INFO axi4_lite_inp_monitor.sv(44) @ 2245: uvm_test_top.env.aa.inp_mon [INPUT MONITOR]  WRITE awaddr=b434b60c wdata=ecf28ce4 wstrb=1110 
UVM_INFO axi4_lite_out_monitor.sv(28) @ 2265: uvm_test_top.env.pa.out_mon [OUTPUT MONITOR] BRESP = 3 RRESP = 0 RDATA = 00000000
UVM_INFO axi4_lite_driver.sv(34) @ 2265: uvm_test_top.env.aa.drv [DRV] awaddr = b434b60c wdata = ecf28ce4 wstrb = e araddr = 4e950a94
UVM_INFO axi4_lite_scoreboard.sv(52) @ 2265: uvm_test_top.env.scb [BRESP] Matched : exp_bresp= 3 actual_bresp=3 write = 1 read = 0
UVM_INFO axi4_lite_subscriber.sv(41) @ 2305: uvm_test_top.env.sb [sb] INPUT COVERAGE = 52.08 %
UVM_INFO axi4_lite_inp_monitor.sv(44) @ 2305: uvm_test_top.env.aa.inp_mon [INPUT MONITOR]  WRITE awaddr=a0d0b134 wdata=3ff562fb wstrb=1110 
UVM_INFO axi4_lite_out_monitor.sv(28) @ 2325: uvm_test_top.env.pa.out_mon [OUTPUT MONITOR] BRESP = 3 RRESP = 0 RDATA = 00000000
UVM_INFO axi4_lite_driver.sv(34) @ 2325: uvm_test_top.env.aa.drv [DRV] awaddr = a0d0b134 wdata = 3ff562fb wstrb = e araddr = 10b5a960
UVM_INFO axi4_lite_scoreboard.sv(52) @ 2325: uvm_test_top.env.scb [BRESP] Matched : exp_bresp= 3 actual_bresp=3 write = 1 read = 0
UVM_INFO axi4_lite_subscriber.sv(41) @ 2345: uvm_test_top.env.sb [sb] INPUT COVERAGE = 52.08 %
UVM_INFO axi4_lite_inp_monitor.sv(44) @ 2345: uvm_test_top.env.aa.inp_mon [INPUT MONITOR]  WRITE awaddr=e56d3c54 wdata=2c7dfea8 wstrb=1110 
UVM_INFO axi4_lite_out_monitor.sv(28) @ 2365: uvm_test_top.env.pa.out_mon [OUTPUT MONITOR] BRESP = 3 RRESP = 0 RDATA = 00000000
UVM_INFO axi4_lite_driver.sv(34) @ 2365: uvm_test_top.env.aa.drv [DRV] awaddr = e56d3c54 wdata = 2c7dfea8 wstrb = e araddr = f10d3d7c
UVM_INFO axi4_lite_scoreboard.sv(52) @ 2365: uvm_test_top.env.scb [BRESP] Matched : exp_bresp= 3 actual_bresp=3 write = 1 read = 0
UVM_INFO axi4_lite_subscriber.sv(41) @ 2415: uvm_test_top.env.sb [sb] INPUT COVERAGE = 55.21 %
UVM_INFO axi4_lite_inp_monitor.sv(44) @ 2415: uvm_test_top.env.aa.inp_mon [INPUT MONITOR]  WRITE awaddr=2ed8ed28 wdata=95adf1bd wstrb=1100 
UVM_INFO axi4_lite_out_monitor.sv(28) @ 2435: uvm_test_top.env.pa.out_mon [OUTPUT MONITOR] BRESP = 3 RRESP = 0 RDATA = 00000000
UVM_INFO axi4_lite_driver.sv(34) @ 2435: uvm_test_top.env.aa.drv [DRV] awaddr = 2ed8ed28 wdata = 95adf1bd wstrb = c araddr = bd546a78
UVM_INFO axi4_lite_scoreboard.sv(52) @ 2435: uvm_test_top.env.scb [BRESP] Matched : exp_bresp= 3 actual_bresp=3 write = 1 read = 0
UVM_INFO axi4_lite_subscriber.sv(41) @ 2485: uvm_test_top.env.sb [sb] INPUT COVERAGE = 55.21 %
UVM_INFO axi4_lite_inp_monitor.sv(44) @ 2485: uvm_test_top.env.aa.inp_mon [INPUT MONITOR]  WRITE awaddr=db0a193c wdata=432496fc wstrb=1000 
UVM_INFO axi4_lite_out_monitor.sv(28) @ 2505: uvm_test_top.env.pa.out_mon [OUTPUT MONITOR] BRESP = 3 RRESP = 0 RDATA = 00000000
UVM_INFO axi4_lite_driver.sv(34) @ 2505: uvm_test_top.env.aa.drv [DRV] awaddr = db0a193c wdata = 432496fc wstrb = 8 araddr = 7fcfe4bc
UVM_INFO axi4_lite_scoreboard.sv(52) @ 2505: uvm_test_top.env.scb [BRESP] Matched : exp_bresp= 3 actual_bresp=3 write = 1 read = 0
UVM_INFO axi4_lite_subscriber.sv(41) @ 2525: uvm_test_top.env.sb [sb] INPUT COVERAGE = 55.21 %
UVM_INFO axi4_lite_inp_monitor.sv(44) @ 2525: uvm_test_top.env.aa.inp_mon [INPUT MONITOR]  WRITE awaddr=34abd6f8 wdata=e8d7e109 wstrb=0101 
UVM_INFO axi4_lite_out_monitor.sv(28) @ 2545: uvm_test_top.env.pa.out_mon [OUTPUT MONITOR] BRESP = 3 RRESP = 0 RDATA = 00000000
UVM_INFO axi4_lite_driver.sv(34) @ 2545: uvm_test_top.env.aa.drv [DRV] awaddr = 34abd6f8 wdata = e8d7e109 wstrb = 5 araddr = 39a9bd94
UVM_INFO axi4_lite_scoreboard.sv(52) @ 2545: uvm_test_top.env.scb [BRESP] Matched : exp_bresp= 3 actual_bresp=3 write = 1 read = 0
UVM_INFO axi4_lite_subscriber.sv(41) @ 2575: uvm_test_top.env.sb [sb] INPUT COVERAGE = 55.21 %
UVM_INFO axi4_lite_inp_monitor.sv(44) @ 2575: uvm_test_top.env.aa.inp_mon [INPUT MONITOR]  WRITE awaddr=c0d7221c wdata=dfacb57e wstrb=1111 
UVM_INFO axi4_lite_out_monitor.sv(28) @ 2595: uvm_test_top.env.pa.out_mon [OUTPUT MONITOR] BRESP = 3 RRESP = 0 RDATA = 00000000
UVM_INFO axi4_lite_driver.sv(34) @ 2595: uvm_test_top.env.aa.drv [DRV] awaddr = c0d7221c wdata = dfacb57e wstrb = f araddr = c7175504
UVM_INFO axi4_lite_scoreboard.sv(52) @ 2595: uvm_test_top.env.scb [BRESP] Matched : exp_bresp= 3 actual_bresp=3 write = 1 read = 0
UVM_INFO axi4_lite_subscriber.sv(41) @ 2625: uvm_test_top.env.sb [sb] INPUT COVERAGE = 55.21 %
UVM_INFO axi4_lite_inp_monitor.sv(44) @ 2625: uvm_test_top.env.aa.inp_mon [INPUT MONITOR]  WRITE awaddr=d19876a4 wdata=80c515bb wstrb=1101 
UVM_INFO axi4_lite_out_monitor.sv(28) @ 2645: uvm_test_top.env.pa.out_mon [OUTPUT MONITOR] BRESP = 3 RRESP = 0 RDATA = 00000000
UVM_INFO axi4_lite_driver.sv(34) @ 2645: uvm_test_top.env.aa.drv [DRV] awaddr = d19876a4 wdata = 80c515bb wstrb = d araddr = 6af62a68
UVM_INFO axi4_lite_scoreboard.sv(52) @ 2645: uvm_test_top.env.scb [BRESP] Matched : exp_bresp= 3 actual_bresp=3 write = 1 read = 0
UVM_INFO axi4_lite_subscriber.sv(41) @ 2665: uvm_test_top.env.sb [sb] INPUT COVERAGE = 55.21 %
UVM_INFO axi4_lite_inp_monitor.sv(44) @ 2665: uvm_test_top.env.aa.inp_mon [INPUT MONITOR]  WRITE awaddr=fc01a6b8 wdata=34e25391 wstrb=1111 
UVM_INFO axi4_lite_out_monitor.sv(28) @ 2685: uvm_test_top.env.pa.out_mon [OUTPUT MONITOR] BRESP = 3 RRESP = 0 RDATA = 00000000
UVM_INFO axi4_lite_driver.sv(34) @ 2685: uvm_test_top.env.aa.drv [DRV] awaddr = fc01a6b8 wdata = 34e25391 wstrb = f araddr = 6230c2e0
UVM_INFO axi4_lite_scoreboard.sv(52) @ 2685: uvm_test_top.env.scb [BRESP] Matched : exp_bresp= 3 actual_bresp=3 write = 1 read = 0
UVM_INFO axi4_lite_subscriber.sv(41) @ 2735: uvm_test_top.env.sb [sb] INPUT COVERAGE = 55.21 %
UVM_INFO axi4_lite_inp_monitor.sv(44) @ 2735: uvm_test_top.env.aa.inp_mon [INPUT MONITOR]  WRITE awaddr=2b3cb7b8 wdata=3369e910 wstrb=1101 
UVM_INFO axi4_lite_out_monitor.sv(28) @ 2755: uvm_test_top.env.pa.out_mon [OUTPUT MONITOR] BRESP = 3 RRESP = 0 RDATA = 00000000
UVM_INFO axi4_lite_driver.sv(34) @ 2755: uvm_test_top.env.aa.drv [DRV] awaddr = 2b3cb7b8 wdata = 3369e910 wstrb = d araddr = 3e3200ac
UVM_INFO axi4_lite_scoreboard.sv(52) @ 2755: uvm_test_top.env.scb [BRESP] Matched : exp_bresp= 3 actual_bresp=3 write = 1 read = 0
UVM_INFO axi4_lite_subscriber.sv(41) @ 2795: uvm_test_top.env.sb [sb] INPUT COVERAGE = 55.21 %
UVM_INFO axi4_lite_inp_monitor.sv(44) @ 2795: uvm_test_top.env.aa.inp_mon [INPUT MONITOR]  WRITE awaddr=e2cd7360 wdata=d131a9e8 wstrb=1011 
UVM_INFO axi4_lite_out_monitor.sv(28) @ 2815: uvm_test_top.env.pa.out_mon [OUTPUT MONITOR] BRESP = 3 RRESP = 0 RDATA = 00000000
UVM_INFO axi4_lite_driver.sv(34) @ 2815: uvm_test_top.env.aa.drv [DRV] awaddr = e2cd7360 wdata = d131a9e8 wstrb = b araddr = 7fd0da74
UVM_INFO axi4_lite_scoreboard.sv(52) @ 2815: uvm_test_top.env.scb [BRESP] Matched : exp_bresp= 3 actual_bresp=3 write = 1 read = 0
UVM_INFO axi4_lite_subscriber.sv(41) @ 2845: uvm_test_top.env.sb [sb] INPUT COVERAGE = 55.21 %
UVM_INFO axi4_lite_inp_monitor.sv(44) @ 2845: uvm_test_top.env.aa.inp_mon [INPUT MONITOR]  WRITE awaddr=2afd6074 wdata=74c98696 wstrb=1111 
UVM_INFO axi4_lite_out_monitor.sv(28) @ 2865: uvm_test_top.env.pa.out_mon [OUTPUT MONITOR] BRESP = 3 RRESP = 0 RDATA = 00000000
UVM_INFO axi4_lite_driver.sv(34) @ 2865: uvm_test_top.env.aa.drv [DRV] awaddr = 2afd6074 wdata = 74c98696 wstrb = f araddr = bd6d0cdc
UVM_INFO axi4_lite_scoreboard.sv(52) @ 2865: uvm_test_top.env.scb [BRESP] Matched : exp_bresp= 3 actual_bresp=3 write = 1 read = 0
UVM_INFO axi4_lite_subscriber.sv(41) @ 2905: uvm_test_top.env.sb [sb] INPUT COVERAGE = 55.21 %
UVM_INFO axi4_lite_inp_monitor.sv(44) @ 2905: uvm_test_top.env.aa.inp_mon [INPUT MONITOR]  WRITE awaddr=fe38ecac wdata=4f851013 wstrb=1111 
UVM_INFO axi4_lite_out_monitor.sv(28) @ 2925: uvm_test_top.env.pa.out_mon [OUTPUT MONITOR] BRESP = 3 RRESP = 0 RDATA = 00000000
UVM_INFO axi4_lite_driver.sv(34) @ 2925: uvm_test_top.env.aa.drv [DRV] awaddr = fe38ecac wdata = 4f851013 wstrb = f araddr = 8bb91c3c
UVM_INFO axi4_lite_scoreboard.sv(52) @ 2925: uvm_test_top.env.scb [BRESP] Matched : exp_bresp= 3 actual_bresp=3 write = 1 read = 0
UVM_INFO axi4_lite_subscriber.sv(41) @ 2965: uvm_test_top.env.sb [sb] INPUT COVERAGE = 58.33 %
UVM_INFO axi4_lite_inp_monitor.sv(44) @ 2965: uvm_test_top.env.aa.inp_mon [INPUT MONITOR]  WRITE awaddr=57890bc4 wdata=79914acb wstrb=0001 
UVM_INFO axi4_lite_out_monitor.sv(28) @ 2985: uvm_test_top.env.pa.out_mon [OUTPUT MONITOR] BRESP = 3 RRESP = 0 RDATA = 00000000
UVM_INFO axi4_lite_driver.sv(34) @ 2985: uvm_test_top.env.aa.drv [DRV] awaddr = 57890bc4 wdata = 79914acb wstrb = 1 araddr = d156f870
UVM_INFO axi4_lite_scoreboard.sv(52) @ 2985: uvm_test_top.env.scb [BRESP] Matched : exp_bresp= 3 actual_bresp=3 write = 1 read = 0
UVM_INFO axi4_lite_subscriber.sv(41) @ 3005: uvm_test_top.env.sb [sb] INPUT COVERAGE = 58.33 %
UVM_INFO axi4_lite_inp_monitor.sv(44) @ 3005: uvm_test_top.env.aa.inp_mon [INPUT MONITOR]  WRITE awaddr=71100c58 wdata=02590f72 wstrb=1110 
UVM_INFO axi4_lite_out_monitor.sv(28) @ 3025: uvm_test_top.env.pa.out_mon [OUTPUT MONITOR] BRESP = 3 RRESP = 0 RDATA = 00000000
UVM_INFO axi4_lite_driver.sv(34) @ 3025: uvm_test_top.env.aa.drv [DRV] awaddr = 71100c58 wdata = 02590f72 wstrb = e araddr = 59b8a6d0
UVM_INFO axi4_lite_scoreboard.sv(52) @ 3025: uvm_test_top.env.scb [BRESP] Matched : exp_bresp= 3 actual_bresp=3 write = 1 read = 0
UVM_INFO axi4_lite_subscriber.sv(41) @ 3055: uvm_test_top.env.sb [sb] INPUT COVERAGE = 58.33 %
UVM_INFO axi4_lite_inp_monitor.sv(44) @ 3055: uvm_test_top.env.aa.inp_mon [INPUT MONITOR]  WRITE awaddr=504a7070 wdata=b2434857 wstrb=0111 
UVM_INFO axi4_lite_out_monitor.sv(28) @ 3075: uvm_test_top.env.pa.out_mon [OUTPUT MONITOR] BRESP = 3 RRESP = 0 RDATA = 00000000
UVM_INFO axi4_lite_driver.sv(34) @ 3075: uvm_test_top.env.aa.drv [DRV] awaddr = 504a7070 wdata = b2434857 wstrb = 7 araddr = ef3008c0
UVM_INFO axi4_lite_scoreboard.sv(52) @ 3075: uvm_test_top.env.scb [BRESP] Matched : exp_bresp= 3 actual_bresp=3 write = 1 read = 0
UVM_INFO axi4_lite_subscriber.sv(41) @ 3115: uvm_test_top.env.sb [sb] INPUT COVERAGE = 58.33 %
UVM_INFO axi4_lite_inp_monitor.sv(44) @ 3115: uvm_test_top.env.aa.inp_mon [INPUT MONITOR]  WRITE awaddr=2b5207ac wdata=f91e6a1c wstrb=0111 
UVM_INFO axi4_lite_out_monitor.sv(28) @ 3135: uvm_test_top.env.pa.out_mon [OUTPUT MONITOR] BRESP = 3 RRESP = 0 RDATA = 00000000
UVM_INFO axi4_lite_driver.sv(34) @ 3135: uvm_test_top.env.aa.drv [DRV] awaddr = 2b5207ac wdata = f91e6a1c wstrb = 7 araddr = b1ccd824
UVM_INFO axi4_lite_scoreboard.sv(52) @ 3135: uvm_test_top.env.scb [BRESP] Matched : exp_bresp= 3 actual_bresp=3 write = 1 read = 0
UVM_INFO axi4_lite_subscriber.sv(41) @ 3185: uvm_test_top.env.sb [sb] INPUT COVERAGE = 58.33 %
UVM_INFO axi4_lite_inp_monitor.sv(44) @ 3185: uvm_test_top.env.aa.inp_mon [INPUT MONITOR]  WRITE awaddr=33809760 wdata=0dbc0f11 wstrb=1101 
UVM_INFO axi4_lite_out_monitor.sv(28) @ 3205: uvm_test_top.env.pa.out_mon [OUTPUT MONITOR] BRESP = 3 RRESP = 0 RDATA = 00000000
UVM_INFO axi4_lite_driver.sv(34) @ 3205: uvm_test_top.env.aa.drv [DRV] awaddr = 33809760 wdata = 0dbc0f11 wstrb = d araddr = 4f4374f4
UVM_INFO axi4_lite_scoreboard.sv(52) @ 3205: uvm_test_top.env.scb [BRESP] Matched : exp_bresp= 3 actual_bresp=3 write = 1 read = 0
UVM_INFO axi4_lite_subscriber.sv(41) @ 3245: uvm_test_top.env.sb [sb] INPUT COVERAGE = 58.33 %
UVM_INFO axi4_lite_inp_monitor.sv(44) @ 3245: uvm_test_top.env.aa.inp_mon [INPUT MONITOR]  WRITE awaddr=98207388 wdata=4c855614 wstrb=1000 
UVM_INFO axi4_lite_out_monitor.sv(28) @ 3265: uvm_test_top.env.pa.out_mon [OUTPUT MONITOR] BRESP = 3 RRESP = 0 RDATA = 00000000
UVM_INFO axi4_lite_driver.sv(34) @ 3265: uvm_test_top.env.aa.drv [DRV] awaddr = 98207388 wdata = 4c855614 wstrb = 8 araddr = 02011a08
UVM_INFO axi4_lite_scoreboard.sv(52) @ 3265: uvm_test_top.env.scb [BRESP] Matched : exp_bresp= 3 actual_bresp=3 write = 1 read = 0
UVM_INFO axi4_lite_subscriber.sv(41) @ 3305: uvm_test_top.env.sb [sb] INPUT COVERAGE = 58.33 %
UVM_INFO axi4_lite_inp_monitor.sv(44) @ 3305: uvm_test_top.env.aa.inp_mon [INPUT MONITOR]  WRITE awaddr=fbbf77b0 wdata=33d1b071 wstrb=1100 
UVM_INFO axi4_lite_out_monitor.sv(28) @ 3325: uvm_test_top.env.pa.out_mon [OUTPUT MONITOR] BRESP = 3 RRESP = 0 RDATA = 00000000
UVM_INFO axi4_lite_driver.sv(34) @ 3325: uvm_test_top.env.aa.drv [DRV] awaddr = fbbf77b0 wdata = 33d1b071 wstrb = c araddr = 43ba0714
UVM_INFO axi4_lite_scoreboard.sv(52) @ 3325: uvm_test_top.env.scb [BRESP] Matched : exp_bresp= 3 actual_bresp=3 write = 1 read = 0
UVM_INFO axi4_lite_subscriber.sv(41) @ 3375: uvm_test_top.env.sb [sb] INPUT COVERAGE = 58.33 %
UVM_INFO axi4_lite_inp_monitor.sv(44) @ 3375: uvm_test_top.env.aa.inp_mon [INPUT MONITOR]  WRITE awaddr=785482b4 wdata=b86dc9d3 wstrb=1001 
UVM_INFO axi4_lite_out_monitor.sv(28) @ 3395: uvm_test_top.env.pa.out_mon [OUTPUT MONITOR] BRESP = 3 RRESP = 0 RDATA = 00000000
UVM_INFO axi4_lite_driver.sv(34) @ 3395: uvm_test_top.env.aa.drv [DRV] awaddr = 785482b4 wdata = b86dc9d3 wstrb = 9 araddr = d35977cc
UVM_INFO axi4_lite_scoreboard.sv(52) @ 3395: uvm_test_top.env.scb [BRESP] Matched : exp_bresp= 3 actual_bresp=3 write = 1 read = 0
UVM_INFO axi4_lite_subscriber.sv(41) @ 3415: uvm_test_top.env.sb [sb] INPUT COVERAGE = 58.33 %
UVM_INFO axi4_lite_inp_monitor.sv(44) @ 3415: uvm_test_top.env.aa.inp_mon [INPUT MONITOR]  WRITE awaddr=e25922d8 wdata=e39af0fd wstrb=1010 
UVM_INFO axi4_lite_out_monitor.sv(28) @ 3435: uvm_test_top.env.pa.out_mon [OUTPUT MONITOR] BRESP = 3 RRESP = 0 RDATA = 00000000
UVM_INFO axi4_lite_driver.sv(34) @ 3435: uvm_test_top.env.aa.drv [DRV] awaddr = e25922d8 wdata = e39af0fd wstrb = a araddr = 9049a5f4
UVM_INFO axi4_lite_scoreboard.sv(52) @ 3435: uvm_test_top.env.scb [BRESP] Matched : exp_bresp= 3 actual_bresp=3 write = 1 read = 0
UVM_INFO axi4_lite_subscriber.sv(41) @ 3475: uvm_test_top.env.sb [sb] INPUT COVERAGE = 58.33 %
UVM_INFO axi4_lite_inp_monitor.sv(44) @ 3475: uvm_test_top.env.aa.inp_mon [INPUT MONITOR]  WRITE awaddr=02217844 wdata=1dc459ee wstrb=1011 
UVM_INFO axi4_lite_out_monitor.sv(28) @ 3495: uvm_test_top.env.pa.out_mon [OUTPUT MONITOR] BRESP = 3 RRESP = 0 RDATA = 00000000
UVM_INFO axi4_lite_driver.sv(34) @ 3495: uvm_test_top.env.aa.drv [DRV] awaddr = 02217844 wdata = 1dc459ee wstrb = b araddr = 17691350
UVM_INFO axi4_lite_scoreboard.sv(52) @ 3495: uvm_test_top.env.scb [BRESP] Matched : exp_bresp= 3 actual_bresp=3 write = 1 read = 0
UVM_INFO axi4_lite_subscriber.sv(41) @ 3525: uvm_test_top.env.sb [sb] INPUT COVERAGE = 58.33 %
UVM_INFO axi4_lite_inp_monitor.sv(44) @ 3525: uvm_test_top.env.aa.inp_mon [INPUT MONITOR]  WRITE awaddr=72cd34c0 wdata=562a51ed wstrb=1110 
UVM_INFO axi4_lite_out_monitor.sv(28) @ 3545: uvm_test_top.env.pa.out_mon [OUTPUT MONITOR] BRESP = 3 RRESP = 0 RDATA = 00000000
UVM_INFO axi4_lite_driver.sv(34) @ 3545: uvm_test_top.env.aa.drv [DRV] awaddr = 72cd34c0 wdata = 562a51ed wstrb = e araddr = 1a614928
UVM_INFO axi4_lite_scoreboard.sv(52) @ 3545: uvm_test_top.env.scb [BRESP] Matched : exp_bresp= 3 actual_bresp=3 write = 1 read = 0
UVM_INFO axi4_lite_subscriber.sv(41) @ 3575: uvm_test_top.env.sb [sb] INPUT COVERAGE = 58.33 %
UVM_INFO axi4_lite_inp_monitor.sv(44) @ 3575: uvm_test_top.env.aa.inp_mon [INPUT MONITOR]  WRITE awaddr=1630ba74 wdata=490375d9 wstrb=1100 
UVM_INFO axi4_lite_out_monitor.sv(28) @ 3595: uvm_test_top.env.pa.out_mon [OUTPUT MONITOR] BRESP = 3 RRESP = 0 RDATA = 00000000
UVM_INFO axi4_lite_driver.sv(34) @ 3595: uvm_test_top.env.aa.drv [DRV] awaddr = 1630ba74 wdata = 490375d9 wstrb = c araddr = 887da2ac
UVM_INFO axi4_lite_scoreboard.sv(52) @ 3595: uvm_test_top.env.scb [BRESP] Matched : exp_bresp= 3 actual_bresp=3 write = 1 read = 0
UVM_INFO axi4_lite_subscriber.sv(41) @ 3645: uvm_test_top.env.sb [sb] INPUT COVERAGE = 58.33 %
UVM_INFO axi4_lite_inp_monitor.sv(44) @ 3645: uvm_test_top.env.aa.inp_mon [INPUT MONITOR]  WRITE awaddr=a052f8d4 wdata=c2348bfd wstrb=1110 
UVM_INFO axi4_lite_out_monitor.sv(28) @ 3665: uvm_test_top.env.pa.out_mon [OUTPUT MONITOR] BRESP = 3 RRESP = 0 RDATA = 00000000
UVM_INFO axi4_lite_driver.sv(34) @ 3665: uvm_test_top.env.aa.drv [DRV] awaddr = a052f8d4 wdata = c2348bfd wstrb = e araddr = d5d56a38
UVM_INFO axi4_lite_scoreboard.sv(52) @ 3665: uvm_test_top.env.scb [BRESP] Matched : exp_bresp= 3 actual_bresp=3 write = 1 read = 0
UVM_INFO axi4_lite_subscriber.sv(41) @ 3685: uvm_test_top.env.sb [sb] INPUT COVERAGE = 58.33 %
UVM_INFO axi4_lite_inp_monitor.sv(44) @ 3685: uvm_test_top.env.aa.inp_mon [INPUT MONITOR]  WRITE awaddr=2232cbbc wdata=75e69331 wstrb=1100 
UVM_INFO axi4_lite_out_monitor.sv(28) @ 3705: uvm_test_top.env.pa.out_mon [OUTPUT MONITOR] BRESP = 3 RRESP = 0 RDATA = 00000000
UVM_INFO axi4_lite_driver.sv(34) @ 3705: uvm_test_top.env.aa.drv [DRV] awaddr = 2232cbbc wdata = 75e69331 wstrb = c araddr = 198b6f98
UVM_INFO axi4_lite_scoreboard.sv(52) @ 3705: uvm_test_top.env.scb [BRESP] Matched : exp_bresp= 3 actual_bresp=3 write = 1 read = 0
UVM_INFO axi4_lite_subscriber.sv(41) @ 3755: uvm_test_top.env.sb [sb] INPUT COVERAGE = 58.33 %
UVM_INFO axi4_lite_inp_monitor.sv(44) @ 3755: uvm_test_top.env.aa.inp_mon [INPUT MONITOR]  WRITE awaddr=182246f0 wdata=d5528016 wstrb=0010 
UVM_INFO axi4_lite_out_monitor.sv(28) @ 3775: uvm_test_top.env.pa.out_mon [OUTPUT MONITOR] BRESP = 3 RRESP = 0 RDATA = 00000000
UVM_INFO axi4_lite_driver.sv(34) @ 3775: uvm_test_top.env.aa.drv [DRV] awaddr = 182246f0 wdata = d5528016 wstrb = 2 araddr = 63cd278c
UVM_INFO axi4_lite_scoreboard.sv(52) @ 3775: uvm_test_top.env.scb [BRESP] Matched : exp_bresp= 3 actual_bresp=3 write = 1 read = 0
UVM_INFO axi4_lite_subscriber.sv(41) @ 3815: uvm_test_top.env.sb [sb] INPUT COVERAGE = 58.33 %
UVM_INFO axi4_lite_inp_monitor.sv(44) @ 3815: uvm_test_top.env.aa.inp_mon [INPUT MONITOR]  WRITE awaddr=d2dc9bb0 wdata=9d49bdfc wstrb=0110 
UVM_INFO axi4_lite_out_monitor.sv(28) @ 3835: uvm_test_top.env.pa.out_mon [OUTPUT MONITOR] BRESP = 3 RRESP = 0 RDATA = 00000000
UVM_INFO axi4_lite_driver.sv(34) @ 3835: uvm_test_top.env.aa.drv [DRV] awaddr = d2dc9bb0 wdata = 9d49bdfc wstrb = 6 araddr = 4c4af4f8
UVM_INFO axi4_lite_scoreboard.sv(52) @ 3835: uvm_test_top.env.scb [BRESP] Matched : exp_bresp= 3 actual_bresp=3 write = 1 read = 0
UVM_INFO axi4_lite_subscriber.sv(41) @ 3865: uvm_test_top.env.sb [sb] INPUT COVERAGE = 58.33 %
UVM_INFO axi4_lite_inp_monitor.sv(44) @ 3865: uvm_test_top.env.aa.inp_mon [INPUT MONITOR]  WRITE awaddr=78400654 wdata=0447f971 wstrb=0010 
UVM_INFO axi4_lite_out_monitor.sv(28) @ 3885: uvm_test_top.env.pa.out_mon [OUTPUT MONITOR] BRESP = 3 RRESP = 0 RDATA = 00000000
UVM_INFO axi4_lite_driver.sv(34) @ 3885: uvm_test_top.env.aa.drv [DRV] awaddr = 78400654 wdata = 0447f971 wstrb = 2 araddr = b8cdfc80
UVM_INFO axi4_lite_scoreboard.sv(52) @ 3885: uvm_test_top.env.scb [BRESP] Matched : exp_bresp= 3 actual_bresp=3 write = 1 read = 0
UVM_INFO axi4_lite_subscriber.sv(41) @ 3935: uvm_test_top.env.sb [sb] INPUT COVERAGE = 58.33 %
UVM_INFO axi4_lite_inp_monitor.sv(44) @ 3935: uvm_test_top.env.aa.inp_mon [INPUT MONITOR]  WRITE awaddr=0a26b4fc wdata=c16b8448 wstrb=1000 
UVM_INFO axi4_lite_out_monitor.sv(28) @ 3955: uvm_test_top.env.pa.out_mon [OUTPUT MONITOR] BRESP = 3 RRESP = 0 RDATA = 00000000
UVM_INFO axi4_lite_driver.sv(34) @ 3955: uvm_test_top.env.aa.drv [DRV] awaddr = 0a26b4fc wdata = c16b8448 wstrb = 8 araddr = fb7b42fc
UVM_INFO axi4_lite_scoreboard.sv(52) @ 3955: uvm_test_top.env.scb [BRESP] Matched : exp_bresp= 3 actual_bresp=3 write = 1 read = 0
UVM_INFO axi4_lite_subscriber.sv(41) @ 3995: uvm_test_top.env.sb [sb] INPUT COVERAGE = 58.33 %
UVM_INFO axi4_lite_inp_monitor.sv(44) @ 3995: uvm_test_top.env.aa.inp_mon [INPUT MONITOR]  WRITE awaddr=7f34e074 wdata=a2597e11 wstrb=1000 
UVM_INFO axi4_lite_out_monitor.sv(28) @ 4015: uvm_test_top.env.pa.out_mon [OUTPUT MONITOR] BRESP = 3 RRESP = 0 RDATA = 00000000
UVM_INFO axi4_lite_driver.sv(34) @ 4015: uvm_test_top.env.aa.drv [DRV] awaddr = 7f34e074 wdata = a2597e11 wstrb = 8 araddr = b2ffa9cc
UVM_INFO axi4_lite_scoreboard.sv(52) @ 4015: uvm_test_top.env.scb [BRESP] Matched : exp_bresp= 3 actual_bresp=3 write = 1 read = 0
UVM_INFO axi4_lite_subscriber.sv(41) @ 4055: uvm_test_top.env.sb [sb] INPUT COVERAGE = 58.33 %
UVM_INFO axi4_lite_inp_monitor.sv(44) @ 4055: uvm_test_top.env.aa.inp_mon [INPUT MONITOR]  WRITE awaddr=fc24fe04 wdata=e8f722b3 wstrb=1110 
UVM_INFO axi4_lite_out_monitor.sv(28) @ 4075: uvm_test_top.env.pa.out_mon [OUTPUT MONITOR] BRESP = 3 RRESP = 0 RDATA = 00000000
UVM_INFO axi4_lite_driver.sv(34) @ 4075: uvm_test_top.env.aa.drv [DRV] awaddr = fc24fe04 wdata = e8f722b3 wstrb = e araddr = 2073c73c
UVM_INFO axi4_lite_scoreboard.sv(52) @ 4075: uvm_test_top.env.scb [BRESP] Matched : exp_bresp= 3 actual_bresp=3 write = 1 read = 0
UVM_INFO axi4_lite_subscriber.sv(41) @ 4125: uvm_test_top.env.sb [sb] INPUT COVERAGE = 58.33 %
UVM_INFO axi4_lite_inp_monitor.sv(44) @ 4125: uvm_test_top.env.aa.inp_mon [INPUT MONITOR]  WRITE awaddr=be23f138 wdata=15dcab2c wstrb=1001 
UVM_INFO axi4_lite_out_monitor.sv(28) @ 4145: uvm_test_top.env.pa.out_mon [OUTPUT MONITOR] BRESP = 3 RRESP = 0 RDATA = 00000000
UVM_INFO axi4_lite_driver.sv(34) @ 4145: uvm_test_top.env.aa.drv [DRV] awaddr = be23f138 wdata = 15dcab2c wstrb = 9 araddr = f9cf2c50
UVM_INFO axi4_lite_scoreboard.sv(52) @ 4145: uvm_test_top.env.scb [BRESP] Matched : exp_bresp= 3 actual_bresp=3 write = 1 read = 0
UVM_INFO axi4_lite_subscriber.sv(41) @ 4185: uvm_test_top.env.sb [sb] INPUT COVERAGE = 58.33 %
UVM_INFO axi4_lite_inp_monitor.sv(44) @ 4185: uvm_test_top.env.aa.inp_mon [INPUT MONITOR]  WRITE awaddr=232b02ec wdata=4dfe8273 wstrb=1100 
UVM_INFO axi4_lite_out_monitor.sv(28) @ 4205: uvm_test_top.env.pa.out_mon [OUTPUT MONITOR] BRESP = 3 RRESP = 0 RDATA = 00000000
UVM_INFO axi4_lite_driver.sv(34) @ 4205: uvm_test_top.env.aa.drv [DRV] awaddr = 232b02ec wdata = 4dfe8273 wstrb = c araddr = d47a3720
UVM_INFO axi4_lite_scoreboard.sv(52) @ 4205: uvm_test_top.env.scb [BRESP] Matched : exp_bresp= 3 actual_bresp=3 write = 1 read = 0
UVM_INFO axi4_lite_subscriber.sv(41) @ 4235: uvm_test_top.env.sb [sb] INPUT COVERAGE = 58.33 %
UVM_INFO axi4_lite_inp_monitor.sv(44) @ 4235: uvm_test_top.env.aa.inp_mon [INPUT MONITOR]  WRITE awaddr=30a316e4 wdata=5fa03d7a wstrb=0110 
UVM_INFO axi4_lite_out_monitor.sv(28) @ 4255: uvm_test_top.env.pa.out_mon [OUTPUT MONITOR] BRESP = 3 RRESP = 0 RDATA = 00000000
UVM_INFO axi4_lite_driver.sv(34) @ 4255: uvm_test_top.env.aa.drv [DRV] awaddr = 30a316e4 wdata = 5fa03d7a wstrb = 6 araddr = 8334a0a4
UVM_INFO axi4_lite_scoreboard.sv(52) @ 4255: uvm_test_top.env.scb [BRESP] Matched : exp_bresp= 3 actual_bresp=3 write = 1 read = 0
UVM_INFO axi4_lite_subscriber.sv(41) @ 4285: uvm_test_top.env.sb [sb] INPUT COVERAGE = 58.33 %
UVM_INFO axi4_lite_inp_monitor.sv(44) @ 4285: uvm_test_top.env.aa.inp_mon [INPUT MONITOR]  WRITE awaddr=fd7065f8 wdata=1e09aab5 wstrb=1011 
UVM_INFO axi4_lite_out_monitor.sv(28) @ 4305: uvm_test_top.env.pa.out_mon [OUTPUT MONITOR] BRESP = 3 RRESP = 0 RDATA = 00000000
UVM_INFO axi4_lite_driver.sv(34) @ 4305: uvm_test_top.env.aa.drv [DRV] awaddr = fd7065f8 wdata = 1e09aab5 wstrb = b araddr = 0590cb90
UVM_INFO axi4_lite_scoreboard.sv(52) @ 4305: uvm_test_top.env.scb [BRESP] Matched : exp_bresp= 3 actual_bresp=3 write = 1 read = 0
UVM_INFO axi4_lite_subscriber.sv(41) @ 4335: uvm_test_top.env.sb [sb] INPUT COVERAGE = 58.33 %
UVM_INFO axi4_lite_inp_monitor.sv(44) @ 4335: uvm_test_top.env.aa.inp_mon [INPUT MONITOR]  WRITE awaddr=69da3464 wdata=3ecf8954 wstrb=0101 
UVM_INFO axi4_lite_out_monitor.sv(28) @ 4355: uvm_test_top.env.pa.out_mon [OUTPUT MONITOR] BRESP = 3 RRESP = 0 RDATA = 00000000
UVM_INFO axi4_lite_driver.sv(34) @ 4355: uvm_test_top.env.aa.drv [DRV] awaddr = 69da3464 wdata = 3ecf8954 wstrb = 5 araddr = 50062fd0
UVM_INFO axi4_lite_scoreboard.sv(52) @ 4355: uvm_test_top.env.scb [BRESP] Matched : exp_bresp= 3 actual_bresp=3 write = 1 read = 0
UVM_INFO axi4_lite_subscriber.sv(41) @ 4395: uvm_test_top.env.sb [sb] INPUT COVERAGE = 58.33 %
UVM_INFO axi4_lite_inp_monitor.sv(44) @ 4395: uvm_test_top.env.aa.inp_mon [INPUT MONITOR]  WRITE awaddr=65519c40 wdata=d6a5f01d wstrb=1111 
UVM_INFO axi4_lite_out_monitor.sv(28) @ 4415: uvm_test_top.env.pa.out_mon [OUTPUT MONITOR] BRESP = 3 RRESP = 0 RDATA = 00000000
UVM_INFO axi4_lite_driver.sv(34) @ 4415: uvm_test_top.env.aa.drv [DRV] awaddr = 65519c40 wdata = d6a5f01d wstrb = f araddr = c8a699c4
UVM_INFO axi4_lite_scoreboard.sv(52) @ 4415: uvm_test_top.env.scb [BRESP] Matched : exp_bresp= 3 actual_bresp=3 write = 1 read = 0
UVM_INFO axi4_lite_subscriber.sv(41) @ 4445: uvm_test_top.env.sb [sb] INPUT COVERAGE = 58.33 %
UVM_INFO axi4_lite_inp_monitor.sv(44) @ 4445: uvm_test_top.env.aa.inp_mon [INPUT MONITOR]  WRITE awaddr=43be1c50 wdata=15528c22 wstrb=1110 
UVM_INFO axi4_lite_out_monitor.sv(28) @ 4465: uvm_test_top.env.pa.out_mon [OUTPUT MONITOR] BRESP = 3 RRESP = 0 RDATA = 00000000
UVM_INFO axi4_lite_driver.sv(34) @ 4465: uvm_test_top.env.aa.drv [DRV] awaddr = 43be1c50 wdata = 15528c22 wstrb = e araddr = 247214b4
UVM_INFO axi4_lite_scoreboard.sv(52) @ 4465: uvm_test_top.env.scb [BRESP] Matched : exp_bresp= 3 actual_bresp=3 write = 1 read = 0
UVM_INFO axi4_lite_subscriber.sv(41) @ 4515: uvm_test_top.env.sb [sb] INPUT COVERAGE = 58.33 %
UVM_INFO axi4_lite_inp_monitor.sv(44) @ 4515: uvm_test_top.env.aa.inp_mon [INPUT MONITOR]  WRITE awaddr=e2825d64 wdata=8cb209a3 wstrb=0110 
UVM_INFO axi4_lite_out_monitor.sv(28) @ 4535: uvm_test_top.env.pa.out_mon [OUTPUT MONITOR] BRESP = 3 RRESP = 0 RDATA = 00000000
UVM_INFO axi4_lite_driver.sv(34) @ 4535: uvm_test_top.env.aa.drv [DRV] awaddr = e2825d64 wdata = 8cb209a3 wstrb = 6 araddr = fa88aaf0
UVM_INFO axi4_lite_scoreboard.sv(52) @ 4535: uvm_test_top.env.scb [BRESP] Matched : exp_bresp= 3 actual_bresp=3 write = 1 read = 0
UVM_INFO axi4_lite_subscriber.sv(41) @ 4575: uvm_test_top.env.sb [sb] INPUT COVERAGE = 58.33 %
UVM_INFO axi4_lite_inp_monitor.sv(44) @ 4575: uvm_test_top.env.aa.inp_mon [INPUT MONITOR]  WRITE awaddr=041f4894 wdata=bcb70114 wstrb=0111 
UVM_INFO axi4_lite_out_monitor.sv(28) @ 4595: uvm_test_top.env.pa.out_mon [OUTPUT MONITOR] BRESP = 3 RRESP = 0 RDATA = 00000000
UVM_INFO axi4_lite_driver.sv(34) @ 4595: uvm_test_top.env.aa.drv [DRV] awaddr = 041f4894 wdata = bcb70114 wstrb = 7 araddr = 30d0e698
UVM_INFO axi4_lite_scoreboard.sv(52) @ 4595: uvm_test_top.env.scb [BRESP] Matched : exp_bresp= 3 actual_bresp=3 write = 1 read = 0
UVM_INFO axi4_lite_subscriber.sv(41) @ 4625: uvm_test_top.env.sb [sb] INPUT COVERAGE = 58.33 %
UVM_INFO axi4_lite_inp_monitor.sv(44) @ 4625: uvm_test_top.env.aa.inp_mon [INPUT MONITOR]  WRITE awaddr=bec18a44 wdata=e1362f4a wstrb=1110 
UVM_INFO axi4_lite_out_monitor.sv(28) @ 4645: uvm_test_top.env.pa.out_mon [OUTPUT MONITOR] BRESP = 3 RRESP = 0 RDATA = 00000000
UVM_INFO axi4_lite_driver.sv(34) @ 4645: uvm_test_top.env.aa.drv [DRV] awaddr = bec18a44 wdata = e1362f4a wstrb = e araddr = 1e579968
UVM_INFO axi4_lite_scoreboard.sv(52) @ 4645: uvm_test_top.env.scb [BRESP] Matched : exp_bresp= 3 actual_bresp=3 write = 1 read = 0
UVM_INFO axi4_lite_subscriber.sv(41) @ 4665: uvm_test_top.env.sb [sb] INPUT COVERAGE = 58.33 %
UVM_INFO axi4_lite_inp_monitor.sv(44) @ 4665: uvm_test_top.env.aa.inp_mon [INPUT MONITOR]  WRITE awaddr=ab7a78b8 wdata=4c32b3fb wstrb=0001 
UVM_INFO axi4_lite_out_monitor.sv(28) @ 4685: uvm_test_top.env.pa.out_mon [OUTPUT MONITOR] BRESP = 3 RRESP = 0 RDATA = 00000000
UVM_INFO axi4_lite_driver.sv(34) @ 4685: uvm_test_top.env.aa.drv [DRV] awaddr = ab7a78b8 wdata = 4c32b3fb wstrb = 1 araddr = 0fc4f2d0
UVM_INFO axi4_lite_scoreboard.sv(52) @ 4685: uvm_test_top.env.scb [BRESP] Matched : exp_bresp= 3 actual_bresp=3 write = 1 read = 0
UVM_INFO axi4_lite_subscriber.sv(41) @ 4725: uvm_test_top.env.sb [sb] INPUT COVERAGE = 58.33 %
UVM_INFO axi4_lite_inp_monitor.sv(44) @ 4725: uvm_test_top.env.aa.inp_mon [INPUT MONITOR]  WRITE awaddr=93ea57e8 wdata=508c5c7c wstrb=1101 
UVM_INFO axi4_lite_out_monitor.sv(28) @ 4745: uvm_test_top.env.pa.out_mon [OUTPUT MONITOR] BRESP = 3 RRESP = 0 RDATA = 00000000
UVM_INFO axi4_lite_driver.sv(34) @ 4745: uvm_test_top.env.aa.drv [DRV] awaddr = 93ea57e8 wdata = 508c5c7c wstrb = d araddr = abb42fb0
UVM_INFO axi4_lite_scoreboard.sv(52) @ 4745: uvm_test_top.env.scb [BRESP] Matched : exp_bresp= 3 actual_bresp=3 write = 1 read = 0
UVM_INFO axi4_lite_subscriber.sv(41) @ 4785: uvm_test_top.env.sb [sb] INPUT COVERAGE = 58.33 %
UVM_INFO axi4_lite_inp_monitor.sv(44) @ 4785: uvm_test_top.env.aa.inp_mon [INPUT MONITOR]  WRITE awaddr=80679fe8 wdata=badede3c wstrb=0100 
UVM_INFO axi4_lite_out_monitor.sv(28) @ 4805: uvm_test_top.env.pa.out_mon [OUTPUT MONITOR] BRESP = 3 RRESP = 0 RDATA = 00000000
UVM_INFO axi4_lite_driver.sv(34) @ 4805: uvm_test_top.env.aa.drv [DRV] awaddr = 80679fe8 wdata = badede3c wstrb = 4 araddr = 7eab3454
UVM_INFO axi4_lite_scoreboard.sv(52) @ 4805: uvm_test_top.env.scb [BRESP] Matched : exp_bresp= 3 actual_bresp=3 write = 1 read = 0
UVM_INFO axi4_lite_subscriber.sv(41) @ 4835: uvm_test_top.env.sb [sb] INPUT COVERAGE = 58.33 %
UVM_INFO axi4_lite_inp_monitor.sv(44) @ 4835: uvm_test_top.env.aa.inp_mon [INPUT MONITOR]  WRITE awaddr=ee82a108 wdata=1a3c7cf3 wstrb=1100 
UVM_INFO axi4_lite_out_monitor.sv(28) @ 4855: uvm_test_top.env.pa.out_mon [OUTPUT MONITOR] BRESP = 3 RRESP = 0 RDATA = 00000000
UVM_INFO axi4_lite_driver.sv(34) @ 4855: uvm_test_top.env.aa.drv [DRV] awaddr = ee82a108 wdata = 1a3c7cf3 wstrb = c araddr = aa0ad1a8
UVM_INFO axi4_lite_scoreboard.sv(52) @ 4855: uvm_test_top.env.scb [BRESP] Matched : exp_bresp= 3 actual_bresp=3 write = 1 read = 0
UVM_INFO axi4_lite_subscriber.sv(41) @ 4905: uvm_test_top.env.sb [sb] INPUT COVERAGE = 58.33 %
UVM_INFO axi4_lite_inp_monitor.sv(44) @ 4905: uvm_test_top.env.aa.inp_mon [INPUT MONITOR]  WRITE awaddr=8510f530 wdata=f6a1bf6a wstrb=0001 
UVM_INFO axi4_lite_out_monitor.sv(28) @ 4925: uvm_test_top.env.pa.out_mon [OUTPUT MONITOR] BRESP = 3 RRESP = 0 RDATA = 00000000
UVM_INFO axi4_lite_driver.sv(34) @ 4925: uvm_test_top.env.aa.drv [DRV] awaddr = 8510f530 wdata = f6a1bf6a wstrb = 1 araddr = 0dede1e4
UVM_INFO axi4_lite_scoreboard.sv(52) @ 4925: uvm_test_top.env.scb [BRESP] Matched : exp_bresp= 3 actual_bresp=3 write = 1 read = 0
UVM_INFO axi4_lite_subscriber.sv(41) @ 4965: uvm_test_top.env.sb [sb] INPUT COVERAGE = 58.33 %
UVM_INFO axi4_lite_inp_monitor.sv(44) @ 4965: uvm_test_top.env.aa.inp_mon [INPUT MONITOR]  WRITE awaddr=35dd9b04 wdata=35ee3bc1 wstrb=0001 
UVM_INFO axi4_lite_out_monitor.sv(28) @ 4985: uvm_test_top.env.pa.out_mon [OUTPUT MONITOR] BRESP = 3 RRESP = 0 RDATA = 00000000
UVM_INFO axi4_lite_driver.sv(34) @ 4985: uvm_test_top.env.aa.drv [DRV] awaddr = 35dd9b04 wdata = 35ee3bc1 wstrb = 1 araddr = 50c4fa50
UVM_INFO axi4_lite_scoreboard.sv(52) @ 4985: uvm_test_top.env.scb [BRESP] Matched : exp_bresp= 3 actual_bresp=3 write = 1 read = 0
UVM_INFO axi4_lite_subscriber.sv(41) @ 5005: uvm_test_top.env.sb [sb] INPUT COVERAGE = 58.33 %
UVM_INFO axi4_lite_inp_monitor.sv(44) @ 5005: uvm_test_top.env.aa.inp_mon [INPUT MONITOR]  WRITE awaddr=e9feb810 wdata=9c591800 wstrb=0000 
UVM_INFO axi4_lite_out_monitor.sv(28) @ 5025: uvm_test_top.env.pa.out_mon [OUTPUT MONITOR] BRESP = 3 RRESP = 0 RDATA = 00000000
UVM_INFO axi4_lite_driver.sv(34) @ 5025: uvm_test_top.env.aa.drv [DRV] awaddr = e9feb810 wdata = 9c591800 wstrb = 0 araddr = 9f3f4a08
UVM_INFO axi4_lite_scoreboard.sv(52) @ 5025: uvm_test_top.env.scb [BRESP] Matched : exp_bresp= 3 actual_bresp=3 write = 1 read = 0
UVM_INFO axi4_lite_subscriber.sv(41) @ 5065: uvm_test_top.env.sb [sb] INPUT COVERAGE = 58.33 %
UVM_INFO axi4_lite_inp_monitor.sv(44) @ 5065: uvm_test_top.env.aa.inp_mon [INPUT MONITOR]  WRITE awaddr=5d622ee4 wdata=2ceaf0ed wstrb=0000 
UVM_INFO axi4_lite_out_monitor.sv(28) @ 5085: uvm_test_top.env.pa.out_mon [OUTPUT MONITOR] BRESP = 3 RRESP = 0 RDATA = 00000000
UVM_INFO axi4_lite_driver.sv(34) @ 5085: uvm_test_top.env.aa.drv [DRV] awaddr = 5d622ee4 wdata = 2ceaf0ed wstrb = 0 araddr = 04d1138c
UVM_INFO axi4_lite_scoreboard.sv(52) @ 5085: uvm_test_top.env.scb [BRESP] Matched : exp_bresp= 3 actual_bresp=3 write = 1 read = 0
UVM_INFO axi4_lite_subscriber.sv(41) @ 5125: uvm_test_top.env.sb [sb] INPUT COVERAGE = 58.33 %
UVM_INFO axi4_lite_inp_monitor.sv(44) @ 5125: uvm_test_top.env.aa.inp_mon [INPUT MONITOR]  WRITE awaddr=c74abba8 wdata=1b4af69b wstrb=0101 
UVM_INFO axi4_lite_out_monitor.sv(28) @ 5145: uvm_test_top.env.pa.out_mon [OUTPUT MONITOR] BRESP = 3 RRESP = 0 RDATA = 00000000
UVM_INFO axi4_lite_driver.sv(34) @ 5145: uvm_test_top.env.aa.drv [DRV] awaddr = c74abba8 wdata = 1b4af69b wstrb = 5 araddr = 482d9f30
UVM_INFO axi4_lite_scoreboard.sv(52) @ 5145: uvm_test_top.env.scb [BRESP] Matched : exp_bresp= 3 actual_bresp=3 write = 1 read = 0
UVM_INFO axi4_lite_subscriber.sv(41) @ 5185: uvm_test_top.env.sb [sb] INPUT COVERAGE = 58.33 %
UVM_INFO axi4_lite_inp_monitor.sv(44) @ 5185: uvm_test_top.env.aa.inp_mon [INPUT MONITOR]  WRITE awaddr=cb059020 wdata=d23a273b wstrb=0010 
UVM_INFO axi4_lite_out_monitor.sv(28) @ 5205: uvm_test_top.env.pa.out_mon [OUTPUT MONITOR] BRESP = 3 RRESP = 0 RDATA = 00000000
UVM_INFO axi4_lite_driver.sv(34) @ 5205: uvm_test_top.env.aa.drv [DRV] awaddr = cb059020 wdata = d23a273b wstrb = 2 araddr = fac7e434
UVM_INFO axi4_lite_scoreboard.sv(52) @ 5205: uvm_test_top.env.scb [BRESP] Matched : exp_bresp= 3 actual_bresp=3 write = 1 read = 0
UVM_INFO axi4_lite_subscriber.sv(41) @ 5245: uvm_test_top.env.sb [sb] INPUT COVERAGE = 58.33 %
UVM_INFO axi4_lite_inp_monitor.sv(44) @ 5245: uvm_test_top.env.aa.inp_mon [INPUT MONITOR]  WRITE awaddr=982518cc wdata=efcde3fe wstrb=1110 
UVM_INFO axi4_lite_out_monitor.sv(28) @ 5265: uvm_test_top.env.pa.out_mon [OUTPUT MONITOR] BRESP = 3 RRESP = 0 RDATA = 00000000
UVM_INFO axi4_lite_driver.sv(34) @ 5265: uvm_test_top.env.aa.drv [DRV] awaddr = 982518cc wdata = efcde3fe wstrb = e araddr = 2e9fb058
UVM_INFO axi4_lite_scoreboard.sv(52) @ 5265: uvm_test_top.env.scb [BRESP] Matched : exp_bresp= 3 actual_bresp=3 write = 1 read = 0
UVM_INFO axi4_lite_subscriber.sv(41) @ 5315: uvm_test_top.env.sb [sb] INPUT COVERAGE = 58.33 %
UVM_INFO axi4_lite_inp_monitor.sv(44) @ 5315: uvm_test_top.env.aa.inp_mon [INPUT MONITOR]  WRITE awaddr=cfa1f07c wdata=253c17ae wstrb=1010 
UVM_INFO axi4_lite_out_monitor.sv(28) @ 5335: uvm_test_top.env.pa.out_mon [OUTPUT MONITOR] BRESP = 3 RRESP = 0 RDATA = 00000000
UVM_INFO axi4_lite_driver.sv(34) @ 5335: uvm_test_top.env.aa.drv [DRV] awaddr = cfa1f07c wdata = 253c17ae wstrb = a araddr = a42e86d0
UVM_INFO axi4_lite_scoreboard.sv(52) @ 5335: uvm_test_top.env.scb [BRESP] Matched : exp_bresp= 3 actual_bresp=3 write = 1 read = 0
UVM_INFO axi4_lite_subscriber.sv(41) @ 5385: uvm_test_top.env.sb [sb] INPUT COVERAGE = 58.33 %
UVM_INFO axi4_lite_inp_monitor.sv(44) @ 5385: uvm_test_top.env.aa.inp_mon [INPUT MONITOR]  WRITE awaddr=9cf4d470 wdata=74dfe727 wstrb=0111 
UVM_INFO axi4_lite_out_monitor.sv(28) @ 5405: uvm_test_top.env.pa.out_mon [OUTPUT MONITOR] BRESP = 3 RRESP = 0 RDATA = 00000000
UVM_INFO axi4_lite_driver.sv(34) @ 5405: uvm_test_top.env.aa.drv [DRV] awaddr = 9cf4d470 wdata = 74dfe727 wstrb = 7 araddr = d08b2cd8
UVM_INFO axi4_lite_scoreboard.sv(52) @ 5405: uvm_test_top.env.scb [BRESP] Matched : exp_bresp= 3 actual_bresp=3 write = 1 read = 0
UVM_INFO axi4_lite_subscriber.sv(41) @ 5435: uvm_test_top.env.sb [sb] INPUT COVERAGE = 58.33 %
UVM_INFO axi4_lite_inp_monitor.sv(44) @ 5435: uvm_test_top.env.aa.inp_mon [INPUT MONITOR]  WRITE awaddr=0c26e084 wdata=7aee2de2 wstrb=0101 
UVM_INFO axi4_lite_out_monitor.sv(28) @ 5455: uvm_test_top.env.pa.out_mon [OUTPUT MONITOR] BRESP = 3 RRESP = 0 RDATA = 00000000
UVM_INFO axi4_lite_driver.sv(34) @ 5455: uvm_test_top.env.aa.drv [DRV] awaddr = 0c26e084 wdata = 7aee2de2 wstrb = 5 araddr = 8965b984
UVM_INFO axi4_lite_scoreboard.sv(52) @ 5455: uvm_test_top.env.scb [BRESP] Matched : exp_bresp= 3 actual_bresp=3 write = 1 read = 0
UVM_INFO axi4_lite_subscriber.sv(41) @ 5485: uvm_test_top.env.sb [sb] INPUT COVERAGE = 58.33 %
UVM_INFO axi4_lite_inp_monitor.sv(44) @ 5485: uvm_test_top.env.aa.inp_mon [INPUT MONITOR]  WRITE awaddr=de821620 wdata=f4583c22 wstrb=0010 
UVM_INFO axi4_lite_out_monitor.sv(28) @ 5505: uvm_test_top.env.pa.out_mon [OUTPUT MONITOR] BRESP = 3 RRESP = 0 RDATA = 00000000
UVM_INFO axi4_lite_driver.sv(34) @ 5505: uvm_test_top.env.aa.drv [DRV] awaddr = de821620 wdata = f4583c22 wstrb = 2 araddr = 599fae38
UVM_INFO axi4_lite_scoreboard.sv(52) @ 5505: uvm_test_top.env.scb [BRESP] Matched : exp_bresp= 3 actual_bresp=3 write = 1 read = 0
UVM_INFO axi4_lite_subscriber.sv(41) @ 5525: uvm_test_top.env.sb [sb] INPUT COVERAGE = 58.33 %
UVM_INFO axi4_lite_inp_monitor.sv(44) @ 5525: uvm_test_top.env.aa.inp_mon [INPUT MONITOR]  WRITE awaddr=cc34fe90 wdata=61b9c586 wstrb=1100 
UVM_INFO axi4_lite_out_monitor.sv(28) @ 5545: uvm_test_top.env.pa.out_mon [OUTPUT MONITOR] BRESP = 3 RRESP = 0 RDATA = 00000000
UVM_INFO axi4_lite_driver.sv(34) @ 5545: uvm_test_top.env.aa.drv [DRV] awaddr = cc34fe90 wdata = 61b9c586 wstrb = c araddr = 7384e774
UVM_INFO axi4_lite_scoreboard.sv(52) @ 5545: uvm_test_top.env.scb [BRESP] Matched : exp_bresp= 3 actual_bresp=3 write = 1 read = 0
UVM_INFO axi4_lite_subscriber.sv(41) @ 5585: uvm_test_top.env.sb [sb] INPUT COVERAGE = 58.33 %
UVM_INFO axi4_lite_inp_monitor.sv(44) @ 5585: uvm_test_top.env.aa.inp_mon [INPUT MONITOR]  WRITE awaddr=13b17e18 wdata=abe1f754 wstrb=0011 
UVM_INFO axi4_lite_out_monitor.sv(28) @ 5605: uvm_test_top.env.pa.out_mon [OUTPUT MONITOR] BRESP = 3 RRESP = 0 RDATA = 00000000
UVM_INFO axi4_lite_driver.sv(34) @ 5605: uvm_test_top.env.aa.drv [DRV] awaddr = 13b17e18 wdata = abe1f754 wstrb = 3 araddr = d1f09408
UVM_INFO axi4_lite_scoreboard.sv(52) @ 5605: uvm_test_top.env.scb [BRESP] Matched : exp_bresp= 3 actual_bresp=3 write = 1 read = 0
UVM_INFO axi4_lite_subscriber.sv(41) @ 5635: uvm_test_top.env.sb [sb] INPUT COVERAGE = 58.33 %
UVM_INFO axi4_lite_inp_monitor.sv(44) @ 5635: uvm_test_top.env.aa.inp_mon [INPUT MONITOR]  WRITE awaddr=304b48e0 wdata=95cd5803 wstrb=1011 
UVM_INFO axi4_lite_out_monitor.sv(28) @ 5655: uvm_test_top.env.pa.out_mon [OUTPUT MONITOR] BRESP = 3 RRESP = 0 RDATA = 00000000
UVM_INFO axi4_lite_driver.sv(34) @ 5655: uvm_test_top.env.aa.drv [DRV] awaddr = 304b48e0 wdata = 95cd5803 wstrb = b araddr = 482b0cec
UVM_INFO axi4_lite_scoreboard.sv(52) @ 5655: uvm_test_top.env.scb [BRESP] Matched : exp_bresp= 3 actual_bresp=3 write = 1 read = 0
UVM_INFO axi4_lite_test.sv(121) @ 5655: uvm_test_top [TEST] Write decerr completed
UVM_INFO /fetools/synopsys/installed_tools/vcs/vcs/Q-2020.03-SP2-8/etc/uvm/base/uvm_objection.svh(1274) @ 5655: reporter [TEST_DONE] 'run' phase is ready to proceed to the 'extract' phase

--- UVM Report Summary ---

** Report counts by severity
UVM_INFO :  504
UVM_WARNING :    0
UVM_ERROR :    0
UVM_FATAL :    0
** Report counts by id
[BRESP]   100
[DRV]   100
[INPUT MONITOR]   100
[OUTPUT MONITOR]   100
[RNTST]     1
[TEST]     1
[TEST_DONE]     1
[UVMTOP]     1
[sb]   100
$finish called from file "/fetools/synopsys/installed_tools/vcs/vcs/Q-2020.03-SP2-8/etc/uvm/base/uvm_root.svh", line 437.
$finish at simulation time                 5655

---------------------------------------------------------------------------
VCS Coverage Metrics: during simulation line, cond, FSM, branch, tgl was monitored
---------------------------------------------------------------------------
           V C S   S i m u l a t i o n   R e p o r t 
Time: 5655 ns
CPU Time:      0.580 seconds;       Data structure size:   0.4Mb
Fri Sep 18 16:14:40 2026
