Command: /fetools/work_area/frontend/Batch_11/ananyaganesh/system_verilog/AXI4_LITE_SLAVE/src/./simv +UVM_TESTNAME=axi4_lite_test_addr_with_delay_data +UVM_VERBOSITY=UVM_HIGH -cm line+cond+fsm+tgl+branch+assert -cm_dir regression.vdb -cm_name axi4_lite_test_addr_with_delay_data -l axi4_lite_test_addr_with_delay_data_regr.log
Chronologic VCS simulator copyright 1991-2020
Contains Synopsys proprietary information.
Compiler version Q-2020.03-SP2-8_Full64; Runtime version Q-2020.03-SP2-8_Full64;  Sep 18 16:14 2026
----------------------------------------------------------------
UVM-1.1d.Synopsys
(C) 2007-2013 Mentor Graphics Corporation
(C) 2007-2013 Cadence Design Systems, Inc.
(C) 2006-2013 Synopsys, Inc.
(C) 2011-2013 Cypress Semiconductor Corp.
----------------------------------------------------------------

  ***********       IMPORTANT RELEASE NOTES         ************

  You are using a version of the UVM library that has been compiled
  with `UVM_NO_DEPRECATED undefined.
  See http://www.eda.org/svdb/view.php?id=3313 for more details.

  You are using a version of the UVM library that has been compiled
  with `UVM_OBJECT_MUST_HAVE_CONSTRUCTOR undefined.
  See http://www.eda.org/svdb/view.php?id=3770 for more details.

      (Specify +UVM_NO_RELNOTES to turn off this notice)

UVM_INFO @ 0: reporter [RNTST] Running test axi4_lite_test_addr_with_delay_data...
UVM_INFO @ 0: reporter [UVMTOP] UVM testbench topology:
---------------------------------------------------------------------------
Name                       Type                                 Size  Value
---------------------------------------------------------------------------
uvm_test_top               axi4_lite_test_addr_with_delay_data  -     @469 
  env                      axi4_lite_environment                -     @477 
    aa                     axi4_lite_active_agent               -     @489 
      drv                  axi4_lite_driver                     -     @569 
        rsp_port           uvm_analysis_port                    -     @586 
        seq_item_port      uvm_seq_item_pull_port               -     @577 
      inp_mon              axi4_lite_inp_monitor                -     @552 
        inp_mon_port       uvm_analysis_port                    -     @560 
      seqr                 axi4_lite_seqr                       -     @595 
        rsp_export         uvm_analysis_export                  -     @603 
        seq_item_export    uvm_seq_item_pull_imp                -     @709 
        arbitration_queue  array                                0     -    
        lock_queue         array                                0     -    
        num_last_reqs      integral                             32    'd1  
        num_last_rsps      integral                             32    'd1  
    pa                     axi4_lite_passive_agent              -     @497 
      out_mon              axi4_lite_out_monitor                -     @726 
        out_mon_port       uvm_analysis_port                    -     @734 
    sb                     axi4_lite_subscriber                 -     @531 
      analysis_imp         uvm_analysis_imp                     -     @539 
    scb                    axi4_lite_scoreboard                 -     @505 
      inp_port             uvm_analysis_imp_in                  -     @513 
      out_port             uvm_analysis_imp_out                 -     @522 
---------------------------------------------------------------------------

UVM_INFO axi4_lite_subscriber.sv(41) @ 45: uvm_test_top.env.sb [sb] INPUT COVERAGE = 28.12 %
UVM_INFO axi4_lite_inp_monitor.sv(44) @ 45: uvm_test_top.env.aa.inp_mon [INPUT MONITOR]  WRITE awaddr=00000024 wdata=40e1b8d1 wstrb=0100 
UVM_INFO axi4_lite_out_monitor.sv(28) @ 65: uvm_test_top.env.pa.out_mon [OUTPUT MONITOR] BRESP = 0 RRESP = 0 RDATA = 00000000
UVM_INFO axi4_lite_driver.sv(34) @ 65: uvm_test_top.env.aa.drv [DRV] awaddr = 00000024 wdata = 40e1b8d1 wstrb = 4 araddr = 811e1fac
UVM_INFO axi4_lite_scoreboard.sv(52) @ 65: uvm_test_top.env.scb [BRESP] Matched : exp_bresp= 0 actual_bresp=0 write = 1 read = 0
UVM_INFO axi4_lite_subscriber.sv(41) @ 95: uvm_test_top.env.sb [sb] INPUT COVERAGE = 31.25 %
UVM_INFO axi4_lite_inp_monitor.sv(44) @ 95: uvm_test_top.env.aa.inp_mon [INPUT MONITOR]  WRITE awaddr=00000010 wdata=042d86fe wstrb=1111 
UVM_INFO axi4_lite_out_monitor.sv(28) @ 115: uvm_test_top.env.pa.out_mon [OUTPUT MONITOR] BRESP = 0 RRESP = 0 RDATA = 00000000
UVM_INFO axi4_lite_driver.sv(34) @ 115: uvm_test_top.env.aa.drv [DRV] awaddr = 00000010 wdata = 042d86fe wstrb = f araddr = 54343ae4
UVM_INFO axi4_lite_scoreboard.sv(52) @ 115: uvm_test_top.env.scb [BRESP] Matched : exp_bresp= 0 actual_bresp=0 write = 1 read = 0
UVM_INFO axi4_lite_subscriber.sv(41) @ 165: uvm_test_top.env.sb [sb] INPUT COVERAGE = 39.58 %
UVM_INFO axi4_lite_inp_monitor.sv(44) @ 165: uvm_test_top.env.aa.inp_mon [INPUT MONITOR]  WRITE awaddr=00000004 wdata=81d8d677 wstrb=0110 
UVM_INFO axi4_lite_out_monitor.sv(28) @ 185: uvm_test_top.env.pa.out_mon [OUTPUT MONITOR] BRESP = 0 RRESP = 0 RDATA = 00000000
UVM_INFO axi4_lite_driver.sv(34) @ 185: uvm_test_top.env.aa.drv [DRV] awaddr = 00000004 wdata = 81d8d677 wstrb = 6 araddr = 36b07c84
UVM_INFO axi4_lite_scoreboard.sv(52) @ 185: uvm_test_top.env.scb [BRESP] Matched : exp_bresp= 0 actual_bresp=0 write = 1 read = 0
UVM_INFO axi4_lite_subscriber.sv(41) @ 205: uvm_test_top.env.sb [sb] INPUT COVERAGE = 47.92 %
UVM_INFO axi4_lite_inp_monitor.sv(44) @ 205: uvm_test_top.env.aa.inp_mon [INPUT MONITOR]  WRITE awaddr=00000000 wdata=d6d8d48b wstrb=1110 
UVM_INFO axi4_lite_out_monitor.sv(28) @ 225: uvm_test_top.env.pa.out_mon [OUTPUT MONITOR] BRESP = 0 RRESP = 0 RDATA = 00000000
UVM_INFO axi4_lite_driver.sv(34) @ 225: uvm_test_top.env.aa.drv [DRV] awaddr = 00000000 wdata = d6d8d48b wstrb = e araddr = 91dd93e8
UVM_INFO axi4_lite_scoreboard.sv(52) @ 225: uvm_test_top.env.scb [BRESP] Matched : exp_bresp= 0 actual_bresp=0 write = 1 read = 0
UVM_INFO axi4_lite_subscriber.sv(41) @ 255: uvm_test_top.env.sb [sb] INPUT COVERAGE = 47.92 %
UVM_INFO axi4_lite_inp_monitor.sv(44) @ 255: uvm_test_top.env.aa.inp_mon [INPUT MONITOR]  WRITE awaddr=00000000 wdata=82dad5b7 wstrb=1010 
UVM_INFO axi4_lite_out_monitor.sv(28) @ 275: uvm_test_top.env.pa.out_mon [OUTPUT MONITOR] BRESP = 0 RRESP = 0 RDATA = 00000000
UVM_INFO axi4_lite_driver.sv(34) @ 275: uvm_test_top.env.aa.drv [DRV] awaddr = 00000000 wdata = 82dad5b7 wstrb = a araddr = d109e63c
UVM_INFO axi4_lite_scoreboard.sv(52) @ 275: uvm_test_top.env.scb [BRESP] Matched : exp_bresp= 0 actual_bresp=0 write = 1 read = 0
UVM_INFO axi4_lite_subscriber.sv(41) @ 325: uvm_test_top.env.sb [sb] INPUT COVERAGE = 51.04 %
UVM_INFO axi4_lite_inp_monitor.sv(44) @ 325: uvm_test_top.env.aa.inp_mon [INPUT MONITOR]  WRITE awaddr=0000000c wdata=b48a6cf7 wstrb=1000 
UVM_INFO axi4_lite_out_monitor.sv(28) @ 345: uvm_test_top.env.pa.out_mon [OUTPUT MONITOR] BRESP = 0 RRESP = 0 RDATA = 00000000
UVM_INFO axi4_lite_driver.sv(34) @ 345: uvm_test_top.env.aa.drv [DRV] awaddr = 0000000c wdata = b48a6cf7 wstrb = 8 araddr = be5f8534
UVM_INFO axi4_lite_scoreboard.sv(52) @ 345: uvm_test_top.env.scb [BRESP] Matched : exp_bresp= 0 actual_bresp=0 write = 1 read = 0
UVM_INFO axi4_lite_subscriber.sv(41) @ 365: uvm_test_top.env.sb [sb] INPUT COVERAGE = 62.50 %
UVM_INFO axi4_lite_inp_monitor.sv(44) @ 365: uvm_test_top.env.aa.inp_mon [INPUT MONITOR]  WRITE awaddr=00000028 wdata=807a1bc4 wstrb=0011 
UVM_INFO axi4_lite_out_monitor.sv(28) @ 385: uvm_test_top.env.pa.out_mon [OUTPUT MONITOR] BRESP = 2 RRESP = 0 RDATA = 00000000
UVM_INFO axi4_lite_driver.sv(34) @ 385: uvm_test_top.env.aa.drv [DRV] awaddr = 00000028 wdata = 807a1bc4 wstrb = 3 araddr = 8a062bdc
UVM_INFO axi4_lite_scoreboard.sv(52) @ 385: uvm_test_top.env.scb [BRESP] Matched : exp_bresp= 2 actual_bresp=2 write = 1 read = 0
UVM_INFO axi4_lite_subscriber.sv(41) @ 425: uvm_test_top.env.sb [sb] INPUT COVERAGE = 62.50 %
UVM_INFO axi4_lite_inp_monitor.sv(44) @ 425: uvm_test_top.env.aa.inp_mon [INPUT MONITOR]  WRITE awaddr=00000024 wdata=b3c1b45e wstrb=0101 
UVM_INFO axi4_lite_out_monitor.sv(28) @ 445: uvm_test_top.env.pa.out_mon [OUTPUT MONITOR] BRESP = 0 RRESP = 0 RDATA = 00000000
UVM_INFO axi4_lite_driver.sv(34) @ 445: uvm_test_top.env.aa.drv [DRV] awaddr = 00000024 wdata = b3c1b45e wstrb = 5 araddr = 2850861c
UVM_INFO axi4_lite_scoreboard.sv(52) @ 445: uvm_test_top.env.scb [BRESP] Matched : exp_bresp= 0 actual_bresp=0 write = 1 read = 0
UVM_INFO axi4_lite_subscriber.sv(41) @ 475: uvm_test_top.env.sb [sb] INPUT COVERAGE = 62.50 %
UVM_INFO axi4_lite_inp_monitor.sv(44) @ 475: uvm_test_top.env.aa.inp_mon [INPUT MONITOR]  WRITE awaddr=0000002c wdata=b2232c11 wstrb=0110 
UVM_INFO axi4_lite_out_monitor.sv(28) @ 495: uvm_test_top.env.pa.out_mon [OUTPUT MONITOR] BRESP = 2 RRESP = 0 RDATA = 00000000
UVM_INFO axi4_lite_driver.sv(34) @ 495: uvm_test_top.env.aa.drv [DRV] awaddr = 0000002c wdata = b2232c11 wstrb = 6 araddr = eecbd3a0
UVM_INFO axi4_lite_scoreboard.sv(52) @ 495: uvm_test_top.env.scb [BRESP] Matched : exp_bresp= 2 actual_bresp=2 write = 1 read = 0
UVM_INFO axi4_lite_subscriber.sv(41) @ 525: uvm_test_top.env.sb [sb] INPUT COVERAGE = 62.50 %
UVM_INFO axi4_lite_inp_monitor.sv(44) @ 525: uvm_test_top.env.aa.inp_mon [INPUT MONITOR]  WRITE awaddr=00000008 wdata=7b79d99a wstrb=0110 
UVM_INFO axi4_lite_out_monitor.sv(28) @ 545: uvm_test_top.env.pa.out_mon [OUTPUT MONITOR] BRESP = 0 RRESP = 0 RDATA = 00000000
UVM_INFO axi4_lite_driver.sv(34) @ 545: uvm_test_top.env.aa.drv [DRV] awaddr = 00000008 wdata = 7b79d99a wstrb = 6 araddr = 2db6e24c
UVM_INFO axi4_lite_scoreboard.sv(52) @ 545: uvm_test_top.env.scb [BRESP] Matched : exp_bresp= 0 actual_bresp=0 write = 1 read = 0
UVM_INFO axi4_lite_subscriber.sv(41) @ 565: uvm_test_top.env.sb [sb] INPUT COVERAGE = 62.50 %
UVM_INFO axi4_lite_inp_monitor.sv(44) @ 565: uvm_test_top.env.aa.inp_mon [INPUT MONITOR]  WRITE awaddr=0000002c wdata=3f4382e6 wstrb=0101 
UVM_INFO axi4_lite_out_monitor.sv(28) @ 585: uvm_test_top.env.pa.out_mon [OUTPUT MONITOR] BRESP = 2 RRESP = 0 RDATA = 00000000
UVM_INFO axi4_lite_driver.sv(34) @ 585: uvm_test_top.env.aa.drv [DRV] awaddr = 0000002c wdata = 3f4382e6 wstrb = 5 araddr = 3a280238
UVM_INFO axi4_lite_scoreboard.sv(52) @ 585: uvm_test_top.env.scb [BRESP] Matched : exp_bresp= 2 actual_bresp=2 write = 1 read = 0
UVM_INFO axi4_lite_subscriber.sv(41) @ 615: uvm_test_top.env.sb [sb] INPUT COVERAGE = 70.83 %
UVM_INFO axi4_lite_inp_monitor.sv(44) @ 615: uvm_test_top.env.aa.inp_mon [INPUT MONITOR]  WRITE awaddr=00000034 wdata=c11f04e8 wstrb=0100 
UVM_INFO axi4_lite_out_monitor.sv(28) @ 635: uvm_test_top.env.pa.out_mon [OUTPUT MONITOR] BRESP = 0 RRESP = 0 RDATA = 00000000
UVM_INFO axi4_lite_driver.sv(34) @ 635: uvm_test_top.env.aa.drv [DRV] awaddr = 00000034 wdata = c11f04e8 wstrb = 4 araddr = cb961ea8
UVM_INFO axi4_lite_scoreboard.sv(52) @ 635: uvm_test_top.env.scb [BRESP] Matched : exp_bresp= 0 actual_bresp=0 write = 1 read = 0
UVM_INFO axi4_lite_subscriber.sv(41) @ 655: uvm_test_top.env.sb [sb] INPUT COVERAGE = 70.83 %
UVM_INFO axi4_lite_inp_monitor.sv(44) @ 655: uvm_test_top.env.aa.inp_mon [INPUT MONITOR]  WRITE awaddr=00000004 wdata=83c53d9d wstrb=1010 
UVM_INFO axi4_lite_out_monitor.sv(28) @ 675: uvm_test_top.env.pa.out_mon [OUTPUT MONITOR] BRESP = 0 RRESP = 0 RDATA = 00000000
UVM_INFO axi4_lite_driver.sv(34) @ 675: uvm_test_top.env.aa.drv [DRV] awaddr = 00000004 wdata = 83c53d9d wstrb = a araddr = acfa9bbc
UVM_INFO axi4_lite_scoreboard.sv(52) @ 675: uvm_test_top.env.scb [BRESP] Matched : exp_bresp= 0 actual_bresp=0 write = 1 read = 0
UVM_INFO axi4_lite_subscriber.sv(41) @ 715: uvm_test_top.env.sb [sb] INPUT COVERAGE = 70.83 %
UVM_INFO axi4_lite_inp_monitor.sv(44) @ 715: uvm_test_top.env.aa.inp_mon [INPUT MONITOR]  WRITE awaddr=00000004 wdata=527070c5 wstrb=1001 
UVM_INFO axi4_lite_out_monitor.sv(28) @ 735: uvm_test_top.env.pa.out_mon [OUTPUT MONITOR] BRESP = 0 RRESP = 0 RDATA = 00000000
UVM_INFO axi4_lite_driver.sv(34) @ 735: uvm_test_top.env.aa.drv [DRV] awaddr = 00000004 wdata = 527070c5 wstrb = 9 araddr = 172070a4
UVM_INFO axi4_lite_scoreboard.sv(52) @ 735: uvm_test_top.env.scb [BRESP] Matched : exp_bresp= 0 actual_bresp=0 write = 1 read = 0
UVM_INFO axi4_lite_subscriber.sv(41) @ 785: uvm_test_top.env.sb [sb] INPUT COVERAGE = 70.83 %
UVM_INFO axi4_lite_inp_monitor.sv(44) @ 785: uvm_test_top.env.aa.inp_mon [INPUT MONITOR]  WRITE awaddr=00000024 wdata=2acd73d7 wstrb=1000 
UVM_INFO axi4_lite_out_monitor.sv(28) @ 805: uvm_test_top.env.pa.out_mon [OUTPUT MONITOR] BRESP = 0 RRESP = 0 RDATA = 00000000
UVM_INFO axi4_lite_driver.sv(34) @ 805: uvm_test_top.env.aa.drv [DRV] awaddr = 00000024 wdata = 2acd73d7 wstrb = 8 araddr = 687e1478
UVM_INFO axi4_lite_scoreboard.sv(52) @ 805: uvm_test_top.env.scb [BRESP] Matched : exp_bresp= 0 actual_bresp=0 write = 1 read = 0
UVM_INFO axi4_lite_subscriber.sv(41) @ 855: uvm_test_top.env.sb [sb] INPUT COVERAGE = 70.83 %
UVM_INFO axi4_lite_inp_monitor.sv(44) @ 855: uvm_test_top.env.aa.inp_mon [INPUT MONITOR]  WRITE awaddr=0000002c wdata=7da8d8bc wstrb=1001 
UVM_INFO axi4_lite_out_monitor.sv(28) @ 875: uvm_test_top.env.pa.out_mon [OUTPUT MONITOR] BRESP = 2 RRESP = 0 RDATA = 00000000
UVM_INFO axi4_lite_driver.sv(34) @ 875: uvm_test_top.env.aa.drv [DRV] awaddr = 0000002c wdata = 7da8d8bc wstrb = 9 araddr = 6972010c
UVM_INFO axi4_lite_scoreboard.sv(52) @ 875: uvm_test_top.env.scb [BRESP] Matched : exp_bresp= 2 actual_bresp=2 write = 1 read = 0
UVM_INFO axi4_lite_subscriber.sv(41) @ 895: uvm_test_top.env.sb [sb] INPUT COVERAGE = 70.83 %
UVM_INFO axi4_lite_inp_monitor.sv(44) @ 895: uvm_test_top.env.aa.inp_mon [INPUT MONITOR]  WRITE awaddr=00000000 wdata=0ba519c8 wstrb=1101 
UVM_INFO axi4_lite_out_monitor.sv(28) @ 915: uvm_test_top.env.pa.out_mon [OUTPUT MONITOR] BRESP = 0 RRESP = 0 RDATA = 00000000
UVM_INFO axi4_lite_driver.sv(34) @ 915: uvm_test_top.env.aa.drv [DRV] awaddr = 00000000 wdata = 0ba519c8 wstrb = d araddr = d5439ca0
UVM_INFO axi4_lite_scoreboard.sv(52) @ 915: uvm_test_top.env.scb [BRESP] Matched : exp_bresp= 0 actual_bresp=0 write = 1 read = 0
UVM_INFO axi4_lite_subscriber.sv(41) @ 945: uvm_test_top.env.sb [sb] INPUT COVERAGE = 70.83 %
UVM_INFO axi4_lite_inp_monitor.sv(44) @ 945: uvm_test_top.env.aa.inp_mon [INPUT MONITOR]  WRITE awaddr=00000038 wdata=b76d30a3 wstrb=0110 
UVM_INFO axi4_lite_out_monitor.sv(28) @ 965: uvm_test_top.env.pa.out_mon [OUTPUT MONITOR] BRESP = 0 RRESP = 0 RDATA = 00000000
UVM_INFO axi4_lite_driver.sv(34) @ 965: uvm_test_top.env.aa.drv [DRV] awaddr = 00000038 wdata = b76d30a3 wstrb = 6 araddr = 864f0e40
UVM_INFO axi4_lite_scoreboard.sv(52) @ 965: uvm_test_top.env.scb [BRESP] Matched : exp_bresp= 0 actual_bresp=0 write = 1 read = 0
UVM_INFO axi4_lite_subscriber.sv(41) @ 1015: uvm_test_top.env.sb [sb] INPUT COVERAGE = 70.83 %
UVM_INFO axi4_lite_inp_monitor.sv(44) @ 1015: uvm_test_top.env.aa.inp_mon [INPUT MONITOR]  WRITE awaddr=0000000c wdata=5297dd91 wstrb=1001 
UVM_INFO axi4_lite_out_monitor.sv(28) @ 1035: uvm_test_top.env.pa.out_mon [OUTPUT MONITOR] BRESP = 0 RRESP = 0 RDATA = 00000000
UVM_INFO axi4_lite_driver.sv(34) @ 1035: uvm_test_top.env.aa.drv [DRV] awaddr = 0000000c wdata = 5297dd91 wstrb = 9 araddr = 1c196d98
UVM_INFO axi4_lite_scoreboard.sv(52) @ 1035: uvm_test_top.env.scb [BRESP] Matched : exp_bresp= 0 actual_bresp=0 write = 1 read = 0
UVM_INFO axi4_lite_subscriber.sv(41) @ 1065: uvm_test_top.env.sb [sb] INPUT COVERAGE = 70.83 %
UVM_INFO axi4_lite_inp_monitor.sv(44) @ 1065: uvm_test_top.env.aa.inp_mon [INPUT MONITOR]  WRITE awaddr=00000010 wdata=d51c83f0 wstrb=1111 
UVM_INFO axi4_lite_out_monitor.sv(28) @ 1085: uvm_test_top.env.pa.out_mon [OUTPUT MONITOR] BRESP = 0 RRESP = 0 RDATA = 00000000
UVM_INFO axi4_lite_driver.sv(34) @ 1085: uvm_test_top.env.aa.drv [DRV] awaddr = 00000010 wdata = d51c83f0 wstrb = f araddr = edd5691c
UVM_INFO axi4_lite_scoreboard.sv(52) @ 1085: uvm_test_top.env.scb [BRESP] Matched : exp_bresp= 0 actual_bresp=0 write = 1 read = 0
UVM_INFO axi4_lite_subscriber.sv(41) @ 1105: uvm_test_top.env.sb [sb] INPUT COVERAGE = 70.83 %
UVM_INFO axi4_lite_inp_monitor.sv(44) @ 1105: uvm_test_top.env.aa.inp_mon [INPUT MONITOR]  WRITE awaddr=0000000c wdata=2b80d75e wstrb=1010 
UVM_INFO axi4_lite_out_monitor.sv(28) @ 1125: uvm_test_top.env.pa.out_mon [OUTPUT MONITOR] BRESP = 0 RRESP = 0 RDATA = 00000000
UVM_INFO axi4_lite_driver.sv(34) @ 1125: uvm_test_top.env.aa.drv [DRV] awaddr = 0000000c wdata = 2b80d75e wstrb = a araddr = 53ae0784
UVM_INFO axi4_lite_scoreboard.sv(52) @ 1125: uvm_test_top.env.scb [BRESP] Matched : exp_bresp= 0 actual_bresp=0 write = 1 read = 0
UVM_INFO axi4_lite_subscriber.sv(41) @ 1165: uvm_test_top.env.sb [sb] INPUT COVERAGE = 70.83 %
UVM_INFO axi4_lite_inp_monitor.sv(44) @ 1165: uvm_test_top.env.aa.inp_mon [INPUT MONITOR]  WRITE awaddr=00000000 wdata=7afa6f5b wstrb=0110 
UVM_INFO axi4_lite_out_monitor.sv(28) @ 1185: uvm_test_top.env.pa.out_mon [OUTPUT MONITOR] BRESP = 0 RRESP = 0 RDATA = 00000000
UVM_INFO axi4_lite_driver.sv(34) @ 1185: uvm_test_top.env.aa.drv [DRV] awaddr = 00000000 wdata = 7afa6f5b wstrb = 6 araddr = ffca2610
UVM_INFO axi4_lite_scoreboard.sv(52) @ 1185: uvm_test_top.env.scb [BRESP] Matched : exp_bresp= 0 actual_bresp=0 write = 1 read = 0
UVM_INFO axi4_lite_subscriber.sv(41) @ 1205: uvm_test_top.env.sb [sb] INPUT COVERAGE = 70.83 %
UVM_INFO axi4_lite_inp_monitor.sv(44) @ 1205: uvm_test_top.env.aa.inp_mon [INPUT MONITOR]  WRITE awaddr=0000001c wdata=ecb54f12 wstrb=0111 
UVM_INFO axi4_lite_out_monitor.sv(28) @ 1225: uvm_test_top.env.pa.out_mon [OUTPUT MONITOR] BRESP = 0 RRESP = 0 RDATA = 00000000
UVM_INFO axi4_lite_driver.sv(34) @ 1225: uvm_test_top.env.aa.drv [DRV] awaddr = 0000001c wdata = ecb54f12 wstrb = 7 araddr = 7d6c1428
UVM_INFO axi4_lite_scoreboard.sv(52) @ 1225: uvm_test_top.env.scb [BRESP] Matched : exp_bresp= 0 actual_bresp=0 write = 1 read = 0
UVM_INFO axi4_lite_subscriber.sv(41) @ 1255: uvm_test_top.env.sb [sb] INPUT COVERAGE = 70.83 %
UVM_INFO axi4_lite_inp_monitor.sv(44) @ 1255: uvm_test_top.env.aa.inp_mon [INPUT MONITOR]  WRITE awaddr=00000020 wdata=a79a0032 wstrb=0101 
UVM_INFO axi4_lite_out_monitor.sv(28) @ 1275: uvm_test_top.env.pa.out_mon [OUTPUT MONITOR] BRESP = 0 RRESP = 0 RDATA = 00000000
UVM_INFO axi4_lite_driver.sv(34) @ 1275: uvm_test_top.env.aa.drv [DRV] awaddr = 00000020 wdata = a79a0032 wstrb = 5 araddr = 10275ea4
UVM_INFO axi4_lite_scoreboard.sv(52) @ 1275: uvm_test_top.env.scb [BRESP] Matched : exp_bresp= 0 actual_bresp=0 write = 1 read = 0
UVM_INFO axi4_lite_subscriber.sv(41) @ 1295: uvm_test_top.env.sb [sb] INPUT COVERAGE = 70.83 %
UVM_INFO axi4_lite_inp_monitor.sv(44) @ 1295: uvm_test_top.env.aa.inp_mon [INPUT MONITOR]  WRITE awaddr=00000034 wdata=5b9decec wstrb=1001 
UVM_INFO axi4_lite_out_monitor.sv(28) @ 1315: uvm_test_top.env.pa.out_mon [OUTPUT MONITOR] BRESP = 0 RRESP = 0 RDATA = 00000000
UVM_INFO axi4_lite_driver.sv(34) @ 1315: uvm_test_top.env.aa.drv [DRV] awaddr = 00000034 wdata = 5b9decec wstrb = 9 araddr = f159c040
UVM_INFO axi4_lite_scoreboard.sv(52) @ 1315: uvm_test_top.env.scb [BRESP] Matched : exp_bresp= 0 actual_bresp=0 write = 1 read = 0
UVM_INFO axi4_lite_subscriber.sv(41) @ 1335: uvm_test_top.env.sb [sb] INPUT COVERAGE = 73.96 %
UVM_INFO axi4_lite_inp_monitor.sv(44) @ 1335: uvm_test_top.env.aa.inp_mon [INPUT MONITOR]  WRITE awaddr=00000028 wdata=5c570b90 wstrb=0000 
UVM_INFO axi4_lite_out_monitor.sv(28) @ 1355: uvm_test_top.env.pa.out_mon [OUTPUT MONITOR] BRESP = 2 RRESP = 0 RDATA = 00000000
UVM_INFO axi4_lite_driver.sv(34) @ 1355: uvm_test_top.env.aa.drv [DRV] awaddr = 00000028 wdata = 5c570b90 wstrb = 0 araddr = 258d4384
UVM_INFO axi4_lite_scoreboard.sv(52) @ 1355: uvm_test_top.env.scb [BRESP] Matched : exp_bresp= 2 actual_bresp=2 write = 1 read = 0
UVM_INFO axi4_lite_subscriber.sv(41) @ 1405: uvm_test_top.env.sb [sb] INPUT COVERAGE = 73.96 %
UVM_INFO axi4_lite_inp_monitor.sv(44) @ 1405: uvm_test_top.env.aa.inp_mon [INPUT MONITOR]  WRITE awaddr=00000030 wdata=62f89722 wstrb=1111 
UVM_INFO axi4_lite_out_monitor.sv(28) @ 1425: uvm_test_top.env.pa.out_mon [OUTPUT MONITOR] BRESP = 2 RRESP = 0 RDATA = 00000000
UVM_INFO axi4_lite_driver.sv(34) @ 1425: uvm_test_top.env.aa.drv [DRV] awaddr = 00000030 wdata = 62f89722 wstrb = f araddr = acd52b08
UVM_INFO axi4_lite_scoreboard.sv(52) @ 1425: uvm_test_top.env.scb [BRESP] Matched : exp_bresp= 2 actual_bresp=2 write = 1 read = 0
UVM_INFO axi4_lite_subscriber.sv(41) @ 1455: uvm_test_top.env.sb [sb] INPUT COVERAGE = 73.96 %
UVM_INFO axi4_lite_inp_monitor.sv(44) @ 1455: uvm_test_top.env.aa.inp_mon [INPUT MONITOR]  WRITE awaddr=00000008 wdata=28749d1e wstrb=1000 
UVM_INFO axi4_lite_out_monitor.sv(28) @ 1475: uvm_test_top.env.pa.out_mon [OUTPUT MONITOR] BRESP = 0 RRESP = 0 RDATA = 00000000
UVM_INFO axi4_lite_driver.sv(34) @ 1475: uvm_test_top.env.aa.drv [DRV] awaddr = 00000008 wdata = 28749d1e wstrb = 8 araddr = 4ee239a4
UVM_INFO axi4_lite_scoreboard.sv(52) @ 1475: uvm_test_top.env.scb [BRESP] Matched : exp_bresp= 0 actual_bresp=0 write = 1 read = 0
UVM_INFO axi4_lite_subscriber.sv(41) @ 1525: uvm_test_top.env.sb [sb] INPUT COVERAGE = 73.96 %
UVM_INFO axi4_lite_inp_monitor.sv(44) @ 1525: uvm_test_top.env.aa.inp_mon [INPUT MONITOR]  WRITE awaddr=00000030 wdata=0f13c821 wstrb=0111 
UVM_INFO axi4_lite_out_monitor.sv(28) @ 1545: uvm_test_top.env.pa.out_mon [OUTPUT MONITOR] BRESP = 2 RRESP = 0 RDATA = 00000000
UVM_INFO axi4_lite_driver.sv(34) @ 1545: uvm_test_top.env.aa.drv [DRV] awaddr = 00000030 wdata = 0f13c821 wstrb = 7 araddr = 0b22260c
UVM_INFO axi4_lite_scoreboard.sv(52) @ 1545: uvm_test_top.env.scb [BRESP] Matched : exp_bresp= 2 actual_bresp=2 write = 1 read = 0
UVM_INFO axi4_lite_subscriber.sv(41) @ 1575: uvm_test_top.env.sb [sb] INPUT COVERAGE = 73.96 %
UVM_INFO axi4_lite_inp_monitor.sv(44) @ 1575: uvm_test_top.env.aa.inp_mon [INPUT MONITOR]  WRITE awaddr=0000002c wdata=f0b4a20f wstrb=1010 
UVM_INFO axi4_lite_out_monitor.sv(28) @ 1595: uvm_test_top.env.pa.out_mon [OUTPUT MONITOR] BRESP = 2 RRESP = 0 RDATA = 00000000
UVM_INFO axi4_lite_driver.sv(34) @ 1595: uvm_test_top.env.aa.drv [DRV] awaddr = 0000002c wdata = f0b4a20f wstrb = a araddr = b8047fb8
UVM_INFO axi4_lite_scoreboard.sv(52) @ 1595: uvm_test_top.env.scb [BRESP] Matched : exp_bresp= 2 actual_bresp=2 write = 1 read = 0
UVM_INFO axi4_lite_subscriber.sv(41) @ 1645: uvm_test_top.env.sb [sb] INPUT COVERAGE = 73.96 %
UVM_INFO axi4_lite_inp_monitor.sv(44) @ 1645: uvm_test_top.env.aa.inp_mon [INPUT MONITOR]  WRITE awaddr=0000000c wdata=3fe530c7 wstrb=1111 
UVM_INFO axi4_lite_out_monitor.sv(28) @ 1665: uvm_test_top.env.pa.out_mon [OUTPUT MONITOR] BRESP = 0 RRESP = 0 RDATA = 00000000
UVM_INFO axi4_lite_driver.sv(34) @ 1665: uvm_test_top.env.aa.drv [DRV] awaddr = 0000000c wdata = 3fe530c7 wstrb = f araddr = 709e092c
UVM_INFO axi4_lite_scoreboard.sv(52) @ 1665: uvm_test_top.env.scb [BRESP] Matched : exp_bresp= 0 actual_bresp=0 write = 1 read = 0
UVM_INFO axi4_lite_subscriber.sv(41) @ 1695: uvm_test_top.env.sb [sb] INPUT COVERAGE = 77.08 %
UVM_INFO axi4_lite_inp_monitor.sv(44) @ 1695: uvm_test_top.env.aa.inp_mon [INPUT MONITOR]  WRITE awaddr=00000004 wdata=8fee8fbe wstrb=0010 
UVM_INFO axi4_lite_out_monitor.sv(28) @ 1715: uvm_test_top.env.pa.out_mon [OUTPUT MONITOR] BRESP = 0 RRESP = 0 RDATA = 00000000
UVM_INFO axi4_lite_driver.sv(34) @ 1715: uvm_test_top.env.aa.drv [DRV] awaddr = 00000004 wdata = 8fee8fbe wstrb = 2 araddr = 7920eb14
UVM_INFO axi4_lite_scoreboard.sv(52) @ 1715: uvm_test_top.env.scb [BRESP] Matched : exp_bresp= 0 actual_bresp=0 write = 1 read = 0
UVM_INFO axi4_lite_subscriber.sv(41) @ 1755: uvm_test_top.env.sb [sb] INPUT COVERAGE = 77.08 %
UVM_INFO axi4_lite_inp_monitor.sv(44) @ 1755: uvm_test_top.env.aa.inp_mon [INPUT MONITOR]  WRITE awaddr=00000008 wdata=3afbdc6d wstrb=0000 
UVM_INFO axi4_lite_out_monitor.sv(28) @ 1775: uvm_test_top.env.pa.out_mon [OUTPUT MONITOR] BRESP = 0 RRESP = 0 RDATA = 00000000
UVM_INFO axi4_lite_driver.sv(34) @ 1775: uvm_test_top.env.aa.drv [DRV] awaddr = 00000008 wdata = 3afbdc6d wstrb = 0 araddr = 02707950
UVM_INFO axi4_lite_scoreboard.sv(52) @ 1775: uvm_test_top.env.scb [BRESP] Matched : exp_bresp= 0 actual_bresp=0 write = 1 read = 0
UVM_INFO axi4_lite_subscriber.sv(41) @ 1825: uvm_test_top.env.sb [sb] INPUT COVERAGE = 77.08 %
UVM_INFO axi4_lite_inp_monitor.sv(44) @ 1825: uvm_test_top.env.aa.inp_mon [INPUT MONITOR]  WRITE awaddr=00000020 wdata=898d5f7c wstrb=0101 
UVM_INFO axi4_lite_out_monitor.sv(28) @ 1845: uvm_test_top.env.pa.out_mon [OUTPUT MONITOR] BRESP = 0 RRESP = 0 RDATA = 00000000
UVM_INFO axi4_lite_driver.sv(34) @ 1845: uvm_test_top.env.aa.drv [DRV] awaddr = 00000020 wdata = 898d5f7c wstrb = 5 araddr = 636ff230
UVM_INFO axi4_lite_scoreboard.sv(52) @ 1845: uvm_test_top.env.scb [BRESP] Matched : exp_bresp= 0 actual_bresp=0 write = 1 read = 0
UVM_INFO axi4_lite_subscriber.sv(41) @ 1885: uvm_test_top.env.sb [sb] INPUT COVERAGE = 77.08 %
UVM_INFO axi4_lite_inp_monitor.sv(44) @ 1885: uvm_test_top.env.aa.inp_mon [INPUT MONITOR]  WRITE awaddr=00000024 wdata=b3725013 wstrb=1001 
UVM_INFO axi4_lite_out_monitor.sv(28) @ 1905: uvm_test_top.env.pa.out_mon [OUTPUT MONITOR] BRESP = 0 RRESP = 0 RDATA = 00000000
UVM_INFO axi4_lite_driver.sv(34) @ 1905: uvm_test_top.env.aa.drv [DRV] awaddr = 00000024 wdata = b3725013 wstrb = 9 araddr = 003c0f44
UVM_INFO axi4_lite_scoreboard.sv(52) @ 1905: uvm_test_top.env.scb [BRESP] Matched : exp_bresp= 0 actual_bresp=0 write = 1 read = 0
UVM_INFO axi4_lite_subscriber.sv(41) @ 1945: uvm_test_top.env.sb [sb] INPUT COVERAGE = 77.08 %
UVM_INFO axi4_lite_inp_monitor.sv(44) @ 1945: uvm_test_top.env.aa.inp_mon [INPUT MONITOR]  WRITE awaddr=0000000c wdata=a49aa96a wstrb=1111 
UVM_INFO axi4_lite_out_monitor.sv(28) @ 1965: uvm_test_top.env.pa.out_mon [OUTPUT MONITOR] BRESP = 0 RRESP = 0 RDATA = 00000000
UVM_INFO axi4_lite_driver.sv(34) @ 1965: uvm_test_top.env.aa.drv [DRV] awaddr = 0000000c wdata = a49aa96a wstrb = f araddr = 3ebc7d70
UVM_INFO axi4_lite_scoreboard.sv(52) @ 1965: uvm_test_top.env.scb [BRESP] Matched : exp_bresp= 0 actual_bresp=0 write = 1 read = 0
UVM_INFO axi4_lite_subscriber.sv(41) @ 1985: uvm_test_top.env.sb [sb] INPUT COVERAGE = 77.08 %
UVM_INFO axi4_lite_inp_monitor.sv(44) @ 1985: uvm_test_top.env.aa.inp_mon [INPUT MONITOR]  WRITE awaddr=0000001c wdata=5670f998 wstrb=0101 
UVM_INFO axi4_lite_out_monitor.sv(28) @ 2005: uvm_test_top.env.pa.out_mon [OUTPUT MONITOR] BRESP = 0 RRESP = 0 RDATA = 00000000
UVM_INFO axi4_lite_driver.sv(34) @ 2005: uvm_test_top.env.aa.drv [DRV] awaddr = 0000001c wdata = 5670f998 wstrb = 5 araddr = 01ec592c
UVM_INFO axi4_lite_scoreboard.sv(52) @ 2005: uvm_test_top.env.scb [BRESP] Matched : exp_bresp= 0 actual_bresp=0 write = 1 read = 0
UVM_INFO axi4_lite_subscriber.sv(41) @ 2025: uvm_test_top.env.sb [sb] INPUT COVERAGE = 77.08 %
UVM_INFO axi4_lite_inp_monitor.sv(44) @ 2025: uvm_test_top.env.aa.inp_mon [INPUT MONITOR]  WRITE awaddr=00000028 wdata=a59bf311 wstrb=1000 
UVM_INFO axi4_lite_out_monitor.sv(28) @ 2045: uvm_test_top.env.pa.out_mon [OUTPUT MONITOR] BRESP = 2 RRESP = 0 RDATA = 00000000
UVM_INFO axi4_lite_driver.sv(34) @ 2045: uvm_test_top.env.aa.drv [DRV] awaddr = 00000028 wdata = a59bf311 wstrb = 8 araddr = cc31dc78
UVM_INFO axi4_lite_scoreboard.sv(52) @ 2045: uvm_test_top.env.scb [BRESP] Matched : exp_bresp= 2 actual_bresp=2 write = 1 read = 0
UVM_INFO axi4_lite_subscriber.sv(41) @ 2085: uvm_test_top.env.sb [sb] INPUT COVERAGE = 77.08 %
UVM_INFO axi4_lite_inp_monitor.sv(44) @ 2085: uvm_test_top.env.aa.inp_mon [INPUT MONITOR]  WRITE awaddr=0000002c wdata=b85ba22a wstrb=0010 
UVM_INFO axi4_lite_out_monitor.sv(28) @ 2105: uvm_test_top.env.pa.out_mon [OUTPUT MONITOR] BRESP = 2 RRESP = 0 RDATA = 00000000
UVM_INFO axi4_lite_driver.sv(34) @ 2105: uvm_test_top.env.aa.drv [DRV] awaddr = 0000002c wdata = b85ba22a wstrb = 2 araddr = 7ed1928c
UVM_INFO axi4_lite_scoreboard.sv(52) @ 2105: uvm_test_top.env.scb [BRESP] Matched : exp_bresp= 2 actual_bresp=2 write = 1 read = 0
UVM_INFO axi4_lite_subscriber.sv(41) @ 2155: uvm_test_top.env.sb [sb] INPUT COVERAGE = 77.08 %
UVM_INFO axi4_lite_inp_monitor.sv(44) @ 2155: uvm_test_top.env.aa.inp_mon [INPUT MONITOR]  WRITE awaddr=00000030 wdata=ecf28ce4 wstrb=1110 
UVM_INFO axi4_lite_out_monitor.sv(28) @ 2175: uvm_test_top.env.pa.out_mon [OUTPUT MONITOR] BRESP = 2 RRESP = 0 RDATA = 00000000
UVM_INFO axi4_lite_driver.sv(34) @ 2175: uvm_test_top.env.aa.drv [DRV] awaddr = 00000030 wdata = ecf28ce4 wstrb = e araddr = 4e950a94
UVM_INFO axi4_lite_scoreboard.sv(52) @ 2175: uvm_test_top.env.scb [BRESP] Matched : exp_bresp= 2 actual_bresp=2 write = 1 read = 0
UVM_INFO axi4_lite_subscriber.sv(41) @ 2195: uvm_test_top.env.sb [sb] INPUT COVERAGE = 77.08 %
UVM_INFO axi4_lite_inp_monitor.sv(44) @ 2195: uvm_test_top.env.aa.inp_mon [INPUT MONITOR]  WRITE awaddr=00000034 wdata=3ff562fb wstrb=1110 
UVM_INFO axi4_lite_out_monitor.sv(28) @ 2215: uvm_test_top.env.pa.out_mon [OUTPUT MONITOR] BRESP = 0 RRESP = 0 RDATA = 00000000
UVM_INFO axi4_lite_driver.sv(34) @ 2215: uvm_test_top.env.aa.drv [DRV] awaddr = 00000034 wdata = 3ff562fb wstrb = e araddr = 10b5a960
UVM_INFO axi4_lite_scoreboard.sv(52) @ 2215: uvm_test_top.env.scb [BRESP] Matched : exp_bresp= 0 actual_bresp=0 write = 1 read = 0
UVM_INFO axi4_lite_subscriber.sv(41) @ 2235: uvm_test_top.env.sb [sb] INPUT COVERAGE = 77.08 %
UVM_INFO axi4_lite_inp_monitor.sv(44) @ 2235: uvm_test_top.env.aa.inp_mon [INPUT MONITOR]  WRITE awaddr=00000034 wdata=2c7dfea8 wstrb=1110 
UVM_INFO axi4_lite_out_monitor.sv(28) @ 2255: uvm_test_top.env.pa.out_mon [OUTPUT MONITOR] BRESP = 0 RRESP = 0 RDATA = 00000000
UVM_INFO axi4_lite_driver.sv(34) @ 2255: uvm_test_top.env.aa.drv [DRV] awaddr = 00000034 wdata = 2c7dfea8 wstrb = e araddr = f10d3d7c
UVM_INFO axi4_lite_scoreboard.sv(52) @ 2255: uvm_test_top.env.scb [BRESP] Matched : exp_bresp= 0 actual_bresp=0 write = 1 read = 0
UVM_INFO axi4_lite_subscriber.sv(41) @ 2305: uvm_test_top.env.sb [sb] INPUT COVERAGE = 80.21 %
UVM_INFO axi4_lite_inp_monitor.sv(44) @ 2305: uvm_test_top.env.aa.inp_mon [INPUT MONITOR]  WRITE awaddr=00000008 wdata=95adf1bd wstrb=1100 
UVM_INFO axi4_lite_out_monitor.sv(28) @ 2325: uvm_test_top.env.pa.out_mon [OUTPUT MONITOR] BRESP = 0 RRESP = 0 RDATA = 00000000
UVM_INFO axi4_lite_driver.sv(34) @ 2325: uvm_test_top.env.aa.drv [DRV] awaddr = 00000008 wdata = 95adf1bd wstrb = c araddr = bd546a78
UVM_INFO axi4_lite_scoreboard.sv(52) @ 2325: uvm_test_top.env.scb [BRESP] Matched : exp_bresp= 0 actual_bresp=0 write = 1 read = 0
UVM_INFO axi4_lite_subscriber.sv(41) @ 2375: uvm_test_top.env.sb [sb] INPUT COVERAGE = 80.21 %
UVM_INFO axi4_lite_inp_monitor.sv(44) @ 2375: uvm_test_top.env.aa.inp_mon [INPUT MONITOR]  WRITE awaddr=00000034 wdata=432496fc wstrb=1000 
UVM_INFO axi4_lite_out_monitor.sv(28) @ 2395: uvm_test_top.env.pa.out_mon [OUTPUT MONITOR] BRESP = 0 RRESP = 0 RDATA = 00000000
UVM_INFO axi4_lite_driver.sv(34) @ 2395: uvm_test_top.env.aa.drv [DRV] awaddr = 00000034 wdata = 432496fc wstrb = 8 araddr = 7fcfe4bc
UVM_INFO axi4_lite_scoreboard.sv(52) @ 2395: uvm_test_top.env.scb [BRESP] Matched : exp_bresp= 0 actual_bresp=0 write = 1 read = 0
UVM_INFO axi4_lite_subscriber.sv(41) @ 2415: uvm_test_top.env.sb [sb] INPUT COVERAGE = 80.21 %
UVM_INFO axi4_lite_inp_monitor.sv(44) @ 2415: uvm_test_top.env.aa.inp_mon [INPUT MONITOR]  WRITE awaddr=00000008 wdata=e8d7e109 wstrb=0101 
UVM_INFO axi4_lite_out_monitor.sv(28) @ 2435: uvm_test_top.env.pa.out_mon [OUTPUT MONITOR] BRESP = 0 RRESP = 0 RDATA = 00000000
UVM_INFO axi4_lite_driver.sv(34) @ 2435: uvm_test_top.env.aa.drv [DRV] awaddr = 00000008 wdata = e8d7e109 wstrb = 5 araddr = 39a9bd94
UVM_INFO axi4_lite_scoreboard.sv(52) @ 2435: uvm_test_top.env.scb [BRESP] Matched : exp_bresp= 0 actual_bresp=0 write = 1 read = 0
UVM_INFO axi4_lite_subscriber.sv(41) @ 2475: uvm_test_top.env.sb [sb] INPUT COVERAGE = 80.21 %
UVM_INFO axi4_lite_inp_monitor.sv(44) @ 2475: uvm_test_top.env.aa.inp_mon [INPUT MONITOR]  WRITE awaddr=00000038 wdata=dfacb57e wstrb=1111 
UVM_INFO axi4_lite_out_monitor.sv(28) @ 2495: uvm_test_top.env.pa.out_mon [OUTPUT MONITOR] BRESP = 0 RRESP = 0 RDATA = 00000000
UVM_INFO axi4_lite_driver.sv(34) @ 2495: uvm_test_top.env.aa.drv [DRV] awaddr = 00000038 wdata = dfacb57e wstrb = f araddr = c7175504
UVM_INFO axi4_lite_scoreboard.sv(52) @ 2495: uvm_test_top.env.scb [BRESP] Matched : exp_bresp= 0 actual_bresp=0 write = 1 read = 0
UVM_INFO axi4_lite_subscriber.sv(41) @ 2525: uvm_test_top.env.sb [sb] INPUT COVERAGE = 80.21 %
UVM_INFO axi4_lite_inp_monitor.sv(44) @ 2525: uvm_test_top.env.aa.inp_mon [INPUT MONITOR]  WRITE awaddr=00000004 wdata=80c515bb wstrb=1101 
UVM_INFO axi4_lite_out_monitor.sv(28) @ 2545: uvm_test_top.env.pa.out_mon [OUTPUT MONITOR] BRESP = 0 RRESP = 0 RDATA = 00000000
UVM_INFO axi4_lite_driver.sv(34) @ 2545: uvm_test_top.env.aa.drv [DRV] awaddr = 00000004 wdata = 80c515bb wstrb = d araddr = 6af62a68
UVM_INFO axi4_lite_scoreboard.sv(52) @ 2545: uvm_test_top.env.scb [BRESP] Matched : exp_bresp= 0 actual_bresp=0 write = 1 read = 0
UVM_INFO axi4_lite_subscriber.sv(41) @ 2575: uvm_test_top.env.sb [sb] INPUT COVERAGE = 80.21 %
UVM_INFO axi4_lite_inp_monitor.sv(44) @ 2575: uvm_test_top.env.aa.inp_mon [INPUT MONITOR]  WRITE awaddr=0000002c wdata=34e25391 wstrb=1111 
UVM_INFO axi4_lite_out_monitor.sv(28) @ 2595: uvm_test_top.env.pa.out_mon [OUTPUT MONITOR] BRESP = 2 RRESP = 0 RDATA = 00000000
UVM_INFO axi4_lite_driver.sv(34) @ 2595: uvm_test_top.env.aa.drv [DRV] awaddr = 0000002c wdata = 34e25391 wstrb = f araddr = 6230c2e0
UVM_INFO axi4_lite_scoreboard.sv(52) @ 2595: uvm_test_top.env.scb [BRESP] Matched : exp_bresp= 2 actual_bresp=2 write = 1 read = 0
UVM_INFO axi4_lite_subscriber.sv(41) @ 2645: uvm_test_top.env.sb [sb] INPUT COVERAGE = 80.21 %
UVM_INFO axi4_lite_inp_monitor.sv(44) @ 2645: uvm_test_top.env.aa.inp_mon [INPUT MONITOR]  WRITE awaddr=00000008 wdata=3369e910 wstrb=1101 
UVM_INFO axi4_lite_out_monitor.sv(28) @ 2665: uvm_test_top.env.pa.out_mon [OUTPUT MONITOR] BRESP = 0 RRESP = 0 RDATA = 00000000
UVM_INFO axi4_lite_driver.sv(34) @ 2665: uvm_test_top.env.aa.drv [DRV] awaddr = 00000008 wdata = 3369e910 wstrb = d araddr = 3e3200ac
UVM_INFO axi4_lite_scoreboard.sv(52) @ 2665: uvm_test_top.env.scb [BRESP] Matched : exp_bresp= 0 actual_bresp=0 write = 1 read = 0
UVM_INFO axi4_lite_subscriber.sv(41) @ 2685: uvm_test_top.env.sb [sb] INPUT COVERAGE = 80.21 %
UVM_INFO axi4_lite_inp_monitor.sv(44) @ 2685: uvm_test_top.env.aa.inp_mon [INPUT MONITOR]  WRITE awaddr=00000020 wdata=d131a9e8 wstrb=1011 
UVM_INFO axi4_lite_out_monitor.sv(28) @ 2705: uvm_test_top.env.pa.out_mon [OUTPUT MONITOR] BRESP = 0 RRESP = 0 RDATA = 00000000
UVM_INFO axi4_lite_driver.sv(34) @ 2705: uvm_test_top.env.aa.drv [DRV] awaddr = 00000020 wdata = d131a9e8 wstrb = b araddr = 7fd0da74
UVM_INFO axi4_lite_scoreboard.sv(52) @ 2705: uvm_test_top.env.scb [BRESP] Matched : exp_bresp= 0 actual_bresp=0 write = 1 read = 0
UVM_INFO axi4_lite_subscriber.sv(41) @ 2745: uvm_test_top.env.sb [sb] INPUT COVERAGE = 80.21 %
UVM_INFO axi4_lite_inp_monitor.sv(44) @ 2745: uvm_test_top.env.aa.inp_mon [INPUT MONITOR]  WRITE awaddr=00000018 wdata=74c98696 wstrb=1111 
UVM_INFO axi4_lite_out_monitor.sv(28) @ 2765: uvm_test_top.env.pa.out_mon [OUTPUT MONITOR] BRESP = 0 RRESP = 0 RDATA = 00000000
UVM_INFO axi4_lite_driver.sv(34) @ 2765: uvm_test_top.env.aa.drv [DRV] awaddr = 00000018 wdata = 74c98696 wstrb = f araddr = bd6d0cdc
UVM_INFO axi4_lite_scoreboard.sv(52) @ 2765: uvm_test_top.env.scb [BRESP] Matched : exp_bresp= 0 actual_bresp=0 write = 1 read = 0
UVM_INFO axi4_lite_subscriber.sv(41) @ 2805: uvm_test_top.env.sb [sb] INPUT COVERAGE = 80.21 %
UVM_INFO axi4_lite_inp_monitor.sv(44) @ 2805: uvm_test_top.env.aa.inp_mon [INPUT MONITOR]  WRITE awaddr=00000024 wdata=4f851013 wstrb=1111 
UVM_INFO axi4_lite_out_monitor.sv(28) @ 2825: uvm_test_top.env.pa.out_mon [OUTPUT MONITOR] BRESP = 0 RRESP = 0 RDATA = 00000000
UVM_INFO axi4_lite_driver.sv(34) @ 2825: uvm_test_top.env.aa.drv [DRV] awaddr = 00000024 wdata = 4f851013 wstrb = f araddr = 8bb91c3c
UVM_INFO axi4_lite_scoreboard.sv(52) @ 2825: uvm_test_top.env.scb [BRESP] Matched : exp_bresp= 0 actual_bresp=0 write = 1 read = 0
UVM_INFO axi4_lite_subscriber.sv(41) @ 2865: uvm_test_top.env.sb [sb] INPUT COVERAGE = 83.33 %
UVM_INFO axi4_lite_inp_monitor.sv(44) @ 2865: uvm_test_top.env.aa.inp_mon [INPUT MONITOR]  WRITE awaddr=0000000c wdata=79914acb wstrb=0001 
UVM_INFO axi4_lite_out_monitor.sv(28) @ 2885: uvm_test_top.env.pa.out_mon [OUTPUT MONITOR] BRESP = 0 RRESP = 0 RDATA = 00000000
UVM_INFO axi4_lite_driver.sv(34) @ 2885: uvm_test_top.env.aa.drv [DRV] awaddr = 0000000c wdata = 79914acb wstrb = 1 araddr = d156f870
UVM_INFO axi4_lite_scoreboard.sv(52) @ 2885: uvm_test_top.env.scb [BRESP] Matched : exp_bresp= 0 actual_bresp=0 write = 1 read = 0
UVM_INFO axi4_lite_subscriber.sv(41) @ 2915: uvm_test_top.env.sb [sb] INPUT COVERAGE = 83.33 %
UVM_INFO axi4_lite_inp_monitor.sv(44) @ 2915: uvm_test_top.env.aa.inp_mon [INPUT MONITOR]  WRITE awaddr=00000014 wdata=02590f72 wstrb=1110 
UVM_INFO axi4_lite_out_monitor.sv(28) @ 2935: uvm_test_top.env.pa.out_mon [OUTPUT MONITOR] BRESP = 0 RRESP = 0 RDATA = 00000000
UVM_INFO axi4_lite_driver.sv(34) @ 2935: uvm_test_top.env.aa.drv [DRV] awaddr = 00000014 wdata = 02590f72 wstrb = e araddr = 59b8a6d0
UVM_INFO axi4_lite_scoreboard.sv(52) @ 2935: uvm_test_top.env.scb [BRESP] Matched : exp_bresp= 0 actual_bresp=0 write = 1 read = 0
UVM_INFO axi4_lite_subscriber.sv(41) @ 2955: uvm_test_top.env.sb [sb] INPUT COVERAGE = 83.33 %
UVM_INFO axi4_lite_inp_monitor.sv(44) @ 2955: uvm_test_top.env.aa.inp_mon [INPUT MONITOR]  WRITE awaddr=00000004 wdata=b2434857 wstrb=0111 
UVM_INFO axi4_lite_out_monitor.sv(28) @ 2975: uvm_test_top.env.pa.out_mon [OUTPUT MONITOR] BRESP = 0 RRESP = 0 RDATA = 00000000
UVM_INFO axi4_lite_driver.sv(34) @ 2975: uvm_test_top.env.aa.drv [DRV] awaddr = 00000004 wdata = b2434857 wstrb = 7 araddr = ef3008c0
UVM_INFO axi4_lite_scoreboard.sv(52) @ 2975: uvm_test_top.env.scb [BRESP] Matched : exp_bresp= 0 actual_bresp=0 write = 1 read = 0
UVM_INFO axi4_lite_subscriber.sv(41) @ 3005: uvm_test_top.env.sb [sb] INPUT COVERAGE = 83.33 %
UVM_INFO axi4_lite_inp_monitor.sv(44) @ 3005: uvm_test_top.env.aa.inp_mon [INPUT MONITOR]  WRITE awaddr=00000018 wdata=f91e6a1c wstrb=0111 
UVM_INFO axi4_lite_out_monitor.sv(28) @ 3025: uvm_test_top.env.pa.out_mon [OUTPUT MONITOR] BRESP = 0 RRESP = 0 RDATA = 00000000
UVM_INFO axi4_lite_driver.sv(34) @ 3025: uvm_test_top.env.aa.drv [DRV] awaddr = 00000018 wdata = f91e6a1c wstrb = 7 araddr = b1ccd824
UVM_INFO axi4_lite_scoreboard.sv(52) @ 3025: uvm_test_top.env.scb [BRESP] Matched : exp_bresp= 0 actual_bresp=0 write = 1 read = 0
UVM_INFO axi4_lite_subscriber.sv(41) @ 3075: uvm_test_top.env.sb [sb] INPUT COVERAGE = 83.33 %
UVM_INFO axi4_lite_inp_monitor.sv(44) @ 3075: uvm_test_top.env.aa.inp_mon [INPUT MONITOR]  WRITE awaddr=00000008 wdata=0dbc0f11 wstrb=1101 
UVM_INFO axi4_lite_out_monitor.sv(28) @ 3095: uvm_test_top.env.pa.out_mon [OUTPUT MONITOR] BRESP = 0 RRESP = 0 RDATA = 00000000
UVM_INFO axi4_lite_driver.sv(34) @ 3095: uvm_test_top.env.aa.drv [DRV] awaddr = 00000008 wdata = 0dbc0f11 wstrb = d araddr = 4f4374f4
UVM_INFO axi4_lite_scoreboard.sv(52) @ 3095: uvm_test_top.env.scb [BRESP] Matched : exp_bresp= 0 actual_bresp=0 write = 1 read = 0
UVM_INFO axi4_lite_subscriber.sv(41) @ 3135: uvm_test_top.env.sb [sb] INPUT COVERAGE = 83.33 %
UVM_INFO axi4_lite_inp_monitor.sv(44) @ 3135: uvm_test_top.env.aa.inp_mon [INPUT MONITOR]  WRITE awaddr=00000024 wdata=4c855614 wstrb=1000 
UVM_INFO axi4_lite_out_monitor.sv(28) @ 3155: uvm_test_top.env.pa.out_mon [OUTPUT MONITOR] BRESP = 0 RRESP = 0 RDATA = 00000000
UVM_INFO axi4_lite_driver.sv(34) @ 3155: uvm_test_top.env.aa.drv [DRV] awaddr = 00000024 wdata = 4c855614 wstrb = 8 araddr = 02011a08
UVM_INFO axi4_lite_scoreboard.sv(52) @ 3155: uvm_test_top.env.scb [BRESP] Matched : exp_bresp= 0 actual_bresp=0 write = 1 read = 0
UVM_INFO axi4_lite_subscriber.sv(41) @ 3185: uvm_test_top.env.sb [sb] INPUT COVERAGE = 83.33 %
UVM_INFO axi4_lite_inp_monitor.sv(44) @ 3185: uvm_test_top.env.aa.inp_mon [INPUT MONITOR]  WRITE awaddr=00000028 wdata=33d1b071 wstrb=1100 
UVM_INFO axi4_lite_out_monitor.sv(28) @ 3205: uvm_test_top.env.pa.out_mon [OUTPUT MONITOR] BRESP = 2 RRESP = 0 RDATA = 00000000
UVM_INFO axi4_lite_driver.sv(34) @ 3205: uvm_test_top.env.aa.drv [DRV] awaddr = 00000028 wdata = 33d1b071 wstrb = c araddr = 43ba0714
UVM_INFO axi4_lite_scoreboard.sv(52) @ 3205: uvm_test_top.env.scb [BRESP] Matched : exp_bresp= 2 actual_bresp=2 write = 1 read = 0
UVM_INFO axi4_lite_subscriber.sv(41) @ 3255: uvm_test_top.env.sb [sb] INPUT COVERAGE = 83.33 %
UVM_INFO axi4_lite_inp_monitor.sv(44) @ 3255: uvm_test_top.env.aa.inp_mon [INPUT MONITOR]  WRITE awaddr=0000000c wdata=b86dc9d3 wstrb=1001 
UVM_INFO axi4_lite_out_monitor.sv(28) @ 3275: uvm_test_top.env.pa.out_mon [OUTPUT MONITOR] BRESP = 0 RRESP = 0 RDATA = 00000000
UVM_INFO axi4_lite_driver.sv(34) @ 3275: uvm_test_top.env.aa.drv [DRV] awaddr = 0000000c wdata = b86dc9d3 wstrb = 9 araddr = d35977cc
UVM_INFO axi4_lite_scoreboard.sv(52) @ 3275: uvm_test_top.env.scb [BRESP] Matched : exp_bresp= 0 actual_bresp=0 write = 1 read = 0
UVM_INFO axi4_lite_subscriber.sv(41) @ 3305: uvm_test_top.env.sb [sb] INPUT COVERAGE = 83.33 %
UVM_INFO axi4_lite_inp_monitor.sv(44) @ 3305: uvm_test_top.env.aa.inp_mon [INPUT MONITOR]  WRITE awaddr=0000002c wdata=e39af0fd wstrb=1010 
UVM_INFO axi4_lite_out_monitor.sv(28) @ 3325: uvm_test_top.env.pa.out_mon [OUTPUT MONITOR] BRESP = 2 RRESP = 0 RDATA = 00000000
UVM_INFO axi4_lite_driver.sv(34) @ 3325: uvm_test_top.env.aa.drv [DRV] awaddr = 0000002c wdata = e39af0fd wstrb = a araddr = 9049a5f4
UVM_INFO axi4_lite_scoreboard.sv(52) @ 3325: uvm_test_top.env.scb [BRESP] Matched : exp_bresp= 2 actual_bresp=2 write = 1 read = 0
UVM_INFO axi4_lite_subscriber.sv(41) @ 3365: uvm_test_top.env.sb [sb] INPUT COVERAGE = 83.33 %
UVM_INFO axi4_lite_inp_monitor.sv(44) @ 3365: uvm_test_top.env.aa.inp_mon [INPUT MONITOR]  WRITE awaddr=00000000 wdata=1dc459ee wstrb=1011 
UVM_INFO axi4_lite_out_monitor.sv(28) @ 3385: uvm_test_top.env.pa.out_mon [OUTPUT MONITOR] BRESP = 0 RRESP = 0 RDATA = 00000000
UVM_INFO axi4_lite_driver.sv(34) @ 3385: uvm_test_top.env.aa.drv [DRV] awaddr = 00000000 wdata = 1dc459ee wstrb = b araddr = 17691350
UVM_INFO axi4_lite_scoreboard.sv(52) @ 3385: uvm_test_top.env.scb [BRESP] Matched : exp_bresp= 0 actual_bresp=0 write = 1 read = 0
UVM_INFO axi4_lite_subscriber.sv(41) @ 3425: uvm_test_top.env.sb [sb] INPUT COVERAGE = 83.33 %
UVM_INFO axi4_lite_inp_monitor.sv(44) @ 3425: uvm_test_top.env.aa.inp_mon [INPUT MONITOR]  WRITE awaddr=00000004 wdata=562a51ed wstrb=1110 
UVM_INFO axi4_lite_out_monitor.sv(28) @ 3445: uvm_test_top.env.pa.out_mon [OUTPUT MONITOR] BRESP = 0 RRESP = 0 RDATA = 00000000
UVM_INFO axi4_lite_driver.sv(34) @ 3445: uvm_test_top.env.aa.drv [DRV] awaddr = 00000004 wdata = 562a51ed wstrb = e araddr = 1a614928
UVM_INFO axi4_lite_scoreboard.sv(52) @ 3445: uvm_test_top.env.scb [BRESP] Matched : exp_bresp= 0 actual_bresp=0 write = 1 read = 0
UVM_INFO axi4_lite_subscriber.sv(41) @ 3485: uvm_test_top.env.sb [sb] INPUT COVERAGE = 83.33 %
UVM_INFO axi4_lite_inp_monitor.sv(44) @ 3485: uvm_test_top.env.aa.inp_mon [INPUT MONITOR]  WRITE awaddr=00000010 wdata=490375d9 wstrb=1100 
UVM_INFO axi4_lite_out_monitor.sv(28) @ 3505: uvm_test_top.env.pa.out_mon [OUTPUT MONITOR] BRESP = 0 RRESP = 0 RDATA = 00000000
UVM_INFO axi4_lite_driver.sv(34) @ 3505: uvm_test_top.env.aa.drv [DRV] awaddr = 00000010 wdata = 490375d9 wstrb = c araddr = 887da2ac
UVM_INFO axi4_lite_scoreboard.sv(52) @ 3505: uvm_test_top.env.scb [BRESP] Matched : exp_bresp= 0 actual_bresp=0 write = 1 read = 0
UVM_INFO axi4_lite_subscriber.sv(41) @ 3555: uvm_test_top.env.sb [sb] INPUT COVERAGE = 83.33 %
UVM_INFO axi4_lite_inp_monitor.sv(44) @ 3555: uvm_test_top.env.aa.inp_mon [INPUT MONITOR]  WRITE awaddr=00000028 wdata=c2348bfd wstrb=1110 
UVM_INFO axi4_lite_out_monitor.sv(28) @ 3575: uvm_test_top.env.pa.out_mon [OUTPUT MONITOR] BRESP = 2 RRESP = 0 RDATA = 00000000
UVM_INFO axi4_lite_driver.sv(34) @ 3575: uvm_test_top.env.aa.drv [DRV] awaddr = 00000028 wdata = c2348bfd wstrb = e araddr = d5d56a38
UVM_INFO axi4_lite_scoreboard.sv(52) @ 3575: uvm_test_top.env.scb [BRESP] Matched : exp_bresp= 2 actual_bresp=2 write = 1 read = 0
UVM_INFO axi4_lite_subscriber.sv(41) @ 3605: uvm_test_top.env.sb [sb] INPUT COVERAGE = 83.33 %
UVM_INFO axi4_lite_inp_monitor.sv(44) @ 3605: uvm_test_top.env.aa.inp_mon [INPUT MONITOR]  WRITE awaddr=00000018 wdata=75e69331 wstrb=1100 
UVM_INFO axi4_lite_out_monitor.sv(28) @ 3625: uvm_test_top.env.pa.out_mon [OUTPUT MONITOR] BRESP = 0 RRESP = 0 RDATA = 00000000
UVM_INFO axi4_lite_driver.sv(34) @ 3625: uvm_test_top.env.aa.drv [DRV] awaddr = 00000018 wdata = 75e69331 wstrb = c araddr = 198b6f98
UVM_INFO axi4_lite_scoreboard.sv(52) @ 3625: uvm_test_top.env.scb [BRESP] Matched : exp_bresp= 0 actual_bresp=0 write = 1 read = 0
UVM_INFO axi4_lite_subscriber.sv(41) @ 3675: uvm_test_top.env.sb [sb] INPUT COVERAGE = 83.33 %
UVM_INFO axi4_lite_inp_monitor.sv(44) @ 3675: uvm_test_top.env.aa.inp_mon [INPUT MONITOR]  WRITE awaddr=00000010 wdata=d5528016 wstrb=0010 
UVM_INFO axi4_lite_out_monitor.sv(28) @ 3695: uvm_test_top.env.pa.out_mon [OUTPUT MONITOR] BRESP = 0 RRESP = 0 RDATA = 00000000
UVM_INFO axi4_lite_driver.sv(34) @ 3695: uvm_test_top.env.aa.drv [DRV] awaddr = 00000010 wdata = d5528016 wstrb = 2 araddr = 63cd278c
UVM_INFO axi4_lite_scoreboard.sv(52) @ 3695: uvm_test_top.env.scb [BRESP] Matched : exp_bresp= 0 actual_bresp=0 write = 1 read = 0
UVM_INFO axi4_lite_subscriber.sv(41) @ 3735: uvm_test_top.env.sb [sb] INPUT COVERAGE = 83.33 %
UVM_INFO axi4_lite_inp_monitor.sv(44) @ 3735: uvm_test_top.env.aa.inp_mon [INPUT MONITOR]  WRITE awaddr=00000028 wdata=9d49bdfc wstrb=0110 
UVM_INFO axi4_lite_out_monitor.sv(28) @ 3755: uvm_test_top.env.pa.out_mon [OUTPUT MONITOR] BRESP = 2 RRESP = 0 RDATA = 00000000
UVM_INFO axi4_lite_driver.sv(34) @ 3755: uvm_test_top.env.aa.drv [DRV] awaddr = 00000028 wdata = 9d49bdfc wstrb = 6 araddr = 4c4af4f8
UVM_INFO axi4_lite_scoreboard.sv(52) @ 3755: uvm_test_top.env.scb [BRESP] Matched : exp_bresp= 2 actual_bresp=2 write = 1 read = 0
UVM_INFO axi4_lite_subscriber.sv(41) @ 3795: uvm_test_top.env.sb [sb] INPUT COVERAGE = 83.33 %
UVM_INFO axi4_lite_inp_monitor.sv(44) @ 3795: uvm_test_top.env.aa.inp_mon [INPUT MONITOR]  WRITE awaddr=0000000c wdata=0447f971 wstrb=0010 
UVM_INFO axi4_lite_out_monitor.sv(28) @ 3815: uvm_test_top.env.pa.out_mon [OUTPUT MONITOR] BRESP = 0 RRESP = 0 RDATA = 00000000
UVM_INFO axi4_lite_driver.sv(34) @ 3815: uvm_test_top.env.aa.drv [DRV] awaddr = 0000000c wdata = 0447f971 wstrb = 2 araddr = b8cdfc80
UVM_INFO axi4_lite_scoreboard.sv(52) @ 3815: uvm_test_top.env.scb [BRESP] Matched : exp_bresp= 0 actual_bresp=0 write = 1 read = 0
UVM_INFO axi4_lite_subscriber.sv(41) @ 3865: uvm_test_top.env.sb [sb] INPUT COVERAGE = 83.33 %
UVM_INFO axi4_lite_inp_monitor.sv(44) @ 3865: uvm_test_top.env.aa.inp_mon [INPUT MONITOR]  WRITE awaddr=00000000 wdata=c16b8448 wstrb=1000 
UVM_INFO axi4_lite_out_monitor.sv(28) @ 3885: uvm_test_top.env.pa.out_mon [OUTPUT MONITOR] BRESP = 0 RRESP = 0 RDATA = 00000000
UVM_INFO axi4_lite_driver.sv(34) @ 3885: uvm_test_top.env.aa.drv [DRV] awaddr = 00000000 wdata = c16b8448 wstrb = 8 araddr = fb7b42fc
UVM_INFO axi4_lite_scoreboard.sv(52) @ 3885: uvm_test_top.env.scb [BRESP] Matched : exp_bresp= 0 actual_bresp=0 write = 1 read = 0
UVM_INFO axi4_lite_subscriber.sv(41) @ 3925: uvm_test_top.env.sb [sb] INPUT COVERAGE = 83.33 %
UVM_INFO axi4_lite_inp_monitor.sv(44) @ 3925: uvm_test_top.env.aa.inp_mon [INPUT MONITOR]  WRITE awaddr=0000000c wdata=a2597e11 wstrb=1000 
UVM_INFO axi4_lite_out_monitor.sv(28) @ 3945: uvm_test_top.env.pa.out_mon [OUTPUT MONITOR] BRESP = 0 RRESP = 0 RDATA = 00000000
UVM_INFO axi4_lite_driver.sv(34) @ 3945: uvm_test_top.env.aa.drv [DRV] awaddr = 0000000c wdata = a2597e11 wstrb = 8 araddr = b2ffa9cc
UVM_INFO axi4_lite_scoreboard.sv(52) @ 3945: uvm_test_top.env.scb [BRESP] Matched : exp_bresp= 0 actual_bresp=0 write = 1 read = 0
UVM_INFO axi4_lite_subscriber.sv(41) @ 3975: uvm_test_top.env.sb [sb] INPUT COVERAGE = 83.33 %
UVM_INFO axi4_lite_inp_monitor.sv(44) @ 3975: uvm_test_top.env.aa.inp_mon [INPUT MONITOR]  WRITE awaddr=00000030 wdata=e8f722b3 wstrb=1110 
UVM_INFO axi4_lite_out_monitor.sv(28) @ 3995: uvm_test_top.env.pa.out_mon [OUTPUT MONITOR] BRESP = 2 RRESP = 0 RDATA = 00000000
UVM_INFO axi4_lite_driver.sv(34) @ 3995: uvm_test_top.env.aa.drv [DRV] awaddr = 00000030 wdata = e8f722b3 wstrb = e araddr = 2073c73c
UVM_INFO axi4_lite_scoreboard.sv(52) @ 3995: uvm_test_top.env.scb [BRESP] Matched : exp_bresp= 2 actual_bresp=2 write = 1 read = 0
UVM_INFO axi4_lite_subscriber.sv(41) @ 4045: uvm_test_top.env.sb [sb] INPUT COVERAGE = 83.33 %
UVM_INFO axi4_lite_inp_monitor.sv(44) @ 4045: uvm_test_top.env.aa.inp_mon [INPUT MONITOR]  WRITE awaddr=0000002c wdata=15dcab2c wstrb=1001 
UVM_INFO axi4_lite_out_monitor.sv(28) @ 4065: uvm_test_top.env.pa.out_mon [OUTPUT MONITOR] BRESP = 2 RRESP = 0 RDATA = 00000000
UVM_INFO axi4_lite_driver.sv(34) @ 4065: uvm_test_top.env.aa.drv [DRV] awaddr = 0000002c wdata = 15dcab2c wstrb = 9 araddr = f9cf2c50
UVM_INFO axi4_lite_scoreboard.sv(52) @ 4065: uvm_test_top.env.scb [BRESP] Matched : exp_bresp= 2 actual_bresp=2 write = 1 read = 0
UVM_INFO axi4_lite_subscriber.sv(41) @ 4085: uvm_test_top.env.sb [sb] INPUT COVERAGE = 83.33 %
UVM_INFO axi4_lite_inp_monitor.sv(44) @ 4085: uvm_test_top.env.aa.inp_mon [INPUT MONITOR]  WRITE awaddr=00000018 wdata=4dfe8273 wstrb=1100 
UVM_INFO axi4_lite_out_monitor.sv(28) @ 4105: uvm_test_top.env.pa.out_mon [OUTPUT MONITOR] BRESP = 0 RRESP = 0 RDATA = 00000000
UVM_INFO axi4_lite_driver.sv(34) @ 4105: uvm_test_top.env.aa.drv [DRV] awaddr = 00000018 wdata = 4dfe8273 wstrb = c araddr = d47a3720
UVM_INFO axi4_lite_scoreboard.sv(52) @ 4105: uvm_test_top.env.scb [BRESP] Matched : exp_bresp= 0 actual_bresp=0 write = 1 read = 0
UVM_INFO axi4_lite_subscriber.sv(41) @ 4135: uvm_test_top.env.sb [sb] INPUT COVERAGE = 83.33 %
UVM_INFO axi4_lite_inp_monitor.sv(44) @ 4135: uvm_test_top.env.aa.inp_mon [INPUT MONITOR]  WRITE awaddr=00000018 wdata=5fa03d7a wstrb=0110 
UVM_INFO axi4_lite_out_monitor.sv(28) @ 4155: uvm_test_top.env.pa.out_mon [OUTPUT MONITOR] BRESP = 0 RRESP = 0 RDATA = 00000000
UVM_INFO axi4_lite_driver.sv(34) @ 4155: uvm_test_top.env.aa.drv [DRV] awaddr = 00000018 wdata = 5fa03d7a wstrb = 6 araddr = 8334a0a4
UVM_INFO axi4_lite_scoreboard.sv(52) @ 4155: uvm_test_top.env.scb [BRESP] Matched : exp_bresp= 0 actual_bresp=0 write = 1 read = 0
UVM_INFO axi4_lite_subscriber.sv(41) @ 4175: uvm_test_top.env.sb [sb] INPUT COVERAGE = 83.33 %
UVM_INFO axi4_lite_inp_monitor.sv(44) @ 4175: uvm_test_top.env.aa.inp_mon [INPUT MONITOR]  WRITE awaddr=00000018 wdata=1e09aab5 wstrb=1011 
UVM_INFO axi4_lite_out_monitor.sv(28) @ 4195: uvm_test_top.env.pa.out_mon [OUTPUT MONITOR] BRESP = 0 RRESP = 0 RDATA = 00000000
UVM_INFO axi4_lite_driver.sv(34) @ 4195: uvm_test_top.env.aa.drv [DRV] awaddr = 00000018 wdata = 1e09aab5 wstrb = b araddr = 0590cb90
UVM_INFO axi4_lite_scoreboard.sv(52) @ 4195: uvm_test_top.env.scb [BRESP] Matched : exp_bresp= 0 actual_bresp=0 write = 1 read = 0
UVM_INFO axi4_lite_subscriber.sv(41) @ 4225: uvm_test_top.env.sb [sb] INPUT COVERAGE = 83.33 %
UVM_INFO axi4_lite_inp_monitor.sv(44) @ 4225: uvm_test_top.env.aa.inp_mon [INPUT MONITOR]  WRITE awaddr=0000000c wdata=3ecf8954 wstrb=0101 
UVM_INFO axi4_lite_out_monitor.sv(28) @ 4245: uvm_test_top.env.pa.out_mon [OUTPUT MONITOR] BRESP = 0 RRESP = 0 RDATA = 00000000
UVM_INFO axi4_lite_driver.sv(34) @ 4245: uvm_test_top.env.aa.drv [DRV] awaddr = 0000000c wdata = 3ecf8954 wstrb = 5 araddr = 50062fd0
UVM_INFO axi4_lite_scoreboard.sv(52) @ 4245: uvm_test_top.env.scb [BRESP] Matched : exp_bresp= 0 actual_bresp=0 write = 1 read = 0
UVM_INFO axi4_lite_subscriber.sv(41) @ 4265: uvm_test_top.env.sb [sb] INPUT COVERAGE = 83.33 %
UVM_INFO axi4_lite_inp_monitor.sv(44) @ 4265: uvm_test_top.env.aa.inp_mon [INPUT MONITOR]  WRITE awaddr=00000004 wdata=d6a5f01d wstrb=1111 
UVM_INFO axi4_lite_out_monitor.sv(28) @ 4285: uvm_test_top.env.pa.out_mon [OUTPUT MONITOR] BRESP = 0 RRESP = 0 RDATA = 00000000
UVM_INFO axi4_lite_driver.sv(34) @ 4285: uvm_test_top.env.aa.drv [DRV] awaddr = 00000004 wdata = d6a5f01d wstrb = f araddr = c8a699c4
UVM_INFO axi4_lite_scoreboard.sv(52) @ 4285: uvm_test_top.env.scb [BRESP] Matched : exp_bresp= 0 actual_bresp=0 write = 1 read = 0
UVM_INFO axi4_lite_subscriber.sv(41) @ 4315: uvm_test_top.env.sb [sb] INPUT COVERAGE = 83.33 %
UVM_INFO axi4_lite_inp_monitor.sv(44) @ 4315: uvm_test_top.env.aa.inp_mon [INPUT MONITOR]  WRITE awaddr=00000004 wdata=15528c22 wstrb=1110 
UVM_INFO axi4_lite_out_monitor.sv(28) @ 4335: uvm_test_top.env.pa.out_mon [OUTPUT MONITOR] BRESP = 0 RRESP = 0 RDATA = 00000000
UVM_INFO axi4_lite_driver.sv(34) @ 4335: uvm_test_top.env.aa.drv [DRV] awaddr = 00000004 wdata = 15528c22 wstrb = e araddr = 247214b4
UVM_INFO axi4_lite_scoreboard.sv(52) @ 4335: uvm_test_top.env.scb [BRESP] Matched : exp_bresp= 0 actual_bresp=0 write = 1 read = 0
UVM_INFO axi4_lite_subscriber.sv(41) @ 4385: uvm_test_top.env.sb [sb] INPUT COVERAGE = 83.33 %
UVM_INFO axi4_lite_inp_monitor.sv(44) @ 4385: uvm_test_top.env.aa.inp_mon [INPUT MONITOR]  WRITE awaddr=00000030 wdata=8cb209a3 wstrb=0110 
UVM_INFO axi4_lite_out_monitor.sv(28) @ 4405: uvm_test_top.env.pa.out_mon [OUTPUT MONITOR] BRESP = 2 RRESP = 0 RDATA = 00000000
UVM_INFO axi4_lite_driver.sv(34) @ 4405: uvm_test_top.env.aa.drv [DRV] awaddr = 00000030 wdata = 8cb209a3 wstrb = 6 araddr = fa88aaf0
UVM_INFO axi4_lite_scoreboard.sv(52) @ 4405: uvm_test_top.env.scb [BRESP] Matched : exp_bresp= 2 actual_bresp=2 write = 1 read = 0
UVM_INFO axi4_lite_subscriber.sv(41) @ 4435: uvm_test_top.env.sb [sb] INPUT COVERAGE = 83.33 %
UVM_INFO axi4_lite_inp_monitor.sv(44) @ 4435: uvm_test_top.env.aa.inp_mon [INPUT MONITOR]  WRITE awaddr=00000000 wdata=bcb70114 wstrb=0111 
UVM_INFO axi4_lite_out_monitor.sv(28) @ 4455: uvm_test_top.env.pa.out_mon [OUTPUT MONITOR] BRESP = 0 RRESP = 0 RDATA = 00000000
UVM_INFO axi4_lite_driver.sv(34) @ 4455: uvm_test_top.env.aa.drv [DRV] awaddr = 00000000 wdata = bcb70114 wstrb = 7 araddr = 30d0e698
UVM_INFO axi4_lite_scoreboard.sv(52) @ 4455: uvm_test_top.env.scb [BRESP] Matched : exp_bresp= 0 actual_bresp=0 write = 1 read = 0
UVM_INFO axi4_lite_subscriber.sv(41) @ 4475: uvm_test_top.env.sb [sb] INPUT COVERAGE = 83.33 %
UVM_INFO axi4_lite_inp_monitor.sv(44) @ 4475: uvm_test_top.env.aa.inp_mon [INPUT MONITOR]  WRITE awaddr=00000020 wdata=e1362f4a wstrb=1110 
UVM_INFO axi4_lite_out_monitor.sv(28) @ 4495: uvm_test_top.env.pa.out_mon [OUTPUT MONITOR] BRESP = 0 RRESP = 0 RDATA = 00000000
UVM_INFO axi4_lite_driver.sv(34) @ 4495: uvm_test_top.env.aa.drv [DRV] awaddr = 00000020 wdata = e1362f4a wstrb = e araddr = 1e579968
UVM_INFO axi4_lite_scoreboard.sv(52) @ 4495: uvm_test_top.env.scb [BRESP] Matched : exp_bresp= 0 actual_bresp=0 write = 1 read = 0
UVM_INFO axi4_lite_subscriber.sv(41) @ 4525: uvm_test_top.env.sb [sb] INPUT COVERAGE = 83.33 %
UVM_INFO axi4_lite_inp_monitor.sv(44) @ 4525: uvm_test_top.env.aa.inp_mon [INPUT MONITOR]  WRITE awaddr=0000002c wdata=4c32b3fb wstrb=0001 
UVM_INFO axi4_lite_out_monitor.sv(28) @ 4545: uvm_test_top.env.pa.out_mon [OUTPUT MONITOR] BRESP = 2 RRESP = 0 RDATA = 00000000
UVM_INFO axi4_lite_driver.sv(34) @ 4545: uvm_test_top.env.aa.drv [DRV] awaddr = 0000002c wdata = 4c32b3fb wstrb = 1 araddr = 0fc4f2d0
UVM_INFO axi4_lite_scoreboard.sv(52) @ 4545: uvm_test_top.env.scb [BRESP] Matched : exp_bresp= 2 actual_bresp=2 write = 1 read = 0
UVM_INFO axi4_lite_subscriber.sv(41) @ 4585: uvm_test_top.env.sb [sb] INPUT COVERAGE = 83.33 %
UVM_INFO axi4_lite_inp_monitor.sv(44) @ 4585: uvm_test_top.env.aa.inp_mon [INPUT MONITOR]  WRITE awaddr=00000024 wdata=508c5c7c wstrb=1101 
UVM_INFO axi4_lite_out_monitor.sv(28) @ 4605: uvm_test_top.env.pa.out_mon [OUTPUT MONITOR] BRESP = 0 RRESP = 0 RDATA = 00000000
UVM_INFO axi4_lite_driver.sv(34) @ 4605: uvm_test_top.env.aa.drv [DRV] awaddr = 00000024 wdata = 508c5c7c wstrb = d araddr = abb42fb0
UVM_INFO axi4_lite_scoreboard.sv(52) @ 4605: uvm_test_top.env.scb [BRESP] Matched : exp_bresp= 0 actual_bresp=0 write = 1 read = 0
UVM_INFO axi4_lite_subscriber.sv(41) @ 4645: uvm_test_top.env.sb [sb] INPUT COVERAGE = 83.33 %
UVM_INFO axi4_lite_inp_monitor.sv(44) @ 4645: uvm_test_top.env.aa.inp_mon [INPUT MONITOR]  WRITE awaddr=00000024 wdata=badede3c wstrb=0100 
UVM_INFO axi4_lite_out_monitor.sv(28) @ 4665: uvm_test_top.env.pa.out_mon [OUTPUT MONITOR] BRESP = 0 RRESP = 0 RDATA = 00000000
UVM_INFO axi4_lite_driver.sv(34) @ 4665: uvm_test_top.env.aa.drv [DRV] awaddr = 00000024 wdata = badede3c wstrb = 4 araddr = 7eab3454
UVM_INFO axi4_lite_scoreboard.sv(52) @ 4665: uvm_test_top.env.scb [BRESP] Matched : exp_bresp= 0 actual_bresp=0 write = 1 read = 0
UVM_INFO axi4_lite_subscriber.sv(41) @ 4685: uvm_test_top.env.sb [sb] INPUT COVERAGE = 83.33 %
UVM_INFO axi4_lite_inp_monitor.sv(44) @ 4685: uvm_test_top.env.aa.inp_mon [INPUT MONITOR]  WRITE awaddr=00000024 wdata=1a3c7cf3 wstrb=1100 
UVM_INFO axi4_lite_out_monitor.sv(28) @ 4705: uvm_test_top.env.pa.out_mon [OUTPUT MONITOR] BRESP = 0 RRESP = 0 RDATA = 00000000
UVM_INFO axi4_lite_driver.sv(34) @ 4705: uvm_test_top.env.aa.drv [DRV] awaddr = 00000024 wdata = 1a3c7cf3 wstrb = c araddr = aa0ad1a8
UVM_INFO axi4_lite_scoreboard.sv(52) @ 4705: uvm_test_top.env.scb [BRESP] Matched : exp_bresp= 0 actual_bresp=0 write = 1 read = 0
UVM_INFO axi4_lite_subscriber.sv(41) @ 4755: uvm_test_top.env.sb [sb] INPUT COVERAGE = 83.33 %
UVM_INFO axi4_lite_inp_monitor.sv(44) @ 4755: uvm_test_top.env.aa.inp_mon [INPUT MONITOR]  WRITE awaddr=00000010 wdata=f6a1bf6a wstrb=0001 
UVM_INFO axi4_lite_out_monitor.sv(28) @ 4775: uvm_test_top.env.pa.out_mon [OUTPUT MONITOR] BRESP = 0 RRESP = 0 RDATA = 00000000
UVM_INFO axi4_lite_driver.sv(34) @ 4775: uvm_test_top.env.aa.drv [DRV] awaddr = 00000010 wdata = f6a1bf6a wstrb = 1 araddr = 0dede1e4
UVM_INFO axi4_lite_scoreboard.sv(52) @ 4775: uvm_test_top.env.scb [BRESP] Matched : exp_bresp= 0 actual_bresp=0 write = 1 read = 0
UVM_INFO axi4_lite_subscriber.sv(41) @ 4805: uvm_test_top.env.sb [sb] INPUT COVERAGE = 83.33 %
UVM_INFO axi4_lite_inp_monitor.sv(44) @ 4805: uvm_test_top.env.aa.inp_mon [INPUT MONITOR]  WRITE awaddr=00000018 wdata=35ee3bc1 wstrb=0001 
UVM_INFO axi4_lite_out_monitor.sv(28) @ 4825: uvm_test_top.env.pa.out_mon [OUTPUT MONITOR] BRESP = 0 RRESP = 0 RDATA = 00000000
UVM_INFO axi4_lite_driver.sv(34) @ 4825: uvm_test_top.env.aa.drv [DRV] awaddr = 00000018 wdata = 35ee3bc1 wstrb = 1 araddr = 50c4fa50
UVM_INFO axi4_lite_scoreboard.sv(52) @ 4825: uvm_test_top.env.scb [BRESP] Matched : exp_bresp= 0 actual_bresp=0 write = 1 read = 0
UVM_INFO axi4_lite_subscriber.sv(41) @ 4845: uvm_test_top.env.sb [sb] INPUT COVERAGE = 83.33 %
UVM_INFO axi4_lite_inp_monitor.sv(44) @ 4845: uvm_test_top.env.aa.inp_mon [INPUT MONITOR]  WRITE awaddr=00000028 wdata=9c591800 wstrb=0000 
UVM_INFO axi4_lite_out_monitor.sv(28) @ 4865: uvm_test_top.env.pa.out_mon [OUTPUT MONITOR] BRESP = 2 RRESP = 0 RDATA = 00000000
UVM_INFO axi4_lite_driver.sv(34) @ 4865: uvm_test_top.env.aa.drv [DRV] awaddr = 00000028 wdata = 9c591800 wstrb = 0 araddr = 9f3f4a08
UVM_INFO axi4_lite_scoreboard.sv(52) @ 4865: uvm_test_top.env.scb [BRESP] Matched : exp_bresp= 2 actual_bresp=2 write = 1 read = 0
UVM_INFO axi4_lite_subscriber.sv(41) @ 4895: uvm_test_top.env.sb [sb] INPUT COVERAGE = 83.33 %
UVM_INFO axi4_lite_inp_monitor.sv(44) @ 4895: uvm_test_top.env.aa.inp_mon [INPUT MONITOR]  WRITE awaddr=0000000c wdata=2ceaf0ed wstrb=0000 
UVM_INFO axi4_lite_out_monitor.sv(28) @ 4915: uvm_test_top.env.pa.out_mon [OUTPUT MONITOR] BRESP = 0 RRESP = 0 RDATA = 00000000
UVM_INFO axi4_lite_driver.sv(34) @ 4915: uvm_test_top.env.aa.drv [DRV] awaddr = 0000000c wdata = 2ceaf0ed wstrb = 0 araddr = 04d1138c
UVM_INFO axi4_lite_scoreboard.sv(52) @ 4915: uvm_test_top.env.scb [BRESP] Matched : exp_bresp= 0 actual_bresp=0 write = 1 read = 0
UVM_INFO axi4_lite_subscriber.sv(41) @ 4945: uvm_test_top.env.sb [sb] INPUT COVERAGE = 83.33 %
UVM_INFO axi4_lite_inp_monitor.sv(44) @ 4945: uvm_test_top.env.aa.inp_mon [INPUT MONITOR]  WRITE awaddr=00000008 wdata=1b4af69b wstrb=0101 
UVM_INFO axi4_lite_out_monitor.sv(28) @ 4965: uvm_test_top.env.pa.out_mon [OUTPUT MONITOR] BRESP = 0 RRESP = 0 RDATA = 00000000
UVM_INFO axi4_lite_driver.sv(34) @ 4965: uvm_test_top.env.aa.drv [DRV] awaddr = 00000008 wdata = 1b4af69b wstrb = 5 araddr = 482d9f30
UVM_INFO axi4_lite_scoreboard.sv(52) @ 4965: uvm_test_top.env.scb [BRESP] Matched : exp_bresp= 0 actual_bresp=0 write = 1 read = 0
UVM_INFO axi4_lite_subscriber.sv(41) @ 4995: uvm_test_top.env.sb [sb] INPUT COVERAGE = 83.33 %
UVM_INFO axi4_lite_inp_monitor.sv(44) @ 4995: uvm_test_top.env.aa.inp_mon [INPUT MONITOR]  WRITE awaddr=00000020 wdata=d23a273b wstrb=0010 
UVM_INFO axi4_lite_out_monitor.sv(28) @ 5015: uvm_test_top.env.pa.out_mon [OUTPUT MONITOR] BRESP = 0 RRESP = 0 RDATA = 00000000
UVM_INFO axi4_lite_driver.sv(34) @ 5015: uvm_test_top.env.aa.drv [DRV] awaddr = 00000020 wdata = d23a273b wstrb = 2 araddr = fac7e434
UVM_INFO axi4_lite_scoreboard.sv(52) @ 5015: uvm_test_top.env.scb [BRESP] Matched : exp_bresp= 0 actual_bresp=0 write = 1 read = 0
UVM_INFO axi4_lite_subscriber.sv(41) @ 5035: uvm_test_top.env.sb [sb] INPUT COVERAGE = 83.33 %
UVM_INFO axi4_lite_inp_monitor.sv(44) @ 5035: uvm_test_top.env.aa.inp_mon [INPUT MONITOR]  WRITE awaddr=0000000c wdata=efcde3fe wstrb=1110 
UVM_INFO axi4_lite_out_monitor.sv(28) @ 5055: uvm_test_top.env.pa.out_mon [OUTPUT MONITOR] BRESP = 0 RRESP = 0 RDATA = 00000000
UVM_INFO axi4_lite_driver.sv(34) @ 5055: uvm_test_top.env.aa.drv [DRV] awaddr = 0000000c wdata = efcde3fe wstrb = e araddr = 2e9fb058
UVM_INFO axi4_lite_scoreboard.sv(52) @ 5055: uvm_test_top.env.scb [BRESP] Matched : exp_bresp= 0 actual_bresp=0 write = 1 read = 0
UVM_INFO axi4_lite_subscriber.sv(41) @ 5105: uvm_test_top.env.sb [sb] INPUT COVERAGE = 83.33 %
UVM_INFO axi4_lite_inp_monitor.sv(44) @ 5105: uvm_test_top.env.aa.inp_mon [INPUT MONITOR]  WRITE awaddr=00000038 wdata=253c17ae wstrb=1010 
UVM_INFO axi4_lite_out_monitor.sv(28) @ 5125: uvm_test_top.env.pa.out_mon [OUTPUT MONITOR] BRESP = 0 RRESP = 0 RDATA = 00000000
UVM_INFO axi4_lite_driver.sv(34) @ 5125: uvm_test_top.env.aa.drv [DRV] awaddr = 00000038 wdata = 253c17ae wstrb = a araddr = a42e86d0
UVM_INFO axi4_lite_scoreboard.sv(52) @ 5125: uvm_test_top.env.scb [BRESP] Matched : exp_bresp= 0 actual_bresp=0 write = 1 read = 0
UVM_INFO axi4_lite_subscriber.sv(41) @ 5175: uvm_test_top.env.sb [sb] INPUT COVERAGE = 83.33 %
UVM_INFO axi4_lite_inp_monitor.sv(44) @ 5175: uvm_test_top.env.aa.inp_mon [INPUT MONITOR]  WRITE awaddr=00000028 wdata=74dfe727 wstrb=0111 
UVM_INFO axi4_lite_out_monitor.sv(28) @ 5195: uvm_test_top.env.pa.out_mon [OUTPUT MONITOR] BRESP = 2 RRESP = 0 RDATA = 00000000
UVM_INFO axi4_lite_driver.sv(34) @ 5195: uvm_test_top.env.aa.drv [DRV] awaddr = 00000028 wdata = 74dfe727 wstrb = 7 araddr = d08b2cd8
UVM_INFO axi4_lite_scoreboard.sv(52) @ 5195: uvm_test_top.env.scb [BRESP] Matched : exp_bresp= 2 actual_bresp=2 write = 1 read = 0
UVM_INFO axi4_lite_subscriber.sv(41) @ 5225: uvm_test_top.env.sb [sb] INPUT COVERAGE = 83.33 %
UVM_INFO axi4_lite_inp_monitor.sv(44) @ 5225: uvm_test_top.env.aa.inp_mon [INPUT MONITOR]  WRITE awaddr=00000000 wdata=7aee2de2 wstrb=0101 
UVM_INFO axi4_lite_out_monitor.sv(28) @ 5245: uvm_test_top.env.pa.out_mon [OUTPUT MONITOR] BRESP = 0 RRESP = 0 RDATA = 00000000
UVM_INFO axi4_lite_driver.sv(34) @ 5245: uvm_test_top.env.aa.drv [DRV] awaddr = 00000000 wdata = 7aee2de2 wstrb = 5 araddr = 8965b984
UVM_INFO axi4_lite_scoreboard.sv(52) @ 5245: uvm_test_top.env.scb [BRESP] Matched : exp_bresp= 0 actual_bresp=0 write = 1 read = 0
UVM_INFO axi4_lite_subscriber.sv(41) @ 5265: uvm_test_top.env.sb [sb] INPUT COVERAGE = 83.33 %
UVM_INFO axi4_lite_inp_monitor.sv(44) @ 5265: uvm_test_top.env.aa.inp_mon [INPUT MONITOR]  WRITE awaddr=00000020 wdata=f4583c22 wstrb=0010 
UVM_INFO axi4_lite_out_monitor.sv(28) @ 5285: uvm_test_top.env.pa.out_mon [OUTPUT MONITOR] BRESP = 0 RRESP = 0 RDATA = 00000000
UVM_INFO axi4_lite_driver.sv(34) @ 5285: uvm_test_top.env.aa.drv [DRV] awaddr = 00000020 wdata = f4583c22 wstrb = 2 araddr = 599fae38
UVM_INFO axi4_lite_scoreboard.sv(52) @ 5285: uvm_test_top.env.scb [BRESP] Matched : exp_bresp= 0 actual_bresp=0 write = 1 read = 0
UVM_INFO axi4_lite_subscriber.sv(41) @ 5305: uvm_test_top.env.sb [sb] INPUT COVERAGE = 83.33 %
UVM_INFO axi4_lite_inp_monitor.sv(44) @ 5305: uvm_test_top.env.aa.inp_mon [INPUT MONITOR]  WRITE awaddr=00000010 wdata=61b9c586 wstrb=1100 
UVM_INFO axi4_lite_out_monitor.sv(28) @ 5325: uvm_test_top.env.pa.out_mon [OUTPUT MONITOR] BRESP = 0 RRESP = 0 RDATA = 00000000
UVM_INFO axi4_lite_driver.sv(34) @ 5325: uvm_test_top.env.aa.drv [DRV] awaddr = 00000010 wdata = 61b9c586 wstrb = c araddr = 7384e774
UVM_INFO axi4_lite_scoreboard.sv(52) @ 5325: uvm_test_top.env.scb [BRESP] Matched : exp_bresp= 0 actual_bresp=0 write = 1 read = 0
UVM_INFO axi4_lite_subscriber.sv(41) @ 5365: uvm_test_top.env.sb [sb] INPUT COVERAGE = 83.33 %
UVM_INFO axi4_lite_inp_monitor.sv(44) @ 5365: uvm_test_top.env.aa.inp_mon [INPUT MONITOR]  WRITE awaddr=00000010 wdata=abe1f754 wstrb=0011 
UVM_INFO axi4_lite_out_monitor.sv(28) @ 5385: uvm_test_top.env.pa.out_mon [OUTPUT MONITOR] BRESP = 0 RRESP = 0 RDATA = 00000000
UVM_INFO axi4_lite_driver.sv(34) @ 5385: uvm_test_top.env.aa.drv [DRV] awaddr = 00000010 wdata = abe1f754 wstrb = 3 araddr = d1f09408
UVM_INFO axi4_lite_scoreboard.sv(52) @ 5385: uvm_test_top.env.scb [BRESP] Matched : exp_bresp= 0 actual_bresp=0 write = 1 read = 0
UVM_INFO axi4_lite_subscriber.sv(41) @ 5415: uvm_test_top.env.sb [sb] INPUT COVERAGE = 83.33 %
UVM_INFO axi4_lite_inp_monitor.sv(44) @ 5415: uvm_test_top.env.aa.inp_mon [INPUT MONITOR]  WRITE awaddr=00000008 wdata=95cd5803 wstrb=1011 
UVM_INFO axi4_lite_out_monitor.sv(28) @ 5435: uvm_test_top.env.pa.out_mon [OUTPUT MONITOR] BRESP = 0 RRESP = 0 RDATA = 00000000
UVM_INFO axi4_lite_driver.sv(34) @ 5435: uvm_test_top.env.aa.drv [DRV] awaddr = 00000008 wdata = 95cd5803 wstrb = b araddr = 482b0cec
UVM_INFO axi4_lite_scoreboard.sv(52) @ 5435: uvm_test_top.env.scb [BRESP] Matched : exp_bresp= 0 actual_bresp=0 write = 1 read = 0
UVM_INFO axi4_lite_test.sv(166) @ 5435: uvm_test_top [TEST] Addr with data delay completed
UVM_INFO /fetools/synopsys/installed_tools/vcs/vcs/Q-2020.03-SP2-8/etc/uvm/base/uvm_objection.svh(1274) @ 5435: reporter [TEST_DONE] 'run' phase is ready to proceed to the 'extract' phase

--- UVM Report Summary ---

** Report counts by severity
UVM_INFO :  504
UVM_WARNING :    0
UVM_ERROR :    0
UVM_FATAL :    0
** Report counts by id
[BRESP]   100
[DRV]   100
[INPUT MONITOR]   100
[OUTPUT MONITOR]   100
[RNTST]     1
[TEST]     1
[TEST_DONE]     1
[UVMTOP]     1
[sb]   100
$finish called from file "/fetools/synopsys/installed_tools/vcs/vcs/Q-2020.03-SP2-8/etc/uvm/base/uvm_root.svh", line 437.
$finish at simulation time                 5435

---------------------------------------------------------------------------
VCS Coverage Metrics: during simulation line, cond, FSM, branch, tgl was monitored
---------------------------------------------------------------------------
           V C S   S i m u l a t i o n   R e p o r t 
Time: 5435 ns
CPU Time:      0.610 seconds;       Data structure size:   0.4Mb
Fri Sep 18 16:14:47 2026
