Chronologic VCS simulator copyright 1991-2020
Contains Synopsys proprietary information.
Compiler version Q-2020.03-SP2-8_Full64; Runtime version Q-2020.03-SP2-8_Full64;  Sep 16 15:54 2026
----------------------------------------------------------------
UVM-1.1d.Synopsys
(C) 2007-2013 Mentor Graphics Corporation
(C) 2007-2013 Cadence Design Systems, Inc.
(C) 2006-2013 Synopsys, Inc.
(C) 2011-2013 Cypress Semiconductor Corp.
----------------------------------------------------------------

  ***********       IMPORTANT RELEASE NOTES         ************

  You are using a version of the UVM library that has been compiled
  with `UVM_NO_DEPRECATED undefined.
  See http://www.eda.org/svdb/view.php?id=3313 for more details.

  You are using a version of the UVM library that has been compiled
  with `UVM_OBJECT_MUST_HAVE_CONSTRUCTOR undefined.
  See http://www.eda.org/svdb/view.php?id=3770 for more details.

      (Specify +UVM_NO_RELNOTES to turn off this notice)

UVM_INFO @ 0: reporter [RNTST] Running test regression_test...
UVM_INFO @ 0: reporter [UVMTOP] UVM testbench topology:
---------------------------------------------------------------
Name                       Type                     Size  Value
---------------------------------------------------------------
uvm_test_top               regression_test          -     @469 
  env                      axi4_lite_environment    -     @477 
    aa                     axi4_lite_active_agent   -     @489 
      drv                  axi4_lite_driver         -     @569 
        rsp_port           uvm_analysis_port        -     @586 
        seq_item_port      uvm_seq_item_pull_port   -     @577 
      inp_mon              axi4_lite_inp_monitor    -     @552 
        inp_mon_port       uvm_analysis_port        -     @560 
      seqr                 axi4_lite_seqr           -     @595 
        rsp_export         uvm_analysis_export      -     @603 
        seq_item_export    uvm_seq_item_pull_imp    -     @709 
        arbitration_queue  array                    0     -    
        lock_queue         array                    0     -    
        num_last_reqs      integral                 32    'd1  
        num_last_rsps      integral                 32    'd1  
    pa                     axi4_lite_passive_agent  -     @497 
      out_mon              axi4_lite_out_monitor    -     @726 
        out_mon_port       uvm_analysis_port        -     @734 
    sb                     axi4_lite_subscriber     -     @531 
      analysis_imp         uvm_analysis_imp         -     @539 
    scb                    axi4_lite_scoreboard     -     @505 
      inp_port             uvm_analysis_imp_in      -     @513 
      out_port             uvm_analysis_imp_out     -     @522 
---------------------------------------------------------------

UVM_INFO axi4_lite_subscriber.sv(40) @ 45: uvm_test_top.env.sb [sb] INPUT COVERAGE = 25.00 %
UVM_INFO axi4_lite_inp_monitor.sv(44) @ 45: uvm_test_top.env.aa.inp_mon [INPUT MONITOR]  WRITE awaddr=00000020 wdata=340ac485 wstrb=1010 
UVM_INFO axi4_lite_out_monitor.sv(28) @ 65: uvm_test_top.env.pa.out_mon [OUTPUT MONITOR] BRESP = 0 RRESP = 0 RDATA = 00000000
UVM_INFO axi4_lite_driver.sv(34) @ 65: uvm_test_top.env.aa.drv [DRV] awaddr = 00000020 wdata = 340ac485 wstrb = a araddr = 427c503c
UVM_INFO axi4_lite_scoreboard.sv(52) @ 65: uvm_test_top.env.scb [BRESP] Matched : exp_bresp= 0 actual_bresp=0 write = 1 read = 0
UVM_INFO axi4_lite_subscriber.sv(40) @ 95: uvm_test_top.env.sb [sb] INPUT COVERAGE = 36.46 %
UVM_INFO axi4_lite_inp_monitor.sv(44) @ 95: uvm_test_top.env.aa.inp_mon [INPUT MONITOR]  WRITE awaddr=00000004 wdata=6e8d278f wstrb=0001 
UVM_INFO axi4_lite_out_monitor.sv(28) @ 115: uvm_test_top.env.pa.out_mon [OUTPUT MONITOR] BRESP = 0 RRESP = 0 RDATA = 00000000
UVM_INFO axi4_lite_driver.sv(34) @ 115: uvm_test_top.env.aa.drv [DRV] awaddr = 00000004 wdata = 6e8d278f wstrb = 1 araddr = 6b0a2fbc
UVM_INFO axi4_lite_scoreboard.sv(52) @ 115: uvm_test_top.env.scb [BRESP] Matched : exp_bresp= 0 actual_bresp=0 write = 1 read = 0
UVM_INFO axi4_lite_subscriber.sv(40) @ 155: uvm_test_top.env.sb [sb] INPUT COVERAGE = 36.46 %
UVM_INFO axi4_lite_inp_monitor.sv(44) @ 155: uvm_test_top.env.aa.inp_mon [INPUT MONITOR]  WRITE awaddr=00000020 wdata=0a318f83 wstrb=1011 
UVM_INFO axi4_lite_out_monitor.sv(28) @ 175: uvm_test_top.env.pa.out_mon [OUTPUT MONITOR] BRESP = 0 RRESP = 0 RDATA = 00000000
UVM_INFO axi4_lite_driver.sv(34) @ 175: uvm_test_top.env.aa.drv [DRV] awaddr = 00000020 wdata = 0a318f83 wstrb = b araddr = f7f9946c
UVM_INFO axi4_lite_scoreboard.sv(52) @ 175: uvm_test_top.env.scb [BRESP] Matched : exp_bresp= 0 actual_bresp=0 write = 1 read = 0
UVM_INFO axi4_lite_subscriber.sv(40) @ 215: uvm_test_top.env.sb [sb] INPUT COVERAGE = 39.58 %
UVM_INFO axi4_lite_inp_monitor.sv(44) @ 215: uvm_test_top.env.aa.inp_mon [INPUT MONITOR]  WRITE awaddr=00000004 wdata=828cf0d9 wstrb=1000 
UVM_INFO axi4_lite_out_monitor.sv(28) @ 235: uvm_test_top.env.pa.out_mon [OUTPUT MONITOR] BRESP = 0 RRESP = 0 RDATA = 00000000
UVM_INFO axi4_lite_driver.sv(34) @ 235: uvm_test_top.env.aa.drv [DRV] awaddr = 00000004 wdata = 828cf0d9 wstrb = 8 araddr = d03d5800
UVM_INFO axi4_lite_scoreboard.sv(52) @ 235: uvm_test_top.env.scb [BRESP] Matched : exp_bresp= 0 actual_bresp=0 write = 1 read = 0
UVM_INFO axi4_lite_subscriber.sv(40) @ 275: uvm_test_top.env.sb [sb] INPUT COVERAGE = 56.25 %
UVM_INFO axi4_lite_inp_monitor.sv(44) @ 275: uvm_test_top.env.aa.inp_mon [INPUT MONITOR]  WRITE awaddr=0000002c wdata=ed32bebf wstrb=1000 
UVM_INFO axi4_lite_out_monitor.sv(28) @ 295: uvm_test_top.env.pa.out_mon [OUTPUT MONITOR] BRESP = 2 RRESP = 0 RDATA = 00000000
UVM_INFO axi4_lite_driver.sv(34) @ 295: uvm_test_top.env.aa.drv [DRV] awaddr = 0000002c wdata = ed32bebf wstrb = 8 araddr = 48cfcf7c
UVM_INFO axi4_lite_scoreboard.sv(52) @ 295: uvm_test_top.env.scb [BRESP] Matched : exp_bresp= 2 actual_bresp=2 write = 1 read = 0
UVM_INFO axi4_lite_subscriber.sv(40) @ 325: uvm_test_top.env.sb [sb] INPUT COVERAGE = 59.38 %
UVM_INFO axi4_lite_inp_monitor.sv(44) @ 325: uvm_test_top.env.aa.inp_mon [INPUT MONITOR]  WRITE awaddr=0000002c wdata=d67d6d36 wstrb=1100 
UVM_INFO axi4_lite_out_monitor.sv(28) @ 345: uvm_test_top.env.pa.out_mon [OUTPUT MONITOR] BRESP = 2 RRESP = 0 RDATA = 00000000
UVM_INFO axi4_lite_driver.sv(34) @ 345: uvm_test_top.env.aa.drv [DRV] awaddr = 0000002c wdata = d67d6d36 wstrb = c araddr = 7e4d2e54
UVM_INFO axi4_lite_scoreboard.sv(52) @ 345: uvm_test_top.env.scb [BRESP] Matched : exp_bresp= 2 actual_bresp=2 write = 1 read = 0
UVM_INFO axi4_lite_subscriber.sv(40) @ 385: uvm_test_top.env.sb [sb] INPUT COVERAGE = 62.50 %
UVM_INFO axi4_lite_inp_monitor.sv(44) @ 385: uvm_test_top.env.aa.inp_mon [INPUT MONITOR]  WRITE awaddr=00000028 wdata=48fe9ff2 wstrb=0010 
UVM_INFO axi4_lite_out_monitor.sv(28) @ 405: uvm_test_top.env.pa.out_mon [OUTPUT MONITOR] BRESP = 2 RRESP = 0 RDATA = 00000000
UVM_INFO axi4_lite_driver.sv(34) @ 405: uvm_test_top.env.aa.drv [DRV] awaddr = 00000028 wdata = 48fe9ff2 wstrb = 2 araddr = fe0d8a9c
UVM_INFO axi4_lite_scoreboard.sv(52) @ 405: uvm_test_top.env.scb [BRESP] Matched : exp_bresp= 2 actual_bresp=2 write = 1 read = 0
UVM_INFO axi4_lite_subscriber.sv(40) @ 435: uvm_test_top.env.sb [sb] INPUT COVERAGE = 62.50 %
UVM_INFO axi4_lite_inp_monitor.sv(44) @ 435: uvm_test_top.env.aa.inp_mon [INPUT MONITOR]  WRITE awaddr=0000001c wdata=085bfa35 wstrb=0010 
UVM_INFO axi4_lite_out_monitor.sv(28) @ 455: uvm_test_top.env.pa.out_mon [OUTPUT MONITOR] BRESP = 0 RRESP = 0 RDATA = 00000000
UVM_INFO axi4_lite_driver.sv(34) @ 455: uvm_test_top.env.aa.drv [DRV] awaddr = 0000001c wdata = 085bfa35 wstrb = 2 araddr = 712e5d7c
UVM_INFO axi4_lite_scoreboard.sv(52) @ 455: uvm_test_top.env.scb [BRESP] Matched : exp_bresp= 0 actual_bresp=0 write = 1 read = 0
UVM_INFO axi4_lite_subscriber.sv(40) @ 495: uvm_test_top.env.sb [sb] INPUT COVERAGE = 62.50 %
UVM_INFO axi4_lite_inp_monitor.sv(44) @ 495: uvm_test_top.env.aa.inp_mon [INPUT MONITOR]  WRITE awaddr=00000008 wdata=c56aaf82 wstrb=1000 
UVM_INFO axi4_lite_out_monitor.sv(28) @ 515: uvm_test_top.env.pa.out_mon [OUTPUT MONITOR] BRESP = 0 RRESP = 0 RDATA = 00000000
UVM_INFO axi4_lite_driver.sv(34) @ 515: uvm_test_top.env.aa.drv [DRV] awaddr = 00000008 wdata = c56aaf82 wstrb = 8 araddr = 800809f0
UVM_INFO axi4_lite_scoreboard.sv(52) @ 515: uvm_test_top.env.scb [BRESP] Matched : exp_bresp= 0 actual_bresp=0 write = 1 read = 0
UVM_INFO axi4_lite_subscriber.sv(40) @ 565: uvm_test_top.env.sb [sb] INPUT COVERAGE = 62.50 %
UVM_INFO axi4_lite_inp_monitor.sv(44) @ 565: uvm_test_top.env.aa.inp_mon [INPUT MONITOR]  WRITE awaddr=0000001c wdata=5c734350 wstrb=1001 
UVM_INFO axi4_lite_out_monitor.sv(28) @ 585: uvm_test_top.env.pa.out_mon [OUTPUT MONITOR] BRESP = 0 RRESP = 0 RDATA = 00000000
UVM_INFO axi4_lite_driver.sv(34) @ 585: uvm_test_top.env.aa.drv [DRV] awaddr = 0000001c wdata = 5c734350 wstrb = 9 araddr = c9d056c0
UVM_INFO axi4_lite_scoreboard.sv(52) @ 585: uvm_test_top.env.scb [BRESP] Matched : exp_bresp= 0 actual_bresp=0 write = 1 read = 0
UVM_INFO axi4_lite_subscriber.sv(40) @ 625: uvm_test_top.env.sb [sb] INPUT COVERAGE = 62.50 %
UVM_INFO axi4_lite_inp_monitor.sv(44) @ 625: uvm_test_top.env.aa.inp_mon [INPUT MONITOR]  WRITE awaddr=00000008 wdata=ac2a0e9f wstrb=1100 
UVM_INFO axi4_lite_out_monitor.sv(28) @ 645: uvm_test_top.env.pa.out_mon [OUTPUT MONITOR] BRESP = 0 RRESP = 0 RDATA = 00000000
UVM_INFO axi4_lite_driver.sv(34) @ 645: uvm_test_top.env.aa.drv [DRV] awaddr = 00000008 wdata = ac2a0e9f wstrb = c araddr = 65ef15c0
UVM_INFO axi4_lite_scoreboard.sv(52) @ 645: uvm_test_top.env.scb [BRESP] Matched : exp_bresp= 0 actual_bresp=0 write = 1 read = 0
UVM_INFO axi4_lite_subscriber.sv(40) @ 685: uvm_test_top.env.sb [sb] INPUT COVERAGE = 62.50 %
UVM_INFO axi4_lite_inp_monitor.sv(44) @ 685: uvm_test_top.env.aa.inp_mon [INPUT MONITOR]  WRITE awaddr=0000002c wdata=f44ecbb7 wstrb=1110 
UVM_INFO axi4_lite_out_monitor.sv(28) @ 705: uvm_test_top.env.pa.out_mon [OUTPUT MONITOR] BRESP = 2 RRESP = 0 RDATA = 00000000
UVM_INFO axi4_lite_driver.sv(34) @ 705: uvm_test_top.env.aa.drv [DRV] awaddr = 0000002c wdata = f44ecbb7 wstrb = e araddr = 61b889b0
UVM_INFO axi4_lite_scoreboard.sv(52) @ 705: uvm_test_top.env.scb [BRESP] Matched : exp_bresp= 2 actual_bresp=2 write = 1 read = 0
UVM_INFO axi4_lite_subscriber.sv(40) @ 745: uvm_test_top.env.sb [sb] INPUT COVERAGE = 62.50 %
UVM_INFO axi4_lite_inp_monitor.sv(44) @ 745: uvm_test_top.env.aa.inp_mon [INPUT MONITOR]  WRITE awaddr=0000002c wdata=460d044f wstrb=1010 
UVM_INFO axi4_lite_out_monitor.sv(28) @ 765: uvm_test_top.env.pa.out_mon [OUTPUT MONITOR] BRESP = 2 RRESP = 0 RDATA = 00000000
UVM_INFO axi4_lite_driver.sv(34) @ 765: uvm_test_top.env.aa.drv [DRV] awaddr = 0000002c wdata = 460d044f wstrb = a araddr = 7bdbd428
UVM_INFO axi4_lite_scoreboard.sv(52) @ 765: uvm_test_top.env.scb [BRESP] Matched : exp_bresp= 2 actual_bresp=2 write = 1 read = 0
UVM_INFO axi4_lite_subscriber.sv(40) @ 795: uvm_test_top.env.sb [sb] INPUT COVERAGE = 62.50 %
UVM_INFO axi4_lite_inp_monitor.sv(44) @ 795: uvm_test_top.env.aa.inp_mon [INPUT MONITOR]  WRITE awaddr=00000024 wdata=e2f56ee0 wstrb=0101 
UVM_INFO axi4_lite_out_monitor.sv(28) @ 815: uvm_test_top.env.pa.out_mon [OUTPUT MONITOR] BRESP = 0 RRESP = 0 RDATA = 00000000
UVM_INFO axi4_lite_driver.sv(34) @ 815: uvm_test_top.env.aa.drv [DRV] awaddr = 00000024 wdata = e2f56ee0 wstrb = 5 araddr = 5cac3240
UVM_INFO axi4_lite_scoreboard.sv(52) @ 815: uvm_test_top.env.scb [BRESP] Matched : exp_bresp= 0 actual_bresp=0 write = 1 read = 0
UVM_INFO axi4_lite_subscriber.sv(40) @ 835: uvm_test_top.env.sb [sb] INPUT COVERAGE = 62.50 %
UVM_INFO axi4_lite_inp_monitor.sv(44) @ 835: uvm_test_top.env.aa.inp_mon [INPUT MONITOR]  WRITE awaddr=00000014 wdata=73df093c wstrb=0010 
UVM_INFO axi4_lite_out_monitor.sv(28) @ 855: uvm_test_top.env.pa.out_mon [OUTPUT MONITOR] BRESP = 0 RRESP = 0 RDATA = 00000000
UVM_INFO axi4_lite_driver.sv(34) @ 855: uvm_test_top.env.aa.drv [DRV] awaddr = 00000014 wdata = 73df093c wstrb = 2 araddr = 75c15a1c
UVM_INFO axi4_lite_scoreboard.sv(52) @ 855: uvm_test_top.env.scb [BRESP] Matched : exp_bresp= 0 actual_bresp=0 write = 1 read = 0
UVM_INFO axi4_lite_subscriber.sv(40) @ 905: uvm_test_top.env.sb [sb] INPUT COVERAGE = 70.83 %
UVM_INFO axi4_lite_inp_monitor.sv(44) @ 905: uvm_test_top.env.aa.inp_mon [INPUT MONITOR]  WRITE awaddr=00000038 wdata=372ed9a5 wstrb=0010 
UVM_INFO axi4_lite_out_monitor.sv(28) @ 925: uvm_test_top.env.pa.out_mon [OUTPUT MONITOR] BRESP = 0 RRESP = 0 RDATA = 00000000
UVM_INFO axi4_lite_driver.sv(34) @ 925: uvm_test_top.env.aa.drv [DRV] awaddr = 00000038 wdata = 372ed9a5 wstrb = 2 araddr = 14f51324
UVM_INFO axi4_lite_scoreboard.sv(52) @ 925: uvm_test_top.env.scb [BRESP] Matched : exp_bresp= 0 actual_bresp=0 write = 1 read = 0
UVM_INFO axi4_lite_subscriber.sv(40) @ 955: uvm_test_top.env.sb [sb] INPUT COVERAGE = 70.83 %
UVM_INFO axi4_lite_inp_monitor.sv(44) @ 955: uvm_test_top.env.aa.inp_mon [INPUT MONITOR]  WRITE awaddr=00000030 wdata=b0ca0abf wstrb=0111 
UVM_INFO axi4_lite_out_monitor.sv(28) @ 975: uvm_test_top.env.pa.out_mon [OUTPUT MONITOR] BRESP = 2 RRESP = 0 RDATA = 00000000
UVM_INFO axi4_lite_driver.sv(34) @ 975: uvm_test_top.env.aa.drv [DRV] awaddr = 00000030 wdata = b0ca0abf wstrb = 7 araddr = c30ea6c4
UVM_INFO axi4_lite_scoreboard.sv(52) @ 975: uvm_test_top.env.scb [BRESP] Matched : exp_bresp= 2 actual_bresp=2 write = 1 read = 0
UVM_INFO axi4_lite_subscriber.sv(40) @ 1005: uvm_test_top.env.sb [sb] INPUT COVERAGE = 70.83 %
UVM_INFO axi4_lite_inp_monitor.sv(44) @ 1005: uvm_test_top.env.aa.inp_mon [INPUT MONITOR]  WRITE awaddr=0000000c wdata=d253240b wstrb=0001 
UVM_INFO axi4_lite_out_monitor.sv(28) @ 1025: uvm_test_top.env.pa.out_mon [OUTPUT MONITOR] BRESP = 0 RRESP = 0 RDATA = 00000000
UVM_INFO axi4_lite_driver.sv(34) @ 1025: uvm_test_top.env.aa.drv [DRV] awaddr = 0000000c wdata = d253240b wstrb = 1 araddr = c81cdf3c
UVM_INFO axi4_lite_scoreboard.sv(52) @ 1025: uvm_test_top.env.scb [BRESP] Matched : exp_bresp= 0 actual_bresp=0 write = 1 read = 0
UVM_INFO axi4_lite_subscriber.sv(40) @ 1045: uvm_test_top.env.sb [sb] INPUT COVERAGE = 73.96 %
UVM_INFO axi4_lite_inp_monitor.sv(44) @ 1045: uvm_test_top.env.aa.inp_mon [INPUT MONITOR]  WRITE awaddr=00000014 wdata=a13a298c wstrb=1111 
UVM_INFO axi4_lite_out_monitor.sv(28) @ 1065: uvm_test_top.env.pa.out_mon [OUTPUT MONITOR] BRESP = 0 RRESP = 0 RDATA = 00000000
UVM_INFO axi4_lite_driver.sv(34) @ 1065: uvm_test_top.env.aa.drv [DRV] awaddr = 00000014 wdata = a13a298c wstrb = f araddr = 10b53578
UVM_INFO axi4_lite_scoreboard.sv(52) @ 1065: uvm_test_top.env.scb [BRESP] Matched : exp_bresp= 0 actual_bresp=0 write = 1 read = 0
UVM_INFO axi4_lite_subscriber.sv(40) @ 1115: uvm_test_top.env.sb [sb] INPUT COVERAGE = 73.96 %
UVM_INFO axi4_lite_inp_monitor.sv(44) @ 1115: uvm_test_top.env.aa.inp_mon [INPUT MONITOR]  WRITE awaddr=00000000 wdata=a8c5445c wstrb=0101 
UVM_INFO axi4_lite_out_monitor.sv(28) @ 1135: uvm_test_top.env.pa.out_mon [OUTPUT MONITOR] BRESP = 0 RRESP = 0 RDATA = 00000000
UVM_INFO axi4_lite_driver.sv(34) @ 1135: uvm_test_top.env.aa.drv [DRV] awaddr = 00000000 wdata = a8c5445c wstrb = 5 araddr = 6a21e470
UVM_INFO axi4_lite_scoreboard.sv(52) @ 1135: uvm_test_top.env.scb [BRESP] Matched : exp_bresp= 0 actual_bresp=0 write = 1 read = 0
UVM_INFO axi4_lite_subscriber.sv(40) @ 1185: uvm_test_top.env.sb [sb] INPUT COVERAGE = 77.08 %
UVM_INFO axi4_lite_inp_monitor.sv(44) @ 1185: uvm_test_top.env.aa.inp_mon [INPUT MONITOR]  WRITE awaddr=00000038 wdata=e7415282 wstrb=0000 
UVM_INFO axi4_lite_out_monitor.sv(28) @ 1205: uvm_test_top.env.pa.out_mon [OUTPUT MONITOR] BRESP = 0 RRESP = 0 RDATA = 00000000
UVM_INFO axi4_lite_driver.sv(34) @ 1205: uvm_test_top.env.aa.drv [DRV] awaddr = 00000038 wdata = e7415282 wstrb = 0 araddr = 64a7e1e4
UVM_INFO axi4_lite_scoreboard.sv(52) @ 1205: uvm_test_top.env.scb [BRESP] Matched : exp_bresp= 0 actual_bresp=0 write = 1 read = 0
UVM_INFO axi4_lite_subscriber.sv(40) @ 1255: uvm_test_top.env.sb [sb] INPUT COVERAGE = 77.08 %
UVM_INFO axi4_lite_inp_monitor.sv(44) @ 1255: uvm_test_top.env.aa.inp_mon [INPUT MONITOR]  WRITE awaddr=00000018 wdata=4e80274a wstrb=1111 
UVM_INFO axi4_lite_out_monitor.sv(28) @ 1275: uvm_test_top.env.pa.out_mon [OUTPUT MONITOR] BRESP = 0 RRESP = 0 RDATA = 00000000
UVM_INFO axi4_lite_driver.sv(34) @ 1275: uvm_test_top.env.aa.drv [DRV] awaddr = 00000018 wdata = 4e80274a wstrb = f araddr = 81b7645c
UVM_INFO axi4_lite_scoreboard.sv(52) @ 1275: uvm_test_top.env.scb [BRESP] Matched : exp_bresp= 0 actual_bresp=0 write = 1 read = 0
UVM_INFO axi4_lite_subscriber.sv(40) @ 1325: uvm_test_top.env.sb [sb] INPUT COVERAGE = 77.08 %
UVM_INFO axi4_lite_inp_monitor.sv(44) @ 1325: uvm_test_top.env.aa.inp_mon [INPUT MONITOR]  WRITE awaddr=00000030 wdata=ab457004 wstrb=1101 
UVM_INFO axi4_lite_out_monitor.sv(28) @ 1345: uvm_test_top.env.pa.out_mon [OUTPUT MONITOR] BRESP = 2 RRESP = 0 RDATA = 00000000
UVM_INFO axi4_lite_driver.sv(34) @ 1345: uvm_test_top.env.aa.drv [DRV] awaddr = 00000030 wdata = ab457004 wstrb = d araddr = 07a025a0
UVM_INFO axi4_lite_scoreboard.sv(52) @ 1345: uvm_test_top.env.scb [BRESP] Matched : exp_bresp= 2 actual_bresp=2 write = 1 read = 0
UVM_INFO axi4_lite_subscriber.sv(40) @ 1395: uvm_test_top.env.sb [sb] INPUT COVERAGE = 77.08 %
UVM_INFO axi4_lite_inp_monitor.sv(44) @ 1395: uvm_test_top.env.aa.inp_mon [INPUT MONITOR]  WRITE awaddr=00000024 wdata=6c17c8fc wstrb=0010 
UVM_INFO axi4_lite_out_monitor.sv(28) @ 1415: uvm_test_top.env.pa.out_mon [OUTPUT MONITOR] BRESP = 0 RRESP = 0 RDATA = 00000000
UVM_INFO axi4_lite_driver.sv(34) @ 1415: uvm_test_top.env.aa.drv [DRV] awaddr = 00000024 wdata = 6c17c8fc wstrb = 2 araddr = d4b9d494
UVM_INFO axi4_lite_scoreboard.sv(52) @ 1415: uvm_test_top.env.scb [BRESP] Matched : exp_bresp= 0 actual_bresp=0 write = 1 read = 0
UVM_INFO axi4_lite_subscriber.sv(40) @ 1435: uvm_test_top.env.sb [sb] INPUT COVERAGE = 77.08 %
UVM_INFO axi4_lite_inp_monitor.sv(44) @ 1435: uvm_test_top.env.aa.inp_mon [INPUT MONITOR]  WRITE awaddr=00000034 wdata=6c980b81 wstrb=1111 
UVM_INFO axi4_lite_out_monitor.sv(28) @ 1455: uvm_test_top.env.pa.out_mon [OUTPUT MONITOR] BRESP = 0 RRESP = 0 RDATA = 00000000
UVM_INFO axi4_lite_driver.sv(34) @ 1455: uvm_test_top.env.aa.drv [DRV] awaddr = 00000034 wdata = 6c980b81 wstrb = f araddr = e42bcf0c
UVM_INFO axi4_lite_scoreboard.sv(52) @ 1455: uvm_test_top.env.scb [BRESP] Matched : exp_bresp= 0 actual_bresp=0 write = 1 read = 0
UVM_INFO axi4_lite_subscriber.sv(40) @ 1505: uvm_test_top.env.sb [sb] INPUT COVERAGE = 77.08 %
UVM_INFO axi4_lite_inp_monitor.sv(44) @ 1505: uvm_test_top.env.aa.inp_mon [INPUT MONITOR]  WRITE awaddr=00000004 wdata=12952538 wstrb=1100 
UVM_INFO axi4_lite_out_monitor.sv(28) @ 1525: uvm_test_top.env.pa.out_mon [OUTPUT MONITOR] BRESP = 0 RRESP = 0 RDATA = 00000000
UVM_INFO axi4_lite_driver.sv(34) @ 1525: uvm_test_top.env.aa.drv [DRV] awaddr = 00000004 wdata = 12952538 wstrb = c araddr = 6ebcbe48
UVM_INFO axi4_lite_scoreboard.sv(52) @ 1525: uvm_test_top.env.scb [BRESP] Matched : exp_bresp= 0 actual_bresp=0 write = 1 read = 0
UVM_INFO axi4_lite_subscriber.sv(40) @ 1555: uvm_test_top.env.sb [sb] INPUT COVERAGE = 77.08 %
UVM_INFO axi4_lite_inp_monitor.sv(44) @ 1555: uvm_test_top.env.aa.inp_mon [INPUT MONITOR]  WRITE awaddr=00000038 wdata=2ef85605 wstrb=1111 
UVM_INFO axi4_lite_out_monitor.sv(28) @ 1575: uvm_test_top.env.pa.out_mon [OUTPUT MONITOR] BRESP = 0 RRESP = 0 RDATA = 00000000
UVM_INFO axi4_lite_driver.sv(34) @ 1575: uvm_test_top.env.aa.drv [DRV] awaddr = 00000038 wdata = 2ef85605 wstrb = f araddr = a3b4fba0
UVM_INFO axi4_lite_scoreboard.sv(52) @ 1575: uvm_test_top.env.scb [BRESP] Matched : exp_bresp= 0 actual_bresp=0 write = 1 read = 0
UVM_INFO axi4_lite_subscriber.sv(40) @ 1625: uvm_test_top.env.sb [sb] INPUT COVERAGE = 77.08 %
UVM_INFO axi4_lite_inp_monitor.sv(44) @ 1625: uvm_test_top.env.aa.inp_mon [INPUT MONITOR]  WRITE awaddr=00000024 wdata=1ac92a46 wstrb=0000 
UVM_INFO axi4_lite_out_monitor.sv(28) @ 1645: uvm_test_top.env.pa.out_mon [OUTPUT MONITOR] BRESP = 0 RRESP = 0 RDATA = 00000000
UVM_INFO axi4_lite_driver.sv(34) @ 1645: uvm_test_top.env.aa.drv [DRV] awaddr = 00000024 wdata = 1ac92a46 wstrb = 0 araddr = 3173728c
UVM_INFO axi4_lite_scoreboard.sv(52) @ 1645: uvm_test_top.env.scb [BRESP] Matched : exp_bresp= 0 actual_bresp=0 write = 1 read = 0
UVM_INFO axi4_lite_subscriber.sv(40) @ 1685: uvm_test_top.env.sb [sb] INPUT COVERAGE = 77.08 %
UVM_INFO axi4_lite_inp_monitor.sv(44) @ 1685: uvm_test_top.env.aa.inp_mon [INPUT MONITOR]  WRITE awaddr=00000020 wdata=b941d7fd wstrb=1111 
UVM_INFO axi4_lite_out_monitor.sv(28) @ 1705: uvm_test_top.env.pa.out_mon [OUTPUT MONITOR] BRESP = 0 RRESP = 0 RDATA = 00000000
UVM_INFO axi4_lite_driver.sv(34) @ 1705: uvm_test_top.env.aa.drv [DRV] awaddr = 00000020 wdata = b941d7fd wstrb = f araddr = 89f5922c
UVM_INFO axi4_lite_scoreboard.sv(52) @ 1705: uvm_test_top.env.scb [BRESP] Matched : exp_bresp= 0 actual_bresp=0 write = 1 read = 0
UVM_INFO axi4_lite_subscriber.sv(40) @ 1755: uvm_test_top.env.sb [sb] INPUT COVERAGE = 77.08 %
UVM_INFO axi4_lite_inp_monitor.sv(44) @ 1755: uvm_test_top.env.aa.inp_mon [INPUT MONITOR]  WRITE awaddr=00000024 wdata=439b24b3 wstrb=0000 
UVM_INFO axi4_lite_out_monitor.sv(28) @ 1775: uvm_test_top.env.pa.out_mon [OUTPUT MONITOR] BRESP = 0 RRESP = 0 RDATA = 00000000
UVM_INFO axi4_lite_driver.sv(34) @ 1775: uvm_test_top.env.aa.drv [DRV] awaddr = 00000024 wdata = 439b24b3 wstrb = 0 araddr = 58852fac
UVM_INFO axi4_lite_scoreboard.sv(52) @ 1775: uvm_test_top.env.scb [BRESP] Matched : exp_bresp= 0 actual_bresp=0 write = 1 read = 0
UVM_INFO axi4_lite_subscriber.sv(40) @ 1805: uvm_test_top.env.sb [sb] INPUT COVERAGE = 77.08 %
UVM_INFO axi4_lite_inp_monitor.sv(44) @ 1805: uvm_test_top.env.aa.inp_mon [INPUT MONITOR]  WRITE awaddr=00000004 wdata=77dab678 wstrb=0101 
UVM_INFO axi4_lite_out_monitor.sv(28) @ 1825: uvm_test_top.env.pa.out_mon [OUTPUT MONITOR] BRESP = 0 RRESP = 0 RDATA = 00000000
UVM_INFO axi4_lite_driver.sv(34) @ 1825: uvm_test_top.env.aa.drv [DRV] awaddr = 00000004 wdata = 77dab678 wstrb = 5 araddr = 8f6273b0
UVM_INFO axi4_lite_scoreboard.sv(52) @ 1825: uvm_test_top.env.scb [BRESP] Matched : exp_bresp= 0 actual_bresp=0 write = 1 read = 0
UVM_INFO axi4_lite_subscriber.sv(40) @ 1845: uvm_test_top.env.sb [sb] INPUT COVERAGE = 80.21 %
UVM_INFO axi4_lite_inp_monitor.sv(44) @ 1845: uvm_test_top.env.aa.inp_mon [INPUT MONITOR]  WRITE awaddr=00000014 wdata=133928a4 wstrb=0100 
UVM_INFO axi4_lite_out_monitor.sv(28) @ 1865: uvm_test_top.env.pa.out_mon [OUTPUT MONITOR] BRESP = 0 RRESP = 0 RDATA = 00000000
UVM_INFO axi4_lite_driver.sv(34) @ 1865: uvm_test_top.env.aa.drv [DRV] awaddr = 00000014 wdata = 133928a4 wstrb = 4 araddr = 8fca2f60
UVM_INFO axi4_lite_scoreboard.sv(52) @ 1865: uvm_test_top.env.scb [BRESP] Matched : exp_bresp= 0 actual_bresp=0 write = 1 read = 0
UVM_INFO axi4_lite_subscriber.sv(40) @ 1885: uvm_test_top.env.sb [sb] INPUT COVERAGE = 80.21 %
UVM_INFO axi4_lite_inp_monitor.sv(44) @ 1885: uvm_test_top.env.aa.inp_mon [INPUT MONITOR]  WRITE awaddr=00000028 wdata=1ab8e01a wstrb=0100 
UVM_INFO axi4_lite_out_monitor.sv(28) @ 1905: uvm_test_top.env.pa.out_mon [OUTPUT MONITOR] BRESP = 2 RRESP = 0 RDATA = 00000000
UVM_INFO axi4_lite_driver.sv(34) @ 1905: uvm_test_top.env.aa.drv [DRV] awaddr = 00000028 wdata = 1ab8e01a wstrb = 4 araddr = 6bc636d8
UVM_INFO axi4_lite_scoreboard.sv(52) @ 1905: uvm_test_top.env.scb [BRESP] Matched : exp_bresp= 2 actual_bresp=2 write = 1 read = 0
UVM_INFO axi4_lite_subscriber.sv(40) @ 1955: uvm_test_top.env.sb [sb] INPUT COVERAGE = 80.21 %
UVM_INFO axi4_lite_inp_monitor.sv(44) @ 1955: uvm_test_top.env.aa.inp_mon [INPUT MONITOR]  WRITE awaddr=0000000c wdata=8db3cea0 wstrb=1000 
UVM_INFO axi4_lite_out_monitor.sv(28) @ 1975: uvm_test_top.env.pa.out_mon [OUTPUT MONITOR] BRESP = 0 RRESP = 0 RDATA = 00000000
UVM_INFO axi4_lite_driver.sv(34) @ 1975: uvm_test_top.env.aa.drv [DRV] awaddr = 0000000c wdata = 8db3cea0 wstrb = 8 araddr = 82cf05e8
UVM_INFO axi4_lite_scoreboard.sv(52) @ 1975: uvm_test_top.env.scb [BRESP] Matched : exp_bresp= 0 actual_bresp=0 write = 1 read = 0
UVM_INFO axi4_lite_subscriber.sv(40) @ 2025: uvm_test_top.env.sb [sb] INPUT COVERAGE = 80.21 %
UVM_INFO axi4_lite_inp_monitor.sv(44) @ 2025: uvm_test_top.env.aa.inp_mon [INPUT MONITOR]  WRITE awaddr=0000002c wdata=da4343f2 wstrb=0101 
UVM_INFO axi4_lite_out_monitor.sv(28) @ 2045: uvm_test_top.env.pa.out_mon [OUTPUT MONITOR] BRESP = 2 RRESP = 0 RDATA = 00000000
UVM_INFO axi4_lite_driver.sv(34) @ 2045: uvm_test_top.env.aa.drv [DRV] awaddr = 0000002c wdata = da4343f2 wstrb = 5 araddr = 8a2165d0
UVM_INFO axi4_lite_scoreboard.sv(52) @ 2045: uvm_test_top.env.scb [BRESP] Matched : exp_bresp= 2 actual_bresp=2 write = 1 read = 0
UVM_INFO axi4_lite_subscriber.sv(40) @ 2065: uvm_test_top.env.sb [sb] INPUT COVERAGE = 80.21 %
UVM_INFO axi4_lite_inp_monitor.sv(44) @ 2065: uvm_test_top.env.aa.inp_mon [INPUT MONITOR]  WRITE awaddr=00000008 wdata=72ab5b62 wstrb=0001 
UVM_INFO axi4_lite_out_monitor.sv(28) @ 2085: uvm_test_top.env.pa.out_mon [OUTPUT MONITOR] BRESP = 0 RRESP = 0 RDATA = 00000000
UVM_INFO axi4_lite_driver.sv(34) @ 2085: uvm_test_top.env.aa.drv [DRV] awaddr = 00000008 wdata = 72ab5b62 wstrb = 1 araddr = 82f4bcfc
UVM_INFO axi4_lite_scoreboard.sv(52) @ 2085: uvm_test_top.env.scb [BRESP] Matched : exp_bresp= 0 actual_bresp=0 write = 1 read = 0
UVM_INFO axi4_lite_subscriber.sv(40) @ 2105: uvm_test_top.env.sb [sb] INPUT COVERAGE = 80.21 %
UVM_INFO axi4_lite_inp_monitor.sv(44) @ 2105: uvm_test_top.env.aa.inp_mon [INPUT MONITOR]  WRITE awaddr=00000020 wdata=6b8826bf wstrb=0000 
UVM_INFO axi4_lite_out_monitor.sv(28) @ 2125: uvm_test_top.env.pa.out_mon [OUTPUT MONITOR] BRESP = 0 RRESP = 0 RDATA = 00000000
UVM_INFO axi4_lite_driver.sv(34) @ 2125: uvm_test_top.env.aa.drv [DRV] awaddr = 00000020 wdata = 6b8826bf wstrb = 0 araddr = 645ecb08
UVM_INFO axi4_lite_scoreboard.sv(52) @ 2125: uvm_test_top.env.scb [BRESP] Matched : exp_bresp= 0 actual_bresp=0 write = 1 read = 0
UVM_INFO axi4_lite_subscriber.sv(40) @ 2155: uvm_test_top.env.sb [sb] INPUT COVERAGE = 80.21 %
UVM_INFO axi4_lite_inp_monitor.sv(44) @ 2155: uvm_test_top.env.aa.inp_mon [INPUT MONITOR]  WRITE awaddr=00000008 wdata=aece51ad wstrb=0111 
UVM_INFO axi4_lite_out_monitor.sv(28) @ 2175: uvm_test_top.env.pa.out_mon [OUTPUT MONITOR] BRESP = 0 RRESP = 0 RDATA = 00000000
UVM_INFO axi4_lite_driver.sv(34) @ 2175: uvm_test_top.env.aa.drv [DRV] awaddr = 00000008 wdata = aece51ad wstrb = 7 araddr = 1a45bad0
UVM_INFO axi4_lite_scoreboard.sv(52) @ 2175: uvm_test_top.env.scb [BRESP] Matched : exp_bresp= 0 actual_bresp=0 write = 1 read = 0
UVM_INFO axi4_lite_subscriber.sv(40) @ 2215: uvm_test_top.env.sb [sb] INPUT COVERAGE = 80.21 %
UVM_INFO axi4_lite_inp_monitor.sv(44) @ 2215: uvm_test_top.env.aa.inp_mon [INPUT MONITOR]  WRITE awaddr=00000020 wdata=42e64f45 wstrb=0110 
UVM_INFO axi4_lite_out_monitor.sv(28) @ 2235: uvm_test_top.env.pa.out_mon [OUTPUT MONITOR] BRESP = 0 RRESP = 0 RDATA = 00000000
UVM_INFO axi4_lite_driver.sv(34) @ 2235: uvm_test_top.env.aa.drv [DRV] awaddr = 00000020 wdata = 42e64f45 wstrb = 6 araddr = 23c28eac
UVM_INFO axi4_lite_scoreboard.sv(52) @ 2235: uvm_test_top.env.scb [BRESP] Matched : exp_bresp= 0 actual_bresp=0 write = 1 read = 0
UVM_INFO axi4_lite_subscriber.sv(40) @ 2265: uvm_test_top.env.sb [sb] INPUT COVERAGE = 80.21 %
UVM_INFO axi4_lite_inp_monitor.sv(44) @ 2265: uvm_test_top.env.aa.inp_mon [INPUT MONITOR]  WRITE awaddr=0000002c wdata=874edac7 wstrb=0000 
UVM_INFO axi4_lite_out_monitor.sv(28) @ 2285: uvm_test_top.env.pa.out_mon [OUTPUT MONITOR] BRESP = 2 RRESP = 0 RDATA = 00000000
UVM_INFO axi4_lite_driver.sv(34) @ 2285: uvm_test_top.env.aa.drv [DRV] awaddr = 0000002c wdata = 874edac7 wstrb = 0 araddr = f4890e88
UVM_INFO axi4_lite_scoreboard.sv(52) @ 2285: uvm_test_top.env.scb [BRESP] Matched : exp_bresp= 2 actual_bresp=2 write = 1 read = 0
UVM_INFO axi4_lite_subscriber.sv(40) @ 2335: uvm_test_top.env.sb [sb] INPUT COVERAGE = 80.21 %
UVM_INFO axi4_lite_inp_monitor.sv(44) @ 2335: uvm_test_top.env.aa.inp_mon [INPUT MONITOR]  WRITE awaddr=0000002c wdata=200fd2f2 wstrb=1011 
UVM_INFO axi4_lite_out_monitor.sv(28) @ 2355: uvm_test_top.env.pa.out_mon [OUTPUT MONITOR] BRESP = 2 RRESP = 0 RDATA = 00000000
UVM_INFO axi4_lite_driver.sv(34) @ 2355: uvm_test_top.env.aa.drv [DRV] awaddr = 0000002c wdata = 200fd2f2 wstrb = b araddr = c5705ce4
UVM_INFO axi4_lite_scoreboard.sv(52) @ 2355: uvm_test_top.env.scb [BRESP] Matched : exp_bresp= 2 actual_bresp=2 write = 1 read = 0
UVM_INFO axi4_lite_subscriber.sv(40) @ 2395: uvm_test_top.env.sb [sb] INPUT COVERAGE = 80.21 %
UVM_INFO axi4_lite_inp_monitor.sv(44) @ 2395: uvm_test_top.env.aa.inp_mon [INPUT MONITOR]  WRITE awaddr=00000008 wdata=9ba9da12 wstrb=0101 
UVM_INFO axi4_lite_out_monitor.sv(28) @ 2415: uvm_test_top.env.pa.out_mon [OUTPUT MONITOR] BRESP = 0 RRESP = 0 RDATA = 00000000
UVM_INFO axi4_lite_driver.sv(34) @ 2415: uvm_test_top.env.aa.drv [DRV] awaddr = 00000008 wdata = 9ba9da12 wstrb = 5 araddr = d5196448
UVM_INFO axi4_lite_scoreboard.sv(52) @ 2415: uvm_test_top.env.scb [BRESP] Matched : exp_bresp= 0 actual_bresp=0 write = 1 read = 0
UVM_INFO axi4_lite_subscriber.sv(40) @ 2465: uvm_test_top.env.sb [sb] INPUT COVERAGE = 80.21 %
UVM_INFO axi4_lite_inp_monitor.sv(44) @ 2465: uvm_test_top.env.aa.inp_mon [INPUT MONITOR]  WRITE awaddr=0000000c wdata=0791e29e wstrb=1101 
UVM_INFO axi4_lite_out_monitor.sv(28) @ 2485: uvm_test_top.env.pa.out_mon [OUTPUT MONITOR] BRESP = 0 RRESP = 0 RDATA = 00000000
UVM_INFO axi4_lite_driver.sv(34) @ 2485: uvm_test_top.env.aa.drv [DRV] awaddr = 0000000c wdata = 0791e29e wstrb = d araddr = d01dc2dc
UVM_INFO axi4_lite_scoreboard.sv(52) @ 2485: uvm_test_top.env.scb [BRESP] Matched : exp_bresp= 0 actual_bresp=0 write = 1 read = 0
UVM_INFO axi4_lite_subscriber.sv(40) @ 2515: uvm_test_top.env.sb [sb] INPUT COVERAGE = 80.21 %
UVM_INFO axi4_lite_inp_monitor.sv(44) @ 2515: uvm_test_top.env.aa.inp_mon [INPUT MONITOR]  WRITE awaddr=00000010 wdata=e4fa7404 wstrb=0000 
UVM_INFO axi4_lite_out_monitor.sv(28) @ 2535: uvm_test_top.env.pa.out_mon [OUTPUT MONITOR] BRESP = 0 RRESP = 0 RDATA = 00000000
UVM_INFO axi4_lite_driver.sv(34) @ 2535: uvm_test_top.env.aa.drv [DRV] awaddr = 00000010 wdata = e4fa7404 wstrb = 0 araddr = 6a19d7d8
UVM_INFO axi4_lite_scoreboard.sv(52) @ 2535: uvm_test_top.env.scb [BRESP] Matched : exp_bresp= 0 actual_bresp=0 write = 1 read = 0
UVM_INFO axi4_lite_subscriber.sv(40) @ 2585: uvm_test_top.env.sb [sb] INPUT COVERAGE = 80.21 %
UVM_INFO axi4_lite_inp_monitor.sv(44) @ 2585: uvm_test_top.env.aa.inp_mon [INPUT MONITOR]  WRITE awaddr=00000014 wdata=e1c5cdad wstrb=0100 
UVM_INFO axi4_lite_out_monitor.sv(28) @ 2605: uvm_test_top.env.pa.out_mon [OUTPUT MONITOR] BRESP = 0 RRESP = 0 RDATA = 00000000
UVM_INFO axi4_lite_driver.sv(34) @ 2605: uvm_test_top.env.aa.drv [DRV] awaddr = 00000014 wdata = e1c5cdad wstrb = 4 araddr = 2cf49a88
UVM_INFO axi4_lite_scoreboard.sv(52) @ 2605: uvm_test_top.env.scb [BRESP] Matched : exp_bresp= 0 actual_bresp=0 write = 1 read = 0
UVM_INFO axi4_lite_subscriber.sv(40) @ 2625: uvm_test_top.env.sb [sb] INPUT COVERAGE = 80.21 %
UVM_INFO axi4_lite_inp_monitor.sv(44) @ 2625: uvm_test_top.env.aa.inp_mon [INPUT MONITOR]  WRITE awaddr=00000018 wdata=e70265d4 wstrb=1000 
UVM_INFO axi4_lite_out_monitor.sv(28) @ 2645: uvm_test_top.env.pa.out_mon [OUTPUT MONITOR] BRESP = 0 RRESP = 0 RDATA = 00000000
UVM_INFO axi4_lite_driver.sv(34) @ 2645: uvm_test_top.env.aa.drv [DRV] awaddr = 00000018 wdata = e70265d4 wstrb = 8 araddr = 4d9056bc
UVM_INFO axi4_lite_scoreboard.sv(52) @ 2645: uvm_test_top.env.scb [BRESP] Matched : exp_bresp= 0 actual_bresp=0 write = 1 read = 0
UVM_INFO axi4_lite_subscriber.sv(40) @ 2685: uvm_test_top.env.sb [sb] INPUT COVERAGE = 80.21 %
UVM_INFO axi4_lite_inp_monitor.sv(44) @ 2685: uvm_test_top.env.aa.inp_mon [INPUT MONITOR]  WRITE awaddr=00000000 wdata=3bb112c3 wstrb=1011 
UVM_INFO axi4_lite_out_monitor.sv(28) @ 2705: uvm_test_top.env.pa.out_mon [OUTPUT MONITOR] BRESP = 0 RRESP = 0 RDATA = 00000000
UVM_INFO axi4_lite_driver.sv(34) @ 2705: uvm_test_top.env.aa.drv [DRV] awaddr = 00000000 wdata = 3bb112c3 wstrb = b araddr = ece78b9c
UVM_INFO axi4_lite_scoreboard.sv(52) @ 2705: uvm_test_top.env.scb [BRESP] Matched : exp_bresp= 0 actual_bresp=0 write = 1 read = 0
UVM_INFO axi4_lite_subscriber.sv(40) @ 2745: uvm_test_top.env.sb [sb] INPUT COVERAGE = 80.21 %
UVM_INFO axi4_lite_inp_monitor.sv(44) @ 2745: uvm_test_top.env.aa.inp_mon [INPUT MONITOR]  WRITE awaddr=00000010 wdata=a28455a5 wstrb=1000 
UVM_INFO axi4_lite_out_monitor.sv(28) @ 2765: uvm_test_top.env.pa.out_mon [OUTPUT MONITOR] BRESP = 0 RRESP = 0 RDATA = 00000000
UVM_INFO axi4_lite_driver.sv(34) @ 2765: uvm_test_top.env.aa.drv [DRV] awaddr = 00000010 wdata = a28455a5 wstrb = 8 araddr = a159a298
UVM_INFO axi4_lite_scoreboard.sv(52) @ 2765: uvm_test_top.env.scb [BRESP] Matched : exp_bresp= 0 actual_bresp=0 write = 1 read = 0
UVM_INFO axi4_lite_subscriber.sv(40) @ 2795: uvm_test_top.env.sb [sb] INPUT COVERAGE = 80.21 %
UVM_INFO axi4_lite_inp_monitor.sv(44) @ 2795: uvm_test_top.env.aa.inp_mon [INPUT MONITOR]  WRITE awaddr=00000014 wdata=479a2ebf wstrb=0010 
UVM_INFO axi4_lite_out_monitor.sv(28) @ 2815: uvm_test_top.env.pa.out_mon [OUTPUT MONITOR] BRESP = 0 RRESP = 0 RDATA = 00000000
UVM_INFO axi4_lite_driver.sv(34) @ 2815: uvm_test_top.env.aa.drv [DRV] awaddr = 00000014 wdata = 479a2ebf wstrb = 2 araddr = 9fb5ae68
UVM_INFO axi4_lite_scoreboard.sv(52) @ 2815: uvm_test_top.env.scb [BRESP] Matched : exp_bresp= 0 actual_bresp=0 write = 1 read = 0
UVM_INFO axi4_lite_subscriber.sv(40) @ 2865: uvm_test_top.env.sb [sb] INPUT COVERAGE = 80.21 %
UVM_INFO axi4_lite_inp_monitor.sv(44) @ 2865: uvm_test_top.env.aa.inp_mon [INPUT MONITOR]  WRITE awaddr=0000002c wdata=ee8fff2f wstrb=1100 
UVM_INFO axi4_lite_out_monitor.sv(28) @ 2885: uvm_test_top.env.pa.out_mon [OUTPUT MONITOR] BRESP = 2 RRESP = 0 RDATA = 00000000
UVM_INFO axi4_lite_driver.sv(34) @ 2885: uvm_test_top.env.aa.drv [DRV] awaddr = 0000002c wdata = ee8fff2f wstrb = c araddr = 396519b0
UVM_INFO axi4_lite_scoreboard.sv(52) @ 2885: uvm_test_top.env.scb [BRESP] Matched : exp_bresp= 2 actual_bresp=2 write = 1 read = 0
UVM_INFO axi4_lite_subscriber.sv(40) @ 2905: uvm_test_top.env.sb [sb] INPUT COVERAGE = 80.21 %
UVM_INFO axi4_lite_inp_monitor.sv(44) @ 2905: uvm_test_top.env.aa.inp_mon [INPUT MONITOR]  WRITE awaddr=00000034 wdata=7c9b31d7 wstrb=1111 
UVM_INFO axi4_lite_out_monitor.sv(28) @ 2925: uvm_test_top.env.pa.out_mon [OUTPUT MONITOR] BRESP = 0 RRESP = 0 RDATA = 00000000
UVM_INFO axi4_lite_driver.sv(34) @ 2925: uvm_test_top.env.aa.drv [DRV] awaddr = 00000034 wdata = 7c9b31d7 wstrb = f araddr = eab77554
UVM_INFO axi4_lite_scoreboard.sv(52) @ 2925: uvm_test_top.env.scb [BRESP] Matched : exp_bresp= 0 actual_bresp=0 write = 1 read = 0
UVM_INFO axi4_lite_subscriber.sv(40) @ 2945: uvm_test_top.env.sb [sb] INPUT COVERAGE = 83.33 %
UVM_INFO axi4_lite_inp_monitor.sv(44) @ 2945: uvm_test_top.env.aa.inp_mon [INPUT MONITOR]  WRITE awaddr=00000000 wdata=e43e0edd wstrb=0011 
UVM_INFO axi4_lite_out_monitor.sv(28) @ 2965: uvm_test_top.env.pa.out_mon [OUTPUT MONITOR] BRESP = 0 RRESP = 0 RDATA = 00000000
UVM_INFO axi4_lite_driver.sv(34) @ 2965: uvm_test_top.env.aa.drv [DRV] awaddr = 00000000 wdata = e43e0edd wstrb = 3 araddr = b61977a8
UVM_INFO axi4_lite_scoreboard.sv(52) @ 2965: uvm_test_top.env.scb [BRESP] Matched : exp_bresp= 0 actual_bresp=0 write = 1 read = 0
UVM_INFO axi4_lite_subscriber.sv(40) @ 3005: uvm_test_top.env.sb [sb] INPUT COVERAGE = 83.33 %
UVM_INFO axi4_lite_inp_monitor.sv(44) @ 3005: uvm_test_top.env.aa.inp_mon [INPUT MONITOR]  WRITE awaddr=00000014 wdata=9cf9355d wstrb=0010 
UVM_INFO axi4_lite_out_monitor.sv(28) @ 3025: uvm_test_top.env.pa.out_mon [OUTPUT MONITOR] BRESP = 0 RRESP = 0 RDATA = 00000000
UVM_INFO axi4_lite_driver.sv(34) @ 3025: uvm_test_top.env.aa.drv [DRV] awaddr = 00000014 wdata = 9cf9355d wstrb = 2 araddr = 72ecba80
UVM_INFO axi4_lite_scoreboard.sv(52) @ 3025: uvm_test_top.env.scb [BRESP] Matched : exp_bresp= 0 actual_bresp=0 write = 1 read = 0
UVM_INFO axi4_lite_subscriber.sv(40) @ 3065: uvm_test_top.env.sb [sb] INPUT COVERAGE = 83.33 %
UVM_INFO axi4_lite_inp_monitor.sv(44) @ 3065: uvm_test_top.env.aa.inp_mon [INPUT MONITOR]  WRITE awaddr=00000028 wdata=1df61903 wstrb=0101 
UVM_INFO axi4_lite_out_monitor.sv(28) @ 3085: uvm_test_top.env.pa.out_mon [OUTPUT MONITOR] BRESP = 2 RRESP = 0 RDATA = 00000000
UVM_INFO axi4_lite_driver.sv(34) @ 3085: uvm_test_top.env.aa.drv [DRV] awaddr = 00000028 wdata = 1df61903 wstrb = 5 araddr = 88783f44
UVM_INFO axi4_lite_scoreboard.sv(52) @ 3085: uvm_test_top.env.scb [BRESP] Matched : exp_bresp= 2 actual_bresp=2 write = 1 read = 0
UVM_INFO axi4_lite_subscriber.sv(40) @ 3115: uvm_test_top.env.sb [sb] INPUT COVERAGE = 83.33 %
UVM_INFO axi4_lite_inp_monitor.sv(44) @ 3115: uvm_test_top.env.aa.inp_mon [INPUT MONITOR]  WRITE awaddr=0000000c wdata=5fef508b wstrb=0100 
UVM_INFO axi4_lite_out_monitor.sv(28) @ 3135: uvm_test_top.env.pa.out_mon [OUTPUT MONITOR] BRESP = 0 RRESP = 0 RDATA = 00000000
UVM_INFO axi4_lite_driver.sv(34) @ 3135: uvm_test_top.env.aa.drv [DRV] awaddr = 0000000c wdata = 5fef508b wstrb = 4 araddr = 5355d838
UVM_INFO axi4_lite_scoreboard.sv(52) @ 3135: uvm_test_top.env.scb [BRESP] Matched : exp_bresp= 0 actual_bresp=0 write = 1 read = 0
UVM_INFO axi4_lite_subscriber.sv(40) @ 3175: uvm_test_top.env.sb [sb] INPUT COVERAGE = 83.33 %
UVM_INFO axi4_lite_inp_monitor.sv(44) @ 3175: uvm_test_top.env.aa.inp_mon [INPUT MONITOR]  WRITE awaddr=00000010 wdata=f3e51bb8 wstrb=1100 
UVM_INFO axi4_lite_out_monitor.sv(28) @ 3195: uvm_test_top.env.pa.out_mon [OUTPUT MONITOR] BRESP = 0 RRESP = 0 RDATA = 00000000
UVM_INFO axi4_lite_driver.sv(34) @ 3195: uvm_test_top.env.aa.drv [DRV] awaddr = 00000010 wdata = f3e51bb8 wstrb = c araddr = 73144de4
UVM_INFO axi4_lite_scoreboard.sv(52) @ 3195: uvm_test_top.env.scb [BRESP] Matched : exp_bresp= 0 actual_bresp=0 write = 1 read = 0
UVM_INFO axi4_lite_subscriber.sv(40) @ 3225: uvm_test_top.env.sb [sb] INPUT COVERAGE = 83.33 %
UVM_INFO axi4_lite_inp_monitor.sv(44) @ 3225: uvm_test_top.env.aa.inp_mon [INPUT MONITOR]  WRITE awaddr=00000028 wdata=163b8182 wstrb=0011 
UVM_INFO axi4_lite_out_monitor.sv(28) @ 3245: uvm_test_top.env.pa.out_mon [OUTPUT MONITOR] BRESP = 2 RRESP = 0 RDATA = 00000000
UVM_INFO axi4_lite_driver.sv(34) @ 3245: uvm_test_top.env.aa.drv [DRV] awaddr = 00000028 wdata = 163b8182 wstrb = 3 araddr = af77ecd0
UVM_INFO axi4_lite_scoreboard.sv(52) @ 3245: uvm_test_top.env.scb [BRESP] Matched : exp_bresp= 2 actual_bresp=2 write = 1 read = 0
UVM_INFO axi4_lite_subscriber.sv(40) @ 3275: uvm_test_top.env.sb [sb] INPUT COVERAGE = 83.33 %
UVM_INFO axi4_lite_inp_monitor.sv(44) @ 3275: uvm_test_top.env.aa.inp_mon [INPUT MONITOR]  WRITE awaddr=00000008 wdata=a4832f10 wstrb=1010 
UVM_INFO axi4_lite_out_monitor.sv(28) @ 3295: uvm_test_top.env.pa.out_mon [OUTPUT MONITOR] BRESP = 0 RRESP = 0 RDATA = 00000000
UVM_INFO axi4_lite_driver.sv(34) @ 3295: uvm_test_top.env.aa.drv [DRV] awaddr = 00000008 wdata = a4832f10 wstrb = a araddr = 6b7de498
UVM_INFO axi4_lite_scoreboard.sv(52) @ 3295: uvm_test_top.env.scb [BRESP] Matched : exp_bresp= 0 actual_bresp=0 write = 1 read = 0
UVM_INFO axi4_lite_subscriber.sv(40) @ 3325: uvm_test_top.env.sb [sb] INPUT COVERAGE = 83.33 %
UVM_INFO axi4_lite_inp_monitor.sv(44) @ 3325: uvm_test_top.env.aa.inp_mon [INPUT MONITOR]  WRITE awaddr=00000014 wdata=b7e08b74 wstrb=1011 
UVM_INFO axi4_lite_out_monitor.sv(28) @ 3345: uvm_test_top.env.pa.out_mon [OUTPUT MONITOR] BRESP = 0 RRESP = 0 RDATA = 00000000
UVM_INFO axi4_lite_driver.sv(34) @ 3345: uvm_test_top.env.aa.drv [DRV] awaddr = 00000014 wdata = b7e08b74 wstrb = b araddr = 02409d34
UVM_INFO axi4_lite_scoreboard.sv(52) @ 3345: uvm_test_top.env.scb [BRESP] Matched : exp_bresp= 0 actual_bresp=0 write = 1 read = 0
UVM_INFO axi4_lite_subscriber.sv(40) @ 3375: uvm_test_top.env.sb [sb] INPUT COVERAGE = 83.33 %
UVM_INFO axi4_lite_inp_monitor.sv(44) @ 3375: uvm_test_top.env.aa.inp_mon [INPUT MONITOR]  WRITE awaddr=00000020 wdata=254a85ae wstrb=1101 
UVM_INFO axi4_lite_out_monitor.sv(28) @ 3395: uvm_test_top.env.pa.out_mon [OUTPUT MONITOR] BRESP = 0 RRESP = 0 RDATA = 00000000
UVM_INFO axi4_lite_driver.sv(34) @ 3395: uvm_test_top.env.aa.drv [DRV] awaddr = 00000020 wdata = 254a85ae wstrb = d araddr = 94ac7d34
UVM_INFO axi4_lite_scoreboard.sv(52) @ 3395: uvm_test_top.env.scb [BRESP] Matched : exp_bresp= 0 actual_bresp=0 write = 1 read = 0
UVM_INFO axi4_lite_subscriber.sv(40) @ 3435: uvm_test_top.env.sb [sb] INPUT COVERAGE = 83.33 %
UVM_INFO axi4_lite_inp_monitor.sv(44) @ 3435: uvm_test_top.env.aa.inp_mon [INPUT MONITOR]  WRITE awaddr=00000008 wdata=d13aab8a wstrb=0000 
UVM_INFO axi4_lite_out_monitor.sv(28) @ 3455: uvm_test_top.env.pa.out_mon [OUTPUT MONITOR] BRESP = 0 RRESP = 0 RDATA = 00000000
UVM_INFO axi4_lite_driver.sv(34) @ 3455: uvm_test_top.env.aa.drv [DRV] awaddr = 00000008 wdata = d13aab8a wstrb = 0 araddr = 14697494
UVM_INFO axi4_lite_scoreboard.sv(52) @ 3455: uvm_test_top.env.scb [BRESP] Matched : exp_bresp= 0 actual_bresp=0 write = 1 read = 0
UVM_INFO axi4_lite_subscriber.sv(40) @ 3505: uvm_test_top.env.sb [sb] INPUT COVERAGE = 83.33 %
UVM_INFO axi4_lite_inp_monitor.sv(44) @ 3505: uvm_test_top.env.aa.inp_mon [INPUT MONITOR]  WRITE awaddr=0000000c wdata=003fc6a2 wstrb=1101 
UVM_INFO axi4_lite_out_monitor.sv(28) @ 3525: uvm_test_top.env.pa.out_mon [OUTPUT MONITOR] BRESP = 0 RRESP = 0 RDATA = 00000000
UVM_INFO axi4_lite_driver.sv(34) @ 3525: uvm_test_top.env.aa.drv [DRV] awaddr = 0000000c wdata = 003fc6a2 wstrb = d araddr = 68b91d90
UVM_INFO axi4_lite_scoreboard.sv(52) @ 3525: uvm_test_top.env.scb [BRESP] Matched : exp_bresp= 0 actual_bresp=0 write = 1 read = 0
UVM_INFO axi4_lite_subscriber.sv(40) @ 3565: uvm_test_top.env.sb [sb] INPUT COVERAGE = 83.33 %
UVM_INFO axi4_lite_inp_monitor.sv(44) @ 3565: uvm_test_top.env.aa.inp_mon [INPUT MONITOR]  WRITE awaddr=00000008 wdata=f09ff411 wstrb=1001 
UVM_INFO axi4_lite_out_monitor.sv(28) @ 3585: uvm_test_top.env.pa.out_mon [OUTPUT MONITOR] BRESP = 0 RRESP = 0 RDATA = 00000000
UVM_INFO axi4_lite_driver.sv(34) @ 3585: uvm_test_top.env.aa.drv [DRV] awaddr = 00000008 wdata = f09ff411 wstrb = 9 araddr = 5cb59f50
UVM_INFO axi4_lite_scoreboard.sv(52) @ 3585: uvm_test_top.env.scb [BRESP] Matched : exp_bresp= 0 actual_bresp=0 write = 1 read = 0
UVM_INFO axi4_lite_subscriber.sv(40) @ 3635: uvm_test_top.env.sb [sb] INPUT COVERAGE = 83.33 %
UVM_INFO axi4_lite_inp_monitor.sv(44) @ 3635: uvm_test_top.env.aa.inp_mon [INPUT MONITOR]  WRITE awaddr=00000000 wdata=5918dcb8 wstrb=1111 
UVM_INFO axi4_lite_out_monitor.sv(28) @ 3655: uvm_test_top.env.pa.out_mon [OUTPUT MONITOR] BRESP = 0 RRESP = 0 RDATA = 00000000
UVM_INFO axi4_lite_driver.sv(34) @ 3655: uvm_test_top.env.aa.drv [DRV] awaddr = 00000000 wdata = 5918dcb8 wstrb = f araddr = a0aefc44
UVM_INFO axi4_lite_scoreboard.sv(52) @ 3655: uvm_test_top.env.scb [BRESP] Matched : exp_bresp= 0 actual_bresp=0 write = 1 read = 0
UVM_INFO axi4_lite_subscriber.sv(40) @ 3705: uvm_test_top.env.sb [sb] INPUT COVERAGE = 83.33 %
UVM_INFO axi4_lite_inp_monitor.sv(44) @ 3705: uvm_test_top.env.aa.inp_mon [INPUT MONITOR]  WRITE awaddr=00000000 wdata=a5266ba8 wstrb=0001 
UVM_INFO axi4_lite_out_monitor.sv(28) @ 3725: uvm_test_top.env.pa.out_mon [OUTPUT MONITOR] BRESP = 0 RRESP = 0 RDATA = 00000000
UVM_INFO axi4_lite_driver.sv(34) @ 3725: uvm_test_top.env.aa.drv [DRV] awaddr = 00000000 wdata = a5266ba8 wstrb = 1 araddr = a8c44044
UVM_INFO axi4_lite_scoreboard.sv(52) @ 3725: uvm_test_top.env.scb [BRESP] Matched : exp_bresp= 0 actual_bresp=0 write = 1 read = 0
UVM_INFO axi4_lite_subscriber.sv(40) @ 3775: uvm_test_top.env.sb [sb] INPUT COVERAGE = 83.33 %
UVM_INFO axi4_lite_inp_monitor.sv(44) @ 3775: uvm_test_top.env.aa.inp_mon [INPUT MONITOR]  WRITE awaddr=00000018 wdata=8723689d wstrb=0100 
UVM_INFO axi4_lite_out_monitor.sv(28) @ 3795: uvm_test_top.env.pa.out_mon [OUTPUT MONITOR] BRESP = 0 RRESP = 0 RDATA = 00000000
UVM_INFO axi4_lite_driver.sv(34) @ 3795: uvm_test_top.env.aa.drv [DRV] awaddr = 00000018 wdata = 8723689d wstrb = 4 araddr = 0db86758
UVM_INFO axi4_lite_scoreboard.sv(52) @ 3795: uvm_test_top.env.scb [BRESP] Matched : exp_bresp= 0 actual_bresp=0 write = 1 read = 0
UVM_INFO axi4_lite_subscriber.sv(40) @ 3835: uvm_test_top.env.sb [sb] INPUT COVERAGE = 83.33 %
UVM_INFO axi4_lite_inp_monitor.sv(44) @ 3835: uvm_test_top.env.aa.inp_mon [INPUT MONITOR]  WRITE awaddr=0000001c wdata=fad43e8a wstrb=0101 
UVM_INFO axi4_lite_out_monitor.sv(28) @ 3855: uvm_test_top.env.pa.out_mon [OUTPUT MONITOR] BRESP = 0 RRESP = 0 RDATA = 00000000
UVM_INFO axi4_lite_driver.sv(34) @ 3855: uvm_test_top.env.aa.drv [DRV] awaddr = 0000001c wdata = fad43e8a wstrb = 5 araddr = b3dea414
UVM_INFO axi4_lite_scoreboard.sv(52) @ 3855: uvm_test_top.env.scb [BRESP] Matched : exp_bresp= 0 actual_bresp=0 write = 1 read = 0
UVM_INFO axi4_lite_subscriber.sv(40) @ 3885: uvm_test_top.env.sb [sb] INPUT COVERAGE = 83.33 %
UVM_INFO axi4_lite_inp_monitor.sv(44) @ 3885: uvm_test_top.env.aa.inp_mon [INPUT MONITOR]  WRITE awaddr=00000028 wdata=479f39cb wstrb=1101 
UVM_INFO axi4_lite_out_monitor.sv(28) @ 3905: uvm_test_top.env.pa.out_mon [OUTPUT MONITOR] BRESP = 2 RRESP = 0 RDATA = 00000000
UVM_INFO axi4_lite_driver.sv(34) @ 3905: uvm_test_top.env.aa.drv [DRV] awaddr = 00000028 wdata = 479f39cb wstrb = d araddr = 2cc28e2c
UVM_INFO axi4_lite_scoreboard.sv(52) @ 3905: uvm_test_top.env.scb [BRESP] Matched : exp_bresp= 2 actual_bresp=2 write = 1 read = 0
UVM_INFO axi4_lite_subscriber.sv(40) @ 3955: uvm_test_top.env.sb [sb] INPUT COVERAGE = 83.33 %
UVM_INFO axi4_lite_inp_monitor.sv(44) @ 3955: uvm_test_top.env.aa.inp_mon [INPUT MONITOR]  WRITE awaddr=0000002c wdata=d91a7185 wstrb=1010 
UVM_INFO axi4_lite_out_monitor.sv(28) @ 3975: uvm_test_top.env.pa.out_mon [OUTPUT MONITOR] BRESP = 2 RRESP = 0 RDATA = 00000000
UVM_INFO axi4_lite_driver.sv(34) @ 3975: uvm_test_top.env.aa.drv [DRV] awaddr = 0000002c wdata = d91a7185 wstrb = a araddr = 274bbb74
UVM_INFO axi4_lite_scoreboard.sv(52) @ 3975: uvm_test_top.env.scb [BRESP] Matched : exp_bresp= 2 actual_bresp=2 write = 1 read = 0
UVM_INFO axi4_lite_subscriber.sv(40) @ 4005: uvm_test_top.env.sb [sb] INPUT COVERAGE = 83.33 %
UVM_INFO axi4_lite_inp_monitor.sv(44) @ 4005: uvm_test_top.env.aa.inp_mon [INPUT MONITOR]  WRITE awaddr=00000020 wdata=ae8f7fd2 wstrb=0111 
UVM_INFO axi4_lite_out_monitor.sv(28) @ 4025: uvm_test_top.env.pa.out_mon [OUTPUT MONITOR] BRESP = 0 RRESP = 0 RDATA = 00000000
UVM_INFO axi4_lite_driver.sv(34) @ 4025: uvm_test_top.env.aa.drv [DRV] awaddr = 00000020 wdata = ae8f7fd2 wstrb = 7 araddr = 1d664bbc
UVM_INFO axi4_lite_scoreboard.sv(52) @ 4025: uvm_test_top.env.scb [BRESP] Matched : exp_bresp= 0 actual_bresp=0 write = 1 read = 0
UVM_INFO axi4_lite_subscriber.sv(40) @ 4065: uvm_test_top.env.sb [sb] INPUT COVERAGE = 83.33 %
UVM_INFO axi4_lite_inp_monitor.sv(44) @ 4065: uvm_test_top.env.aa.inp_mon [INPUT MONITOR]  WRITE awaddr=00000030 wdata=d602979c wstrb=1001 
UVM_INFO axi4_lite_out_monitor.sv(28) @ 4085: uvm_test_top.env.pa.out_mon [OUTPUT MONITOR] BRESP = 2 RRESP = 0 RDATA = 00000000
UVM_INFO axi4_lite_driver.sv(34) @ 4085: uvm_test_top.env.aa.drv [DRV] awaddr = 00000030 wdata = d602979c wstrb = 9 araddr = fa911440
UVM_INFO axi4_lite_scoreboard.sv(52) @ 4085: uvm_test_top.env.scb [BRESP] Matched : exp_bresp= 2 actual_bresp=2 write = 1 read = 0
UVM_INFO axi4_lite_subscriber.sv(40) @ 4125: uvm_test_top.env.sb [sb] INPUT COVERAGE = 83.33 %
UVM_INFO axi4_lite_inp_monitor.sv(44) @ 4125: uvm_test_top.env.aa.inp_mon [INPUT MONITOR]  WRITE awaddr=0000001c wdata=6931d077 wstrb=1110 
UVM_INFO axi4_lite_out_monitor.sv(28) @ 4145: uvm_test_top.env.pa.out_mon [OUTPUT MONITOR] BRESP = 0 RRESP = 0 RDATA = 00000000
UVM_INFO axi4_lite_driver.sv(34) @ 4145: uvm_test_top.env.aa.drv [DRV] awaddr = 0000001c wdata = 6931d077 wstrb = e araddr = f998dc00
UVM_INFO axi4_lite_scoreboard.sv(52) @ 4145: uvm_test_top.env.scb [BRESP] Matched : exp_bresp= 0 actual_bresp=0 write = 1 read = 0
UVM_INFO axi4_lite_subscriber.sv(40) @ 4185: uvm_test_top.env.sb [sb] INPUT COVERAGE = 83.33 %
UVM_INFO axi4_lite_inp_monitor.sv(44) @ 4185: uvm_test_top.env.aa.inp_mon [INPUT MONITOR]  WRITE awaddr=00000018 wdata=c42f4876 wstrb=0110 
UVM_INFO axi4_lite_out_monitor.sv(28) @ 4205: uvm_test_top.env.pa.out_mon [OUTPUT MONITOR] BRESP = 0 RRESP = 0 RDATA = 00000000
UVM_INFO axi4_lite_driver.sv(34) @ 4205: uvm_test_top.env.aa.drv [DRV] awaddr = 00000018 wdata = c42f4876 wstrb = 6 araddr = f9ce1330
UVM_INFO axi4_lite_scoreboard.sv(52) @ 4205: uvm_test_top.env.scb [BRESP] Matched : exp_bresp= 0 actual_bresp=0 write = 1 read = 0
UVM_INFO axi4_lite_subscriber.sv(40) @ 4235: uvm_test_top.env.sb [sb] INPUT COVERAGE = 83.33 %
UVM_INFO axi4_lite_inp_monitor.sv(44) @ 4235: uvm_test_top.env.aa.inp_mon [INPUT MONITOR]  WRITE awaddr=00000034 wdata=2903ecbf wstrb=1101 
UVM_INFO axi4_lite_out_monitor.sv(28) @ 4255: uvm_test_top.env.pa.out_mon [OUTPUT MONITOR] BRESP = 0 RRESP = 0 RDATA = 00000000
UVM_INFO axi4_lite_driver.sv(34) @ 4255: uvm_test_top.env.aa.drv [DRV] awaddr = 00000034 wdata = 2903ecbf wstrb = d araddr = f9ea38a4
UVM_INFO axi4_lite_scoreboard.sv(52) @ 4255: uvm_test_top.env.scb [BRESP] Matched : exp_bresp= 0 actual_bresp=0 write = 1 read = 0
UVM_INFO axi4_lite_subscriber.sv(40) @ 4285: uvm_test_top.env.sb [sb] INPUT COVERAGE = 83.33 %
UVM_INFO axi4_lite_inp_monitor.sv(44) @ 4285: uvm_test_top.env.aa.inp_mon [INPUT MONITOR]  WRITE awaddr=00000024 wdata=ddb49148 wstrb=1100 
UVM_INFO axi4_lite_out_monitor.sv(28) @ 4305: uvm_test_top.env.pa.out_mon [OUTPUT MONITOR] BRESP = 0 RRESP = 0 RDATA = 00000000
UVM_INFO axi4_lite_driver.sv(34) @ 4305: uvm_test_top.env.aa.drv [DRV] awaddr = 00000024 wdata = ddb49148 wstrb = c araddr = 82de6ed4
UVM_INFO axi4_lite_scoreboard.sv(52) @ 4305: uvm_test_top.env.scb [BRESP] Matched : exp_bresp= 0 actual_bresp=0 write = 1 read = 0
UVM_INFO axi4_lite_subscriber.sv(40) @ 4325: uvm_test_top.env.sb [sb] INPUT COVERAGE = 83.33 %
UVM_INFO axi4_lite_inp_monitor.sv(44) @ 4325: uvm_test_top.env.aa.inp_mon [INPUT MONITOR]  WRITE awaddr=0000001c wdata=660e7b32 wstrb=0000 
UVM_INFO axi4_lite_out_monitor.sv(28) @ 4345: uvm_test_top.env.pa.out_mon [OUTPUT MONITOR] BRESP = 0 RRESP = 0 RDATA = 00000000
UVM_INFO axi4_lite_driver.sv(34) @ 4345: uvm_test_top.env.aa.drv [DRV] awaddr = 0000001c wdata = 660e7b32 wstrb = 0 araddr = 8732e09c
UVM_INFO axi4_lite_scoreboard.sv(52) @ 4345: uvm_test_top.env.scb [BRESP] Matched : exp_bresp= 0 actual_bresp=0 write = 1 read = 0
UVM_INFO axi4_lite_subscriber.sv(40) @ 4385: uvm_test_top.env.sb [sb] INPUT COVERAGE = 83.33 %
UVM_INFO axi4_lite_inp_monitor.sv(44) @ 4385: uvm_test_top.env.aa.inp_mon [INPUT MONITOR]  WRITE awaddr=00000028 wdata=43eeb5b7 wstrb=0011 
UVM_INFO axi4_lite_out_monitor.sv(28) @ 4405: uvm_test_top.env.pa.out_mon [OUTPUT MONITOR] BRESP = 2 RRESP = 0 RDATA = 00000000
UVM_INFO axi4_lite_driver.sv(34) @ 4405: uvm_test_top.env.aa.drv [DRV] awaddr = 00000028 wdata = 43eeb5b7 wstrb = 3 araddr = edeeb734
UVM_INFO axi4_lite_scoreboard.sv(52) @ 4405: uvm_test_top.env.scb [BRESP] Matched : exp_bresp= 2 actual_bresp=2 write = 1 read = 0
UVM_INFO axi4_lite_subscriber.sv(40) @ 4435: uvm_test_top.env.sb [sb] INPUT COVERAGE = 83.33 %
UVM_INFO axi4_lite_inp_monitor.sv(44) @ 4435: uvm_test_top.env.aa.inp_mon [INPUT MONITOR]  WRITE awaddr=0000000c wdata=1faeb0e1 wstrb=1010 
UVM_INFO axi4_lite_out_monitor.sv(28) @ 4455: uvm_test_top.env.pa.out_mon [OUTPUT MONITOR] BRESP = 0 RRESP = 0 RDATA = 00000000
UVM_INFO axi4_lite_driver.sv(34) @ 4455: uvm_test_top.env.aa.drv [DRV] awaddr = 0000000c wdata = 1faeb0e1 wstrb = a araddr = b5cd0420
UVM_INFO axi4_lite_scoreboard.sv(52) @ 4455: uvm_test_top.env.scb [BRESP] Matched : exp_bresp= 0 actual_bresp=0 write = 1 read = 0
UVM_INFO axi4_lite_subscriber.sv(40) @ 4475: uvm_test_top.env.sb [sb] INPUT COVERAGE = 83.33 %
UVM_INFO axi4_lite_inp_monitor.sv(44) @ 4475: uvm_test_top.env.aa.inp_mon [INPUT MONITOR]  WRITE awaddr=0000002c wdata=9dce7a80 wstrb=1111 
UVM_INFO axi4_lite_out_monitor.sv(28) @ 4495: uvm_test_top.env.pa.out_mon [OUTPUT MONITOR] BRESP = 2 RRESP = 0 RDATA = 00000000
UVM_INFO axi4_lite_driver.sv(34) @ 4495: uvm_test_top.env.aa.drv [DRV] awaddr = 0000002c wdata = 9dce7a80 wstrb = f araddr = 058ff264
UVM_INFO axi4_lite_scoreboard.sv(52) @ 4495: uvm_test_top.env.scb [BRESP] Matched : exp_bresp= 2 actual_bresp=2 write = 1 read = 0
UVM_INFO axi4_lite_subscriber.sv(40) @ 4525: uvm_test_top.env.sb [sb] INPUT COVERAGE = 83.33 %
UVM_INFO axi4_lite_inp_monitor.sv(44) @ 4525: uvm_test_top.env.aa.inp_mon [INPUT MONITOR]  WRITE awaddr=00000004 wdata=ec277197 wstrb=1111 
UVM_INFO axi4_lite_out_monitor.sv(28) @ 4545: uvm_test_top.env.pa.out_mon [OUTPUT MONITOR] BRESP = 0 RRESP = 0 RDATA = 00000000
UVM_INFO axi4_lite_driver.sv(34) @ 4545: uvm_test_top.env.aa.drv [DRV] awaddr = 00000004 wdata = ec277197 wstrb = f araddr = a6784d04
UVM_INFO axi4_lite_scoreboard.sv(52) @ 4545: uvm_test_top.env.scb [BRESP] Matched : exp_bresp= 0 actual_bresp=0 write = 1 read = 0
UVM_INFO axi4_lite_subscriber.sv(40) @ 4595: uvm_test_top.env.sb [sb] INPUT COVERAGE = 83.33 %
UVM_INFO axi4_lite_inp_monitor.sv(44) @ 4595: uvm_test_top.env.aa.inp_mon [INPUT MONITOR]  WRITE awaddr=00000024 wdata=63711d4f wstrb=0011 
UVM_INFO axi4_lite_out_monitor.sv(28) @ 4615: uvm_test_top.env.pa.out_mon [OUTPUT MONITOR] BRESP = 0 RRESP = 0 RDATA = 00000000
UVM_INFO axi4_lite_driver.sv(34) @ 4615: uvm_test_top.env.aa.drv [DRV] awaddr = 00000024 wdata = 63711d4f wstrb = 3 araddr = 8493a3d0
UVM_INFO axi4_lite_scoreboard.sv(52) @ 4615: uvm_test_top.env.scb [BRESP] Matched : exp_bresp= 0 actual_bresp=0 write = 1 read = 0
UVM_INFO axi4_lite_subscriber.sv(40) @ 4655: uvm_test_top.env.sb [sb] INPUT COVERAGE = 83.33 %
UVM_INFO axi4_lite_inp_monitor.sv(44) @ 4655: uvm_test_top.env.aa.inp_mon [INPUT MONITOR]  WRITE awaddr=0000001c wdata=17f7246e wstrb=1011 
UVM_INFO axi4_lite_out_monitor.sv(28) @ 4675: uvm_test_top.env.pa.out_mon [OUTPUT MONITOR] BRESP = 0 RRESP = 0 RDATA = 00000000
UVM_INFO axi4_lite_driver.sv(34) @ 4675: uvm_test_top.env.aa.drv [DRV] awaddr = 0000001c wdata = 17f7246e wstrb = b araddr = 10062450
UVM_INFO axi4_lite_scoreboard.sv(52) @ 4675: uvm_test_top.env.scb [BRESP] Matched : exp_bresp= 0 actual_bresp=0 write = 1 read = 0
UVM_INFO axi4_lite_subscriber.sv(40) @ 4725: uvm_test_top.env.sb [sb] INPUT COVERAGE = 83.33 %
UVM_INFO axi4_lite_inp_monitor.sv(44) @ 4725: uvm_test_top.env.aa.inp_mon [INPUT MONITOR]  WRITE awaddr=00000018 wdata=65ad5de9 wstrb=1001 
UVM_INFO axi4_lite_out_monitor.sv(28) @ 4745: uvm_test_top.env.pa.out_mon [OUTPUT MONITOR] BRESP = 0 RRESP = 0 RDATA = 00000000
UVM_INFO axi4_lite_driver.sv(34) @ 4745: uvm_test_top.env.aa.drv [DRV] awaddr = 00000018 wdata = 65ad5de9 wstrb = 9 araddr = ccb48d28
UVM_INFO axi4_lite_scoreboard.sv(52) @ 4745: uvm_test_top.env.scb [BRESP] Matched : exp_bresp= 0 actual_bresp=0 write = 1 read = 0
UVM_INFO axi4_lite_subscriber.sv(40) @ 4775: uvm_test_top.env.sb [sb] INPUT COVERAGE = 83.33 %
UVM_INFO axi4_lite_inp_monitor.sv(44) @ 4775: uvm_test_top.env.aa.inp_mon [INPUT MONITOR]  WRITE awaddr=00000020 wdata=0d701b25 wstrb=1111 
UVM_INFO axi4_lite_out_monitor.sv(28) @ 4795: uvm_test_top.env.pa.out_mon [OUTPUT MONITOR] BRESP = 0 RRESP = 0 RDATA = 00000000
UVM_INFO axi4_lite_driver.sv(34) @ 4795: uvm_test_top.env.aa.drv [DRV] awaddr = 00000020 wdata = 0d701b25 wstrb = f araddr = 96b65188
UVM_INFO axi4_lite_scoreboard.sv(52) @ 4795: uvm_test_top.env.scb [BRESP] Matched : exp_bresp= 0 actual_bresp=0 write = 1 read = 0
UVM_INFO axi4_lite_subscriber.sv(40) @ 4815: uvm_test_top.env.sb [sb] INPUT COVERAGE = 83.33 %
UVM_INFO axi4_lite_inp_monitor.sv(44) @ 4815: uvm_test_top.env.aa.inp_mon [INPUT MONITOR]  WRITE awaddr=00000018 wdata=db9b51b3 wstrb=0010 
UVM_INFO axi4_lite_out_monitor.sv(28) @ 4835: uvm_test_top.env.pa.out_mon [OUTPUT MONITOR] BRESP = 0 RRESP = 0 RDATA = 00000000
UVM_INFO axi4_lite_driver.sv(34) @ 4835: uvm_test_top.env.aa.drv [DRV] awaddr = 00000018 wdata = db9b51b3 wstrb = 2 araddr = d4608ac0
UVM_INFO axi4_lite_scoreboard.sv(52) @ 4835: uvm_test_top.env.scb [BRESP] Matched : exp_bresp= 0 actual_bresp=0 write = 1 read = 0
UVM_INFO axi4_lite_subscriber.sv(40) @ 4875: uvm_test_top.env.sb [sb] INPUT COVERAGE = 83.33 %
UVM_INFO axi4_lite_inp_monitor.sv(44) @ 4875: uvm_test_top.env.aa.inp_mon [INPUT MONITOR]  WRITE awaddr=0000000c wdata=d52ca928 wstrb=0000 
UVM_INFO axi4_lite_out_monitor.sv(28) @ 4895: uvm_test_top.env.pa.out_mon [OUTPUT MONITOR] BRESP = 0 RRESP = 0 RDATA = 00000000
UVM_INFO axi4_lite_driver.sv(34) @ 4895: uvm_test_top.env.aa.drv [DRV] awaddr = 0000000c wdata = d52ca928 wstrb = 0 araddr = a8ccf7e8
UVM_INFO axi4_lite_scoreboard.sv(52) @ 4895: uvm_test_top.env.scb [BRESP] Matched : exp_bresp= 0 actual_bresp=0 write = 1 read = 0
UVM_INFO axi4_lite_subscriber.sv(40) @ 4935: uvm_test_top.env.sb [sb] INPUT COVERAGE = 83.33 %
UVM_INFO axi4_lite_inp_monitor.sv(44) @ 4935: uvm_test_top.env.aa.inp_mon [INPUT MONITOR]  WRITE awaddr=0000002c wdata=8e3bd1f5 wstrb=1000 
UVM_INFO axi4_lite_out_monitor.sv(28) @ 4955: uvm_test_top.env.pa.out_mon [OUTPUT MONITOR] BRESP = 2 RRESP = 0 RDATA = 00000000
UVM_INFO axi4_lite_driver.sv(34) @ 4955: uvm_test_top.env.aa.drv [DRV] awaddr = 0000002c wdata = 8e3bd1f5 wstrb = 8 araddr = f9169a18
UVM_INFO axi4_lite_scoreboard.sv(52) @ 4955: uvm_test_top.env.scb [BRESP] Matched : exp_bresp= 2 actual_bresp=2 write = 1 read = 0
UVM_INFO axi4_lite_subscriber.sv(40) @ 4995: uvm_test_top.env.sb [sb] INPUT COVERAGE = 83.33 %
UVM_INFO axi4_lite_inp_monitor.sv(44) @ 4995: uvm_test_top.env.aa.inp_mon [INPUT MONITOR]  WRITE awaddr=00000004 wdata=2b9300da wstrb=0111 
UVM_INFO axi4_lite_out_monitor.sv(28) @ 5015: uvm_test_top.env.pa.out_mon [OUTPUT MONITOR] BRESP = 0 RRESP = 0 RDATA = 00000000
UVM_INFO axi4_lite_driver.sv(34) @ 5015: uvm_test_top.env.aa.drv [DRV] awaddr = 00000004 wdata = 2b9300da wstrb = 7 araddr = 8462c894
UVM_INFO axi4_lite_scoreboard.sv(52) @ 5015: uvm_test_top.env.scb [BRESP] Matched : exp_bresp= 0 actual_bresp=0 write = 1 read = 0
UVM_INFO axi4_lite_subscriber.sv(40) @ 5035: uvm_test_top.env.sb [sb] INPUT COVERAGE = 83.33 %
UVM_INFO axi4_lite_inp_monitor.sv(44) @ 5035: uvm_test_top.env.aa.inp_mon [INPUT MONITOR]  WRITE awaddr=00000018 wdata=5f960a23 wstrb=0000 
UVM_INFO axi4_lite_out_monitor.sv(28) @ 5055: uvm_test_top.env.pa.out_mon [OUTPUT MONITOR] BRESP = 0 RRESP = 0 RDATA = 00000000
UVM_INFO axi4_lite_driver.sv(34) @ 5055: uvm_test_top.env.aa.drv [DRV] awaddr = 00000018 wdata = 5f960a23 wstrb = 0 araddr = b55b0718
UVM_INFO axi4_lite_scoreboard.sv(52) @ 5055: uvm_test_top.env.scb [BRESP] Matched : exp_bresp= 0 actual_bresp=0 write = 1 read = 0
UVM_INFO axi4_lite_subscriber.sv(40) @ 5105: uvm_test_top.env.sb [sb] INPUT COVERAGE = 83.33 %
UVM_INFO axi4_lite_inp_monitor.sv(44) @ 5105: uvm_test_top.env.aa.inp_mon [INPUT MONITOR]  WRITE awaddr=00000008 wdata=0325e5bd wstrb=0010 
UVM_INFO axi4_lite_out_monitor.sv(28) @ 5125: uvm_test_top.env.pa.out_mon [OUTPUT MONITOR] BRESP = 0 RRESP = 0 RDATA = 00000000
UVM_INFO axi4_lite_driver.sv(34) @ 5125: uvm_test_top.env.aa.drv [DRV] awaddr = 00000008 wdata = 0325e5bd wstrb = 2 araddr = 19922238
UVM_INFO axi4_lite_scoreboard.sv(52) @ 5125: uvm_test_top.env.scb [BRESP] Matched : exp_bresp= 0 actual_bresp=0 write = 1 read = 0
UVM_INFO axi4_lite_subscriber.sv(40) @ 5145: uvm_test_top.env.sb [sb] INPUT COVERAGE = 83.33 %
UVM_INFO axi4_lite_inp_monitor.sv(44) @ 5145: uvm_test_top.env.aa.inp_mon [INPUT MONITOR]  WRITE awaddr=00000030 wdata=5b7b4b6a wstrb=1000 
UVM_INFO axi4_lite_out_monitor.sv(28) @ 5165: uvm_test_top.env.pa.out_mon [OUTPUT MONITOR] BRESP = 2 RRESP = 0 RDATA = 00000000
UVM_INFO axi4_lite_driver.sv(34) @ 5165: uvm_test_top.env.aa.drv [DRV] awaddr = 00000030 wdata = 5b7b4b6a wstrb = 8 araddr = 22ed4130
UVM_INFO axi4_lite_scoreboard.sv(52) @ 5165: uvm_test_top.env.scb [BRESP] Matched : exp_bresp= 2 actual_bresp=2 write = 1 read = 0
UVM_INFO axi4_lite_subscriber.sv(40) @ 5205: uvm_test_top.env.sb [sb] INPUT COVERAGE = 83.33 %
UVM_INFO axi4_lite_inp_monitor.sv(44) @ 5205: uvm_test_top.env.aa.inp_mon [INPUT MONITOR]  WRITE awaddr=00000038 wdata=1251c38d wstrb=1110 
UVM_INFO axi4_lite_out_monitor.sv(28) @ 5225: uvm_test_top.env.pa.out_mon [OUTPUT MONITOR] BRESP = 0 RRESP = 0 RDATA = 00000000
UVM_INFO axi4_lite_driver.sv(34) @ 5225: uvm_test_top.env.aa.drv [DRV] awaddr = 00000038 wdata = 1251c38d wstrb = e araddr = 3281c118
UVM_INFO axi4_lite_scoreboard.sv(52) @ 5225: uvm_test_top.env.scb [BRESP] Matched : exp_bresp= 0 actual_bresp=0 write = 1 read = 0
UVM_INFO axi4_lite_subscriber.sv(40) @ 5275: uvm_test_top.env.sb [sb] INPUT COVERAGE = 83.33 %
UVM_INFO axi4_lite_inp_monitor.sv(44) @ 5275: uvm_test_top.env.aa.inp_mon [INPUT MONITOR]  WRITE awaddr=00000028 wdata=8312cc99 wstrb=0110 
UVM_INFO axi4_lite_out_monitor.sv(28) @ 5295: uvm_test_top.env.pa.out_mon [OUTPUT MONITOR] BRESP = 2 RRESP = 0 RDATA = 00000000
UVM_INFO axi4_lite_driver.sv(34) @ 5295: uvm_test_top.env.aa.drv [DRV] awaddr = 00000028 wdata = 8312cc99 wstrb = 6 araddr = 25203844
UVM_INFO axi4_lite_scoreboard.sv(52) @ 5295: uvm_test_top.env.scb [BRESP] Matched : exp_bresp= 2 actual_bresp=2 write = 1 read = 0
UVM_INFO axi4_lite_subscriber.sv(40) @ 5335: uvm_test_top.env.sb [sb] INPUT COVERAGE = 83.33 %
UVM_INFO axi4_lite_inp_monitor.sv(44) @ 5335: uvm_test_top.env.aa.inp_mon [INPUT MONITOR]  WRITE awaddr=00000004 wdata=45819a3d wstrb=1010 
UVM_INFO axi4_lite_out_monitor.sv(28) @ 5355: uvm_test_top.env.pa.out_mon [OUTPUT MONITOR] BRESP = 0 RRESP = 0 RDATA = 00000000
UVM_INFO axi4_lite_driver.sv(34) @ 5355: uvm_test_top.env.aa.drv [DRV] awaddr = 00000004 wdata = 45819a3d wstrb = a araddr = 6379ce6c
UVM_INFO axi4_lite_scoreboard.sv(52) @ 5355: uvm_test_top.env.scb [BRESP] Matched : exp_bresp= 0 actual_bresp=0 write = 1 read = 0
UVM_INFO axi4_lite_subscriber.sv(40) @ 5405: uvm_test_top.env.sb [sb] INPUT COVERAGE = 83.33 %
UVM_INFO axi4_lite_inp_monitor.sv(44) @ 5405: uvm_test_top.env.aa.inp_mon [INPUT MONITOR]  WRITE awaddr=00000004 wdata=4edd0f1b wstrb=0001 
UVM_INFO axi4_lite_out_monitor.sv(28) @ 5425: uvm_test_top.env.pa.out_mon [OUTPUT MONITOR] BRESP = 0 RRESP = 0 RDATA = 00000000
UVM_INFO axi4_lite_driver.sv(34) @ 5425: uvm_test_top.env.aa.drv [DRV] awaddr = 00000004 wdata = 4edd0f1b wstrb = 1 araddr = c1ecef38
UVM_INFO axi4_lite_scoreboard.sv(52) @ 5425: uvm_test_top.env.scb [BRESP] Matched : exp_bresp= 0 actual_bresp=0 write = 1 read = 0
UVM_INFO axi4_lite_subscriber.sv(40) @ 5455: uvm_test_top.env.sb [sb] INPUT COVERAGE = 83.33 %
UVM_INFO axi4_lite_inp_monitor.sv(44) @ 5455: uvm_test_top.env.aa.inp_mon [INPUT MONITOR]  WRITE awaddr=0000002c wdata=cdc3d2f8 wstrb=1001 
UVM_INFO axi4_lite_out_monitor.sv(28) @ 5475: uvm_test_top.env.pa.out_mon [OUTPUT MONITOR] BRESP = 2 RRESP = 0 RDATA = 00000000
UVM_INFO axi4_lite_driver.sv(34) @ 5475: uvm_test_top.env.aa.drv [DRV] awaddr = 0000002c wdata = cdc3d2f8 wstrb = 9 araddr = 3ee19e80
UVM_INFO axi4_lite_scoreboard.sv(52) @ 5475: uvm_test_top.env.scb [BRESP] Matched : exp_bresp= 2 actual_bresp=2 write = 1 read = 0
UVM_INFO axi4_lite_subscriber.sv(40) @ 5525: uvm_test_top.env.sb [sb] INPUT COVERAGE = 83.33 %
UVM_INFO axi4_lite_inp_monitor.sv(44) @ 5525: uvm_test_top.env.aa.inp_mon [INPUT MONITOR]  WRITE awaddr=00000024 wdata=a096f549 wstrb=1011 
UVM_INFO axi4_lite_out_monitor.sv(28) @ 5545: uvm_test_top.env.pa.out_mon [OUTPUT MONITOR] BRESP = 0 RRESP = 0 RDATA = 00000000
UVM_INFO axi4_lite_driver.sv(34) @ 5545: uvm_test_top.env.aa.drv [DRV] awaddr = 00000024 wdata = a096f549 wstrb = b araddr = 1efcfe7c
UVM_INFO axi4_lite_scoreboard.sv(52) @ 5545: uvm_test_top.env.scb [BRESP] Matched : exp_bresp= 0 actual_bresp=0 write = 1 read = 0
UVM_INFO axi4_lite_subscriber.sv(40) @ 5585: uvm_test_top.env.sb [sb] INPUT COVERAGE = 83.33 %
UVM_INFO axi4_lite_inp_monitor.sv(44) @ 5585: uvm_test_top.env.aa.inp_mon [INPUT MONITOR]  WRITE awaddr=0000001c wdata=ea98c2ae wstrb=0110 
UVM_INFO axi4_lite_out_monitor.sv(28) @ 5605: uvm_test_top.env.pa.out_mon [OUTPUT MONITOR] BRESP = 0 RRESP = 0 RDATA = 00000000
UVM_INFO axi4_lite_driver.sv(34) @ 5605: uvm_test_top.env.aa.drv [DRV] awaddr = 0000001c wdata = ea98c2ae wstrb = 6 araddr = e1108fa4
UVM_INFO axi4_lite_scoreboard.sv(52) @ 5605: uvm_test_top.env.scb [BRESP] Matched : exp_bresp= 0 actual_bresp=0 write = 1 read = 0
UVM_INFO axi4_lite_subscriber.sv(40) @ 5655: uvm_test_top.env.sb [sb] INPUT COVERAGE = 83.33 %
UVM_INFO axi4_lite_inp_monitor.sv(44) @ 5655: uvm_test_top.env.aa.inp_mon [INPUT MONITOR]  WRITE awaddr=00000024 wdata=0e8c36cb wstrb=1100 
UVM_INFO axi4_lite_out_monitor.sv(28) @ 5675: uvm_test_top.env.pa.out_mon [OUTPUT MONITOR] BRESP = 0 RRESP = 0 RDATA = 00000000
UVM_INFO axi4_lite_driver.sv(34) @ 5675: uvm_test_top.env.aa.drv [DRV] awaddr = 00000024 wdata = 0e8c36cb wstrb = c araddr = f685ac80
UVM_INFO axi4_lite_scoreboard.sv(52) @ 5675: uvm_test_top.env.scb [BRESP] Matched : exp_bresp= 0 actual_bresp=0 write = 1 read = 0
UVM_INFO axi4_lite_subscriber.sv(40) @ 5725: uvm_test_top.env.sb [sb] INPUT COVERAGE = 83.33 %
UVM_INFO axi4_lite_inp_monitor.sv(44) @ 5725: uvm_test_top.env.aa.inp_mon [INPUT MONITOR]  WRITE awaddr=00000030 wdata=5b0ad186 wstrb=1011 
UVM_INFO axi4_lite_out_monitor.sv(28) @ 5745: uvm_test_top.env.pa.out_mon [OUTPUT MONITOR] BRESP = 2 RRESP = 0 RDATA = 00000000
UVM_INFO axi4_lite_driver.sv(34) @ 5745: uvm_test_top.env.aa.drv [DRV] awaddr = 00000030 wdata = 5b0ad186 wstrb = b araddr = b9dfc310
UVM_INFO axi4_lite_scoreboard.sv(52) @ 5745: uvm_test_top.env.scb [BRESP] Matched : exp_bresp= 2 actual_bresp=2 write = 1 read = 0
Write completed
UVM_INFO axi4_lite_subscriber.sv(40) @ 5755: uvm_test_top.env.sb [sb] INPUT COVERAGE = 83.33 %
UVM_INFO axi4_lite_inp_monitor.sv(38) @ 5755: uvm_test_top.env.aa.inp_mon [INPUT MONITOR] READ araddr=00000004
UVM_INFO axi4_lite_out_monitor.sv(28) @ 5765: uvm_test_top.env.pa.out_mon [OUTPUT MONITOR] BRESP = 0 RRESP = 0 RDATA = 45939a1b
UVM_INFO axi4_lite_driver.sv(34) @ 5765: uvm_test_top.env.aa.drv [DRV] awaddr = c5501fc0 wdata = a907c020 wstrb = 5 araddr = 00000004
UVM_INFO axi4_lite_scoreboard.sv(68) @ 5765: uvm_test_top.env.scb [RRESP] Matched : exp_rresp=0 actual_rresp =0 write = 0 read = 1
UVM_INFO axi4_lite_scoreboard.sv(72) @ 5765: uvm_test_top.env.scb [RDATA] Matched : exp_rdata=45939a1b actual_rdata =45939a1b
UVM_INFO axi4_lite_subscriber.sv(40) @ 5785: uvm_test_top.env.sb [sb] INPUT COVERAGE = 91.67 %
UVM_INFO axi4_lite_inp_monitor.sv(38) @ 5785: uvm_test_top.env.aa.inp_mon [INPUT MONITOR] READ araddr=00000028
UVM_INFO axi4_lite_out_monitor.sv(28) @ 5795: uvm_test_top.env.pa.out_mon [OUTPUT MONITOR] BRESP = 0 RRESP = 0 RDATA = 00000000
UVM_INFO axi4_lite_driver.sv(34) @ 5795: uvm_test_top.env.aa.drv [DRV] awaddr = c794bd6c wdata = ebca13c5 wstrb = 1 araddr = 00000028
UVM_INFO axi4_lite_scoreboard.sv(68) @ 5795: uvm_test_top.env.scb [RRESP] Matched : exp_rresp=0 actual_rresp =0 write = 0 read = 1
UVM_INFO axi4_lite_scoreboard.sv(72) @ 5795: uvm_test_top.env.scb [RDATA] Matched : exp_rdata=00000000 actual_rdata =00000000
UVM_INFO axi4_lite_subscriber.sv(40) @ 5815: uvm_test_top.env.sb [sb] INPUT COVERAGE = 91.67 %
UVM_INFO axi4_lite_inp_monitor.sv(38) @ 5815: uvm_test_top.env.aa.inp_mon [INPUT MONITOR] READ araddr=00000018
UVM_INFO axi4_lite_out_monitor.sv(28) @ 5825: uvm_test_top.env.pa.out_mon [OUTPUT MONITOR] BRESP = 0 RRESP = 0 RDATA = 0d9300da
UVM_INFO axi4_lite_driver.sv(34) @ 5825: uvm_test_top.env.aa.drv [DRV] awaddr = 2ffc4a04 wdata = 26f3a40b wstrb = 5 araddr = 00000018
UVM_INFO axi4_lite_scoreboard.sv(68) @ 5825: uvm_test_top.env.scb [RRESP] Matched : exp_rresp=0 actual_rresp =0 write = 0 read = 1
UVM_ERROR axi4_lite_scoreboard.sv(74) @ 5825: uvm_test_top.env.scb [RDATA] Mismatched : exp_rdata= 652f51e9 actual_rdata=0d9300da 
UVM_INFO axi4_lite_subscriber.sv(40) @ 5845: uvm_test_top.env.sb [sb] INPUT COVERAGE = 91.67 %
UVM_INFO axi4_lite_inp_monitor.sv(38) @ 5845: uvm_test_top.env.aa.inp_mon [INPUT MONITOR] READ araddr=00000018
UVM_INFO axi4_lite_out_monitor.sv(28) @ 5855: uvm_test_top.env.pa.out_mon [OUTPUT MONITOR] BRESP = 0 RRESP = 0 RDATA = 0d9300da
UVM_INFO axi4_lite_driver.sv(34) @ 5855: uvm_test_top.env.aa.drv [DRV] awaddr = 09db10dc wdata = 8f33c0b4 wstrb = a araddr = 00000018
UVM_INFO axi4_lite_scoreboard.sv(68) @ 5855: uvm_test_top.env.scb [RRESP] Matched : exp_rresp=0 actual_rresp =0 write = 0 read = 1
UVM_ERROR axi4_lite_scoreboard.sv(74) @ 5855: uvm_test_top.env.scb [RDATA] Mismatched : exp_rdata= 652f51e9 actual_rdata=0d9300da 
UVM_INFO axi4_lite_subscriber.sv(40) @ 5875: uvm_test_top.env.sb [sb] INPUT COVERAGE = 91.67 %
UVM_INFO axi4_lite_inp_monitor.sv(38) @ 5875: uvm_test_top.env.aa.inp_mon [INPUT MONITOR] READ araddr=00000004
UVM_INFO axi4_lite_out_monitor.sv(28) @ 5885: uvm_test_top.env.pa.out_mon [OUTPUT MONITOR] BRESP = 0 RRESP = 0 RDATA = 45939a1b
UVM_INFO axi4_lite_driver.sv(34) @ 5885: uvm_test_top.env.aa.drv [DRV] awaddr = 549dc654 wdata = c1efb663 wstrb = 8 araddr = 00000004
UVM_INFO axi4_lite_scoreboard.sv(68) @ 5885: uvm_test_top.env.scb [RRESP] Matched : exp_rresp=0 actual_rresp =0 write = 0 read = 1
UVM_INFO axi4_lite_scoreboard.sv(72) @ 5885: uvm_test_top.env.scb [RDATA] Matched : exp_rdata=45939a1b actual_rdata =45939a1b
UVM_INFO axi4_lite_subscriber.sv(40) @ 5905: uvm_test_top.env.sb [sb] INPUT COVERAGE = 91.67 %
UVM_INFO axi4_lite_inp_monitor.sv(38) @ 5905: uvm_test_top.env.aa.inp_mon [INPUT MONITOR] READ araddr=00000008
UVM_INFO axi4_lite_out_monitor.sv(28) @ 5915: uvm_test_top.env.pa.out_mon [OUTPUT MONITOR] BRESP = 0 RRESP = 0 RDATA = f0a9e511
UVM_INFO axi4_lite_driver.sv(34) @ 5915: uvm_test_top.env.aa.drv [DRV] awaddr = 83f869c4 wdata = 2484871c wstrb = 1 araddr = 00000008
UVM_INFO axi4_lite_scoreboard.sv(68) @ 5915: uvm_test_top.env.scb [RRESP] Matched : exp_rresp=0 actual_rresp =0 write = 0 read = 1
UVM_INFO axi4_lite_scoreboard.sv(72) @ 5915: uvm_test_top.env.scb [RDATA] Matched : exp_rdata=f0a9e511 actual_rdata =f0a9e511
UVM_INFO axi4_lite_subscriber.sv(40) @ 5935: uvm_test_top.env.sb [sb] INPUT COVERAGE = 91.67 %
UVM_INFO axi4_lite_inp_monitor.sv(38) @ 5935: uvm_test_top.env.aa.inp_mon [INPUT MONITOR] READ araddr=00000010
UVM_INFO axi4_lite_out_monitor.sv(28) @ 5945: uvm_test_top.env.pa.out_mon [OUTPUT MONITOR] BRESP = 0 RRESP = 0 RDATA = f3e50000
UVM_INFO axi4_lite_driver.sv(34) @ 5945: uvm_test_top.env.aa.drv [DRV] awaddr = 099328e4 wdata = efa46101 wstrb = 2 araddr = 00000010
UVM_INFO axi4_lite_scoreboard.sv(68) @ 5945: uvm_test_top.env.scb [RRESP] Matched : exp_rresp=0 actual_rresp =0 write = 0 read = 1
UVM_INFO axi4_lite_scoreboard.sv(72) @ 5945: uvm_test_top.env.scb [RDATA] Matched : exp_rdata=f3e50000 actual_rdata =f3e50000
UVM_INFO axi4_lite_subscriber.sv(40) @ 5965: uvm_test_top.env.sb [sb] INPUT COVERAGE = 91.67 %
UVM_INFO axi4_lite_inp_monitor.sv(38) @ 5965: uvm_test_top.env.aa.inp_mon [INPUT MONITOR] READ araddr=00000020
UVM_INFO axi4_lite_out_monitor.sv(28) @ 5975: uvm_test_top.env.pa.out_mon [OUTPUT MONITOR] BRESP = 0 RRESP = 0 RDATA = 0d701b25
UVM_INFO axi4_lite_driver.sv(34) @ 5975: uvm_test_top.env.aa.drv [DRV] awaddr = 9b2d3a9c wdata = de01de74 wstrb = 3 araddr = 00000020
UVM_INFO axi4_lite_scoreboard.sv(68) @ 5975: uvm_test_top.env.scb [RRESP] Matched : exp_rresp=0 actual_rresp =0 write = 0 read = 1
UVM_INFO axi4_lite_scoreboard.sv(72) @ 5975: uvm_test_top.env.scb [RDATA] Matched : exp_rdata=0d701b25 actual_rdata =0d701b25
UVM_INFO axi4_lite_subscriber.sv(40) @ 5995: uvm_test_top.env.sb [sb] INPUT COVERAGE = 91.67 %
UVM_INFO axi4_lite_inp_monitor.sv(38) @ 5995: uvm_test_top.env.aa.inp_mon [INPUT MONITOR] READ araddr=00000018
UVM_INFO axi4_lite_out_monitor.sv(28) @ 6005: uvm_test_top.env.pa.out_mon [OUTPUT MONITOR] BRESP = 0 RRESP = 0 RDATA = 0d9300da
UVM_INFO axi4_lite_driver.sv(34) @ 6005: uvm_test_top.env.aa.drv [DRV] awaddr = db7ef304 wdata = aedef384 wstrb = 5 araddr = 00000018
UVM_INFO axi4_lite_scoreboard.sv(68) @ 6005: uvm_test_top.env.scb [RRESP] Matched : exp_rresp=0 actual_rresp =0 write = 0 read = 1
UVM_ERROR axi4_lite_scoreboard.sv(74) @ 6005: uvm_test_top.env.scb [RDATA] Mismatched : exp_rdata= 652f51e9 actual_rdata=0d9300da 
UVM_INFO axi4_lite_subscriber.sv(40) @ 6025: uvm_test_top.env.sb [sb] INPUT COVERAGE = 91.67 %
UVM_INFO axi4_lite_inp_monitor.sv(38) @ 6025: uvm_test_top.env.aa.inp_mon [INPUT MONITOR] READ araddr=00000028
UVM_INFO axi4_lite_out_monitor.sv(28) @ 6035: uvm_test_top.env.pa.out_mon [OUTPUT MONITOR] BRESP = 0 RRESP = 0 RDATA = 00000000
UVM_INFO axi4_lite_driver.sv(34) @ 6035: uvm_test_top.env.aa.drv [DRV] awaddr = 1f399a34 wdata = 738493c9 wstrb = 3 araddr = 00000028
UVM_INFO axi4_lite_scoreboard.sv(68) @ 6035: uvm_test_top.env.scb [RRESP] Matched : exp_rresp=0 actual_rresp =0 write = 0 read = 1
UVM_INFO axi4_lite_scoreboard.sv(72) @ 6035: uvm_test_top.env.scb [RDATA] Matched : exp_rdata=00000000 actual_rdata =00000000
UVM_INFO axi4_lite_subscriber.sv(40) @ 6055: uvm_test_top.env.sb [sb] INPUT COVERAGE = 91.67 %
UVM_INFO axi4_lite_inp_monitor.sv(38) @ 6055: uvm_test_top.env.aa.inp_mon [INPUT MONITOR] READ araddr=00000004
UVM_INFO axi4_lite_out_monitor.sv(28) @ 6065: uvm_test_top.env.pa.out_mon [OUTPUT MONITOR] BRESP = 0 RRESP = 0 RDATA = 45939a1b
UVM_INFO axi4_lite_driver.sv(34) @ 6065: uvm_test_top.env.aa.drv [DRV] awaddr = 3eebf714 wdata = 2f8d8d88 wstrb = d araddr = 00000004
UVM_INFO axi4_lite_scoreboard.sv(68) @ 6065: uvm_test_top.env.scb [RRESP] Matched : exp_rresp=0 actual_rresp =0 write = 0 read = 1
UVM_INFO axi4_lite_scoreboard.sv(72) @ 6065: uvm_test_top.env.scb [RDATA] Matched : exp_rdata=45939a1b actual_rdata =45939a1b
UVM_INFO axi4_lite_subscriber.sv(40) @ 6085: uvm_test_top.env.sb [sb] INPUT COVERAGE = 91.67 %
UVM_INFO axi4_lite_inp_monitor.sv(38) @ 6085: uvm_test_top.env.aa.inp_mon [INPUT MONITOR] READ araddr=00000008
UVM_INFO axi4_lite_out_monitor.sv(28) @ 6095: uvm_test_top.env.pa.out_mon [OUTPUT MONITOR] BRESP = 0 RRESP = 0 RDATA = f0a9e511
UVM_INFO axi4_lite_driver.sv(34) @ 6095: uvm_test_top.env.aa.drv [DRV] awaddr = c81965dc wdata = b4dd4352 wstrb = 2 araddr = 00000008
UVM_INFO axi4_lite_scoreboard.sv(68) @ 6095: uvm_test_top.env.scb [RRESP] Matched : exp_rresp=0 actual_rresp =0 write = 0 read = 1
UVM_INFO axi4_lite_scoreboard.sv(72) @ 6095: uvm_test_top.env.scb [RDATA] Matched : exp_rdata=f0a9e511 actual_rdata =f0a9e511
UVM_INFO axi4_lite_subscriber.sv(40) @ 6115: uvm_test_top.env.sb [sb] INPUT COVERAGE = 91.67 %
UVM_INFO axi4_lite_inp_monitor.sv(38) @ 6115: uvm_test_top.env.aa.inp_mon [INPUT MONITOR] READ araddr=0000002c
UVM_INFO axi4_lite_out_monitor.sv(28) @ 6125: uvm_test_top.env.pa.out_mon [OUTPUT MONITOR] BRESP = 0 RRESP = 0 RDATA = 00000000
UVM_INFO axi4_lite_driver.sv(34) @ 6125: uvm_test_top.env.aa.drv [DRV] awaddr = 10255e00 wdata = 279ec852 wstrb = 0 araddr = 0000002c
UVM_INFO axi4_lite_scoreboard.sv(68) @ 6125: uvm_test_top.env.scb [RRESP] Matched : exp_rresp=0 actual_rresp =0 write = 0 read = 1
UVM_INFO axi4_lite_scoreboard.sv(72) @ 6125: uvm_test_top.env.scb [RDATA] Matched : exp_rdata=00000000 actual_rdata =00000000
UVM_INFO axi4_lite_subscriber.sv(40) @ 6145: uvm_test_top.env.sb [sb] INPUT COVERAGE = 100.00 %
UVM_INFO axi4_lite_inp_monitor.sv(38) @ 6145: uvm_test_top.env.aa.inp_mon [INPUT MONITOR] READ araddr=00000038
UVM_INFO axi4_lite_out_monitor.sv(28) @ 6155: uvm_test_top.env.pa.out_mon [OUTPUT MONITOR] BRESP = 0 RRESP = 2 RDATA = 00000000
UVM_INFO axi4_lite_driver.sv(34) @ 6155: uvm_test_top.env.aa.drv [DRV] awaddr = 76a57be8 wdata = 2b1cb9a2 wstrb = 1 araddr = 00000038
UVM_INFO axi4_lite_scoreboard.sv(68) @ 6155: uvm_test_top.env.scb [RRESP] Matched : exp_rresp=2 actual_rresp =2 write = 0 read = 1
UVM_INFO axi4_lite_scoreboard.sv(72) @ 6155: uvm_test_top.env.scb [RDATA] Matched : exp_rdata=00000000 actual_rdata =00000000
UVM_INFO axi4_lite_subscriber.sv(40) @ 6175: uvm_test_top.env.sb [sb] INPUT COVERAGE = 100.00 %
UVM_INFO axi4_lite_inp_monitor.sv(38) @ 6175: uvm_test_top.env.aa.inp_mon [INPUT MONITOR] READ araddr=00000030
UVM_INFO axi4_lite_out_monitor.sv(28) @ 6185: uvm_test_top.env.pa.out_mon [OUTPUT MONITOR] BRESP = 0 RRESP = 0 RDATA = 00000000
UVM_INFO axi4_lite_driver.sv(34) @ 6185: uvm_test_top.env.aa.drv [DRV] awaddr = 192711f8 wdata = 1400bd03 wstrb = 4 araddr = 00000030
UVM_INFO axi4_lite_scoreboard.sv(68) @ 6185: uvm_test_top.env.scb [RRESP] Matched : exp_rresp=0 actual_rresp =0 write = 0 read = 1
UVM_INFO axi4_lite_scoreboard.sv(72) @ 6185: uvm_test_top.env.scb [RDATA] Matched : exp_rdata=00000000 actual_rdata =00000000
UVM_INFO axi4_lite_subscriber.sv(40) @ 6205: uvm_test_top.env.sb [sb] INPUT COVERAGE = 100.00 %
UVM_INFO axi4_lite_inp_monitor.sv(38) @ 6205: uvm_test_top.env.aa.inp_mon [INPUT MONITOR] READ araddr=00000028
UVM_INFO axi4_lite_out_monitor.sv(28) @ 6215: uvm_test_top.env.pa.out_mon [OUTPUT MONITOR] BRESP = 0 RRESP = 0 RDATA = 00000000
UVM_INFO axi4_lite_driver.sv(34) @ 6215: uvm_test_top.env.aa.drv [DRV] awaddr = 9eab66ac wdata = 57e03d3d wstrb = f araddr = 00000028
UVM_INFO axi4_lite_scoreboard.sv(68) @ 6215: uvm_test_top.env.scb [RRESP] Matched : exp_rresp=0 actual_rresp =0 write = 0 read = 1
UVM_INFO axi4_lite_scoreboard.sv(72) @ 6215: uvm_test_top.env.scb [RDATA] Matched : exp_rdata=00000000 actual_rdata =00000000
UVM_INFO axi4_lite_subscriber.sv(40) @ 6235: uvm_test_top.env.sb [sb] INPUT COVERAGE = 100.00 %
UVM_INFO axi4_lite_inp_monitor.sv(38) @ 6235: uvm_test_top.env.aa.inp_mon [INPUT MONITOR] READ araddr=00000020
UVM_INFO axi4_lite_out_monitor.sv(28) @ 6245: uvm_test_top.env.pa.out_mon [OUTPUT MONITOR] BRESP = 0 RRESP = 0 RDATA = 0d701b25
UVM_INFO axi4_lite_driver.sv(34) @ 6245: uvm_test_top.env.aa.drv [DRV] awaddr = fd8901ec wdata = 6a123dee wstrb = e araddr = 00000020
UVM_INFO axi4_lite_scoreboard.sv(68) @ 6245: uvm_test_top.env.scb [RRESP] Matched : exp_rresp=0 actual_rresp =0 write = 0 read = 1
UVM_INFO axi4_lite_scoreboard.sv(72) @ 6245: uvm_test_top.env.scb [RDATA] Matched : exp_rdata=0d701b25 actual_rdata =0d701b25
UVM_INFO axi4_lite_subscriber.sv(40) @ 6265: uvm_test_top.env.sb [sb] INPUT COVERAGE = 100.00 %
UVM_INFO axi4_lite_inp_monitor.sv(38) @ 6265: uvm_test_top.env.aa.inp_mon [INPUT MONITOR] READ araddr=00000018
UVM_INFO axi4_lite_out_monitor.sv(28) @ 6275: uvm_test_top.env.pa.out_mon [OUTPUT MONITOR] BRESP = 0 RRESP = 0 RDATA = 0d9300da
UVM_INFO axi4_lite_driver.sv(34) @ 6275: uvm_test_top.env.aa.drv [DRV] awaddr = 5ee76624 wdata = 337e8b65 wstrb = f araddr = 00000018
UVM_INFO axi4_lite_scoreboard.sv(68) @ 6275: uvm_test_top.env.scb [RRESP] Matched : exp_rresp=0 actual_rresp =0 write = 0 read = 1
UVM_ERROR axi4_lite_scoreboard.sv(74) @ 6275: uvm_test_top.env.scb [RDATA] Mismatched : exp_rdata= 652f51e9 actual_rdata=0d9300da 
UVM_INFO axi4_lite_subscriber.sv(40) @ 6295: uvm_test_top.env.sb [sb] INPUT COVERAGE = 100.00 %
UVM_INFO axi4_lite_inp_monitor.sv(38) @ 6295: uvm_test_top.env.aa.inp_mon [INPUT MONITOR] READ araddr=00000008
UVM_INFO axi4_lite_out_monitor.sv(28) @ 6305: uvm_test_top.env.pa.out_mon [OUTPUT MONITOR] BRESP = 0 RRESP = 0 RDATA = f0a9e511
UVM_INFO axi4_lite_driver.sv(34) @ 6305: uvm_test_top.env.aa.drv [DRV] awaddr = 28c487ac wdata = f3a2f890 wstrb = 4 araddr = 00000008
UVM_INFO axi4_lite_scoreboard.sv(68) @ 6305: uvm_test_top.env.scb [RRESP] Matched : exp_rresp=0 actual_rresp =0 write = 0 read = 1
UVM_INFO axi4_lite_scoreboard.sv(72) @ 6305: uvm_test_top.env.scb [RDATA] Matched : exp_rdata=f0a9e511 actual_rdata =f0a9e511
UVM_INFO axi4_lite_subscriber.sv(40) @ 6325: uvm_test_top.env.sb [sb] INPUT COVERAGE = 100.00 %
UVM_INFO axi4_lite_inp_monitor.sv(38) @ 6325: uvm_test_top.env.aa.inp_mon [INPUT MONITOR] READ araddr=00000004
UVM_INFO axi4_lite_out_monitor.sv(28) @ 6335: uvm_test_top.env.pa.out_mon [OUTPUT MONITOR] BRESP = 0 RRESP = 0 RDATA = 45939a1b
UVM_INFO axi4_lite_driver.sv(34) @ 6335: uvm_test_top.env.aa.drv [DRV] awaddr = 6acdbd48 wdata = 5c9f45a4 wstrb = 5 araddr = 00000004
UVM_INFO axi4_lite_scoreboard.sv(68) @ 6335: uvm_test_top.env.scb [RRESP] Matched : exp_rresp=0 actual_rresp =0 write = 0 read = 1
UVM_INFO axi4_lite_scoreboard.sv(72) @ 6335: uvm_test_top.env.scb [RDATA] Matched : exp_rdata=45939a1b actual_rdata =45939a1b
UVM_INFO axi4_lite_subscriber.sv(40) @ 6355: uvm_test_top.env.sb [sb] INPUT COVERAGE = 100.00 %
UVM_INFO axi4_lite_inp_monitor.sv(38) @ 6355: uvm_test_top.env.aa.inp_mon [INPUT MONITOR] READ araddr=0000000c
UVM_INFO axi4_lite_out_monitor.sv(28) @ 6365: uvm_test_top.env.pa.out_mon [OUTPUT MONITOR] BRESP = 0 RRESP = 0 RDATA = 1f3fb0a2
UVM_INFO axi4_lite_driver.sv(34) @ 6365: uvm_test_top.env.aa.drv [DRV] awaddr = b7e78e70 wdata = d734b56f wstrb = 3 araddr = 0000000c
UVM_INFO axi4_lite_scoreboard.sv(68) @ 6365: uvm_test_top.env.scb [RRESP] Matched : exp_rresp=0 actual_rresp =0 write = 0 read = 1
UVM_INFO axi4_lite_scoreboard.sv(72) @ 6365: uvm_test_top.env.scb [RDATA] Matched : exp_rdata=1f3fb0a2 actual_rdata =1f3fb0a2
UVM_INFO axi4_lite_subscriber.sv(40) @ 6385: uvm_test_top.env.sb [sb] INPUT COVERAGE = 100.00 %
UVM_INFO axi4_lite_inp_monitor.sv(38) @ 6385: uvm_test_top.env.aa.inp_mon [INPUT MONITOR] READ araddr=00000014
UVM_INFO axi4_lite_out_monitor.sv(28) @ 6395: uvm_test_top.env.pa.out_mon [OUTPUT MONITOR] BRESP = 0 RRESP = 0 RDATA = b7c58b74
UVM_INFO axi4_lite_driver.sv(34) @ 6395: uvm_test_top.env.aa.drv [DRV] awaddr = f8241b00 wdata = 6d75f47c wstrb = f araddr = 00000014
UVM_INFO axi4_lite_scoreboard.sv(68) @ 6395: uvm_test_top.env.scb [RRESP] Matched : exp_rresp=0 actual_rresp =0 write = 0 read = 1
UVM_INFO axi4_lite_scoreboard.sv(72) @ 6395: uvm_test_top.env.scb [RDATA] Matched : exp_rdata=b7c58b74 actual_rdata =b7c58b74
UVM_INFO axi4_lite_subscriber.sv(40) @ 6415: uvm_test_top.env.sb [sb] INPUT COVERAGE = 100.00 %
UVM_INFO axi4_lite_inp_monitor.sv(38) @ 6415: uvm_test_top.env.aa.inp_mon [INPUT MONITOR] READ araddr=00000034
UVM_INFO axi4_lite_out_monitor.sv(28) @ 6425: uvm_test_top.env.pa.out_mon [OUTPUT MONITOR] BRESP = 0 RRESP = 2 RDATA = 00000000
UVM_INFO axi4_lite_driver.sv(34) @ 6425: uvm_test_top.env.aa.drv [DRV] awaddr = 1e567ebc wdata = b7a7747f wstrb = f araddr = 00000034
UVM_INFO axi4_lite_scoreboard.sv(68) @ 6425: uvm_test_top.env.scb [RRESP] Matched : exp_rresp=2 actual_rresp =2 write = 0 read = 1
UVM_ERROR axi4_lite_scoreboard.sv(74) @ 6425: uvm_test_top.env.scb [RDATA] Mismatched : exp_rdata= b7c58b74 actual_rdata=00000000 
UVM_INFO axi4_lite_subscriber.sv(40) @ 6445: uvm_test_top.env.sb [sb] INPUT COVERAGE = 100.00 %
UVM_INFO axi4_lite_inp_monitor.sv(38) @ 6445: uvm_test_top.env.aa.inp_mon [INPUT MONITOR] READ araddr=0000001c
UVM_INFO axi4_lite_out_monitor.sv(28) @ 6455: uvm_test_top.env.pa.out_mon [OUTPUT MONITOR] BRESP = 0 RRESP = 0 RDATA = 1798c26e
UVM_INFO axi4_lite_driver.sv(34) @ 6455: uvm_test_top.env.aa.drv [DRV] awaddr = 3dca9eec wdata = 82061933 wstrb = 5 araddr = 0000001c
UVM_INFO axi4_lite_scoreboard.sv(68) @ 6455: uvm_test_top.env.scb [RRESP] Matched : exp_rresp=0 actual_rresp =0 write = 0 read = 1
UVM_INFO axi4_lite_scoreboard.sv(72) @ 6455: uvm_test_top.env.scb [RDATA] Matched : exp_rdata=1798c26e actual_rdata =1798c26e
UVM_INFO axi4_lite_subscriber.sv(40) @ 6475: uvm_test_top.env.sb [sb] INPUT COVERAGE = 100.00 %
UVM_INFO axi4_lite_inp_monitor.sv(38) @ 6475: uvm_test_top.env.aa.inp_mon [INPUT MONITOR] READ araddr=00000014
UVM_INFO axi4_lite_out_monitor.sv(28) @ 6485: uvm_test_top.env.pa.out_mon [OUTPUT MONITOR] BRESP = 0 RRESP = 0 RDATA = b7c58b74
UVM_INFO axi4_lite_driver.sv(34) @ 6485: uvm_test_top.env.aa.drv [DRV] awaddr = db829058 wdata = d2b42d5c wstrb = 3 araddr = 00000014
UVM_INFO axi4_lite_scoreboard.sv(68) @ 6485: uvm_test_top.env.scb [RRESP] Matched : exp_rresp=0 actual_rresp =0 write = 0 read = 1
UVM_INFO axi4_lite_scoreboard.sv(72) @ 6485: uvm_test_top.env.scb [RDATA] Matched : exp_rdata=b7c58b74 actual_rdata =b7c58b74
UVM_INFO axi4_lite_subscriber.sv(40) @ 6505: uvm_test_top.env.sb [sb] INPUT COVERAGE = 100.00 %
UVM_INFO axi4_lite_inp_monitor.sv(38) @ 6505: uvm_test_top.env.aa.inp_mon [INPUT MONITOR] READ araddr=0000001c
UVM_INFO axi4_lite_out_monitor.sv(28) @ 6515: uvm_test_top.env.pa.out_mon [OUTPUT MONITOR] BRESP = 0 RRESP = 0 RDATA = 1798c26e
UVM_INFO axi4_lite_driver.sv(34) @ 6515: uvm_test_top.env.aa.drv [DRV] awaddr = aecc98dc wdata = a00be2b0 wstrb = f araddr = 0000001c
UVM_INFO axi4_lite_scoreboard.sv(68) @ 6515: uvm_test_top.env.scb [RRESP] Matched : exp_rresp=0 actual_rresp =0 write = 0 read = 1
UVM_INFO axi4_lite_scoreboard.sv(72) @ 6515: uvm_test_top.env.scb [RDATA] Matched : exp_rdata=1798c26e actual_rdata =1798c26e
UVM_INFO axi4_lite_subscriber.sv(40) @ 6535: uvm_test_top.env.sb [sb] INPUT COVERAGE = 100.00 %
UVM_INFO axi4_lite_inp_monitor.sv(38) @ 6535: uvm_test_top.env.aa.inp_mon [INPUT MONITOR] READ araddr=00000024
UVM_INFO axi4_lite_out_monitor.sv(28) @ 6545: uvm_test_top.env.pa.out_mon [OUTPUT MONITOR] BRESP = 0 RRESP = 0 RDATA = 0e8cf549
UVM_INFO axi4_lite_driver.sv(34) @ 6545: uvm_test_top.env.aa.drv [DRV] awaddr = 336255b0 wdata = bde39007 wstrb = 3 araddr = 00000024
UVM_INFO axi4_lite_scoreboard.sv(68) @ 6545: uvm_test_top.env.scb [RRESP] Matched : exp_rresp=0 actual_rresp =0 write = 0 read = 1
UVM_INFO axi4_lite_scoreboard.sv(72) @ 6545: uvm_test_top.env.scb [RDATA] Matched : exp_rdata=0e8cf549 actual_rdata =0e8cf549
UVM_INFO axi4_lite_subscriber.sv(40) @ 6565: uvm_test_top.env.sb [sb] INPUT COVERAGE = 100.00 %
UVM_INFO axi4_lite_inp_monitor.sv(38) @ 6565: uvm_test_top.env.aa.inp_mon [INPUT MONITOR] READ araddr=00000034
UVM_INFO axi4_lite_out_monitor.sv(28) @ 6575: uvm_test_top.env.pa.out_mon [OUTPUT MONITOR] BRESP = 0 RRESP = 2 RDATA = 00000000
UVM_INFO axi4_lite_driver.sv(34) @ 6575: uvm_test_top.env.aa.drv [DRV] awaddr = ef9fa4bc wdata = 91165777 wstrb = c araddr = 00000034
UVM_INFO axi4_lite_scoreboard.sv(68) @ 6575: uvm_test_top.env.scb [RRESP] Matched : exp_rresp=2 actual_rresp =2 write = 0 read = 1
UVM_ERROR axi4_lite_scoreboard.sv(74) @ 6575: uvm_test_top.env.scb [RDATA] Mismatched : exp_rdata= 0e8cf549 actual_rdata=00000000 
UVM_INFO axi4_lite_subscriber.sv(40) @ 6595: uvm_test_top.env.sb [sb] INPUT COVERAGE = 100.00 %
UVM_INFO axi4_lite_inp_monitor.sv(38) @ 6595: uvm_test_top.env.aa.inp_mon [INPUT MONITOR] READ araddr=00000018
UVM_INFO axi4_lite_out_monitor.sv(28) @ 6605: uvm_test_top.env.pa.out_mon [OUTPUT MONITOR] BRESP = 0 RRESP = 0 RDATA = 0d9300da
UVM_INFO axi4_lite_driver.sv(34) @ 6605: uvm_test_top.env.aa.drv [DRV] awaddr = b8a11df8 wdata = a5a1c408 wstrb = 6 araddr = 00000018
UVM_INFO axi4_lite_scoreboard.sv(68) @ 6605: uvm_test_top.env.scb [RRESP] Matched : exp_rresp=0 actual_rresp =0 write = 0 read = 1
UVM_ERROR axi4_lite_scoreboard.sv(74) @ 6605: uvm_test_top.env.scb [RDATA] Mismatched : exp_rdata= 652f51e9 actual_rdata=0d9300da 
UVM_INFO axi4_lite_subscriber.sv(40) @ 6625: uvm_test_top.env.sb [sb] INPUT COVERAGE = 100.00 %
UVM_INFO axi4_lite_inp_monitor.sv(38) @ 6625: uvm_test_top.env.aa.inp_mon [INPUT MONITOR] READ araddr=00000018
UVM_INFO axi4_lite_out_monitor.sv(28) @ 6635: uvm_test_top.env.pa.out_mon [OUTPUT MONITOR] BRESP = 0 RRESP = 0 RDATA = 0d9300da
UVM_INFO axi4_lite_driver.sv(34) @ 6635: uvm_test_top.env.aa.drv [DRV] awaddr = a22ec650 wdata = fc5e6293 wstrb = e araddr = 00000018
UVM_INFO axi4_lite_scoreboard.sv(68) @ 6635: uvm_test_top.env.scb [RRESP] Matched : exp_rresp=0 actual_rresp =0 write = 0 read = 1
UVM_ERROR axi4_lite_scoreboard.sv(74) @ 6635: uvm_test_top.env.scb [RDATA] Mismatched : exp_rdata= 652f51e9 actual_rdata=0d9300da 
UVM_INFO axi4_lite_subscriber.sv(40) @ 6655: uvm_test_top.env.sb [sb] INPUT COVERAGE = 100.00 %
UVM_INFO axi4_lite_inp_monitor.sv(38) @ 6655: uvm_test_top.env.aa.inp_mon [INPUT MONITOR] READ araddr=00000000
UVM_INFO axi4_lite_out_monitor.sv(28) @ 6665: uvm_test_top.env.pa.out_mon [OUTPUT MONITOR] BRESP = 0 RRESP = 0 RDATA = 5918dca8
UVM_INFO axi4_lite_driver.sv(34) @ 6665: uvm_test_top.env.aa.drv [DRV] awaddr = 02900e2c wdata = 78389ba5 wstrb = 6 araddr = 00000000
UVM_INFO axi4_lite_scoreboard.sv(68) @ 6665: uvm_test_top.env.scb [RRESP] Matched : exp_rresp=0 actual_rresp =0 write = 0 read = 1
UVM_INFO axi4_lite_scoreboard.sv(72) @ 6665: uvm_test_top.env.scb [RDATA] Matched : exp_rdata=5918dca8 actual_rdata =5918dca8
UVM_INFO axi4_lite_subscriber.sv(40) @ 6685: uvm_test_top.env.sb [sb] INPUT COVERAGE = 100.00 %
UVM_INFO axi4_lite_inp_monitor.sv(38) @ 6685: uvm_test_top.env.aa.inp_mon [INPUT MONITOR] READ araddr=00000038
UVM_INFO axi4_lite_out_monitor.sv(28) @ 6695: uvm_test_top.env.pa.out_mon [OUTPUT MONITOR] BRESP = 0 RRESP = 2 RDATA = 00000000
UVM_INFO axi4_lite_driver.sv(34) @ 6695: uvm_test_top.env.aa.drv [DRV] awaddr = 816fbed4 wdata = 63db8adc wstrb = 8 araddr = 00000038
UVM_INFO axi4_lite_scoreboard.sv(68) @ 6695: uvm_test_top.env.scb [RRESP] Matched : exp_rresp=2 actual_rresp =2 write = 0 read = 1
UVM_ERROR axi4_lite_scoreboard.sv(74) @ 6695: uvm_test_top.env.scb [RDATA] Mismatched : exp_rdata= 5918dca8 actual_rdata=00000000 
UVM_INFO axi4_lite_subscriber.sv(40) @ 6715: uvm_test_top.env.sb [sb] INPUT COVERAGE = 100.00 %
UVM_INFO axi4_lite_inp_monitor.sv(38) @ 6715: uvm_test_top.env.aa.inp_mon [INPUT MONITOR] READ araddr=00000008
UVM_INFO axi4_lite_out_monitor.sv(28) @ 6725: uvm_test_top.env.pa.out_mon [OUTPUT MONITOR] BRESP = 0 RRESP = 0 RDATA = f0a9e511
UVM_INFO axi4_lite_driver.sv(34) @ 6725: uvm_test_top.env.aa.drv [DRV] awaddr = 1d18c04c wdata = 4992bfb4 wstrb = 1 araddr = 00000008
UVM_INFO axi4_lite_scoreboard.sv(68) @ 6725: uvm_test_top.env.scb [RRESP] Matched : exp_rresp=0 actual_rresp =0 write = 0 read = 1
UVM_INFO axi4_lite_scoreboard.sv(72) @ 6725: uvm_test_top.env.scb [RDATA] Matched : exp_rdata=f0a9e511 actual_rdata =f0a9e511
UVM_INFO axi4_lite_subscriber.sv(40) @ 6745: uvm_test_top.env.sb [sb] INPUT COVERAGE = 100.00 %
UVM_INFO axi4_lite_inp_monitor.sv(38) @ 6745: uvm_test_top.env.aa.inp_mon [INPUT MONITOR] READ araddr=00000038
UVM_INFO axi4_lite_out_monitor.sv(28) @ 6755: uvm_test_top.env.pa.out_mon [OUTPUT MONITOR] BRESP = 0 RRESP = 2 RDATA = 00000000
UVM_INFO axi4_lite_driver.sv(34) @ 6755: uvm_test_top.env.aa.drv [DRV] awaddr = 01600114 wdata = 826ea4ce wstrb = 9 araddr = 00000038
UVM_INFO axi4_lite_scoreboard.sv(68) @ 6755: uvm_test_top.env.scb [RRESP] Matched : exp_rresp=2 actual_rresp =2 write = 0 read = 1
UVM_ERROR axi4_lite_scoreboard.sv(74) @ 6755: uvm_test_top.env.scb [RDATA] Mismatched : exp_rdata= f0a9e511 actual_rdata=00000000 
UVM_INFO axi4_lite_subscriber.sv(40) @ 6775: uvm_test_top.env.sb [sb] INPUT COVERAGE = 100.00 %
UVM_INFO axi4_lite_inp_monitor.sv(38) @ 6775: uvm_test_top.env.aa.inp_mon [INPUT MONITOR] READ araddr=00000028
UVM_INFO axi4_lite_out_monitor.sv(28) @ 6785: uvm_test_top.env.pa.out_mon [OUTPUT MONITOR] BRESP = 0 RRESP = 0 RDATA = 00000000
UVM_INFO axi4_lite_driver.sv(34) @ 6785: uvm_test_top.env.aa.drv [DRV] awaddr = a23f64ac wdata = ebf335d5 wstrb = 1 araddr = 00000028
UVM_INFO axi4_lite_scoreboard.sv(68) @ 6785: uvm_test_top.env.scb [RRESP] Matched : exp_rresp=0 actual_rresp =0 write = 0 read = 1
UVM_INFO axi4_lite_scoreboard.sv(72) @ 6785: uvm_test_top.env.scb [RDATA] Matched : exp_rdata=00000000 actual_rdata =00000000
UVM_INFO axi4_lite_subscriber.sv(40) @ 6805: uvm_test_top.env.sb [sb] INPUT COVERAGE = 100.00 %
UVM_INFO axi4_lite_inp_monitor.sv(38) @ 6805: uvm_test_top.env.aa.inp_mon [INPUT MONITOR] READ araddr=0000002c
UVM_INFO axi4_lite_out_monitor.sv(28) @ 6815: uvm_test_top.env.pa.out_mon [OUTPUT MONITOR] BRESP = 0 RRESP = 0 RDATA = 00000000
UVM_INFO axi4_lite_driver.sv(34) @ 6815: uvm_test_top.env.aa.drv [DRV] awaddr = c608e734 wdata = 9eccfdf8 wstrb = 3 araddr = 0000002c
UVM_INFO axi4_lite_scoreboard.sv(68) @ 6815: uvm_test_top.env.scb [RRESP] Matched : exp_rresp=0 actual_rresp =0 write = 0 read = 1
UVM_INFO axi4_lite_scoreboard.sv(72) @ 6815: uvm_test_top.env.scb [RDATA] Matched : exp_rdata=00000000 actual_rdata =00000000
UVM_INFO axi4_lite_subscriber.sv(40) @ 6835: uvm_test_top.env.sb [sb] INPUT COVERAGE = 100.00 %
UVM_INFO axi4_lite_inp_monitor.sv(38) @ 6835: uvm_test_top.env.aa.inp_mon [INPUT MONITOR] READ araddr=00000010
UVM_INFO axi4_lite_out_monitor.sv(28) @ 6845: uvm_test_top.env.pa.out_mon [OUTPUT MONITOR] BRESP = 0 RRESP = 0 RDATA = f3e50000
UVM_INFO axi4_lite_driver.sv(34) @ 6845: uvm_test_top.env.aa.drv [DRV] awaddr = 5dcdb2bc wdata = 889595f2 wstrb = 7 araddr = 00000010
UVM_INFO axi4_lite_scoreboard.sv(68) @ 6845: uvm_test_top.env.scb [RRESP] Matched : exp_rresp=0 actual_rresp =0 write = 0 read = 1
UVM_INFO axi4_lite_scoreboard.sv(72) @ 6845: uvm_test_top.env.scb [RDATA] Matched : exp_rdata=f3e50000 actual_rdata =f3e50000
UVM_INFO axi4_lite_subscriber.sv(40) @ 6865: uvm_test_top.env.sb [sb] INPUT COVERAGE = 100.00 %
UVM_INFO axi4_lite_inp_monitor.sv(38) @ 6865: uvm_test_top.env.aa.inp_mon [INPUT MONITOR] READ araddr=00000028
UVM_INFO axi4_lite_out_monitor.sv(28) @ 6875: uvm_test_top.env.pa.out_mon [OUTPUT MONITOR] BRESP = 0 RRESP = 0 RDATA = 00000000
UVM_INFO axi4_lite_driver.sv(34) @ 6875: uvm_test_top.env.aa.drv [DRV] awaddr = 05bde0d0 wdata = d388a298 wstrb = e araddr = 00000028
UVM_INFO axi4_lite_scoreboard.sv(68) @ 6875: uvm_test_top.env.scb [RRESP] Matched : exp_rresp=0 actual_rresp =0 write = 0 read = 1
UVM_INFO axi4_lite_scoreboard.sv(72) @ 6875: uvm_test_top.env.scb [RDATA] Matched : exp_rdata=00000000 actual_rdata =00000000
UVM_INFO axi4_lite_subscriber.sv(40) @ 6895: uvm_test_top.env.sb [sb] INPUT COVERAGE = 100.00 %
UVM_INFO axi4_lite_inp_monitor.sv(38) @ 6895: uvm_test_top.env.aa.inp_mon [INPUT MONITOR] READ araddr=00000000
UVM_INFO axi4_lite_out_monitor.sv(28) @ 6905: uvm_test_top.env.pa.out_mon [OUTPUT MONITOR] BRESP = 0 RRESP = 0 RDATA = 5918dca8
UVM_INFO axi4_lite_driver.sv(34) @ 6905: uvm_test_top.env.aa.drv [DRV] awaddr = 01308870 wdata = e3b9dfdc wstrb = 3 araddr = 00000000
UVM_INFO axi4_lite_scoreboard.sv(68) @ 6905: uvm_test_top.env.scb [RRESP] Matched : exp_rresp=0 actual_rresp =0 write = 0 read = 1
UVM_INFO axi4_lite_scoreboard.sv(72) @ 6905: uvm_test_top.env.scb [RDATA] Matched : exp_rdata=5918dca8 actual_rdata =5918dca8
UVM_INFO axi4_lite_subscriber.sv(40) @ 6925: uvm_test_top.env.sb [sb] INPUT COVERAGE = 100.00 %
UVM_INFO axi4_lite_inp_monitor.sv(38) @ 6925: uvm_test_top.env.aa.inp_mon [INPUT MONITOR] READ araddr=0000002c
UVM_INFO axi4_lite_out_monitor.sv(28) @ 6935: uvm_test_top.env.pa.out_mon [OUTPUT MONITOR] BRESP = 0 RRESP = 0 RDATA = 00000000
UVM_INFO axi4_lite_driver.sv(34) @ 6935: uvm_test_top.env.aa.drv [DRV] awaddr = fb1fbd80 wdata = b6065952 wstrb = b araddr = 0000002c
UVM_INFO axi4_lite_scoreboard.sv(68) @ 6935: uvm_test_top.env.scb [RRESP] Matched : exp_rresp=0 actual_rresp =0 write = 0 read = 1
UVM_INFO axi4_lite_scoreboard.sv(72) @ 6935: uvm_test_top.env.scb [RDATA] Matched : exp_rdata=00000000 actual_rdata =00000000
UVM_INFO axi4_lite_subscriber.sv(40) @ 6955: uvm_test_top.env.sb [sb] INPUT COVERAGE = 100.00 %
UVM_INFO axi4_lite_inp_monitor.sv(38) @ 6955: uvm_test_top.env.aa.inp_mon [INPUT MONITOR] READ araddr=00000024
UVM_INFO axi4_lite_out_monitor.sv(28) @ 6965: uvm_test_top.env.pa.out_mon [OUTPUT MONITOR] BRESP = 0 RRESP = 0 RDATA = 0e8cf549
UVM_INFO axi4_lite_driver.sv(34) @ 6965: uvm_test_top.env.aa.drv [DRV] awaddr = dd59be70 wdata = 0750e32e wstrb = 0 araddr = 00000024
UVM_INFO axi4_lite_scoreboard.sv(68) @ 6965: uvm_test_top.env.scb [RRESP] Matched : exp_rresp=0 actual_rresp =0 write = 0 read = 1
UVM_INFO axi4_lite_scoreboard.sv(72) @ 6965: uvm_test_top.env.scb [RDATA] Matched : exp_rdata=0e8cf549 actual_rdata =0e8cf549
UVM_INFO axi4_lite_subscriber.sv(40) @ 6985: uvm_test_top.env.sb [sb] INPUT COVERAGE = 100.00 %
UVM_INFO axi4_lite_inp_monitor.sv(38) @ 6985: uvm_test_top.env.aa.inp_mon [INPUT MONITOR] READ araddr=00000010
UVM_INFO axi4_lite_out_monitor.sv(28) @ 6995: uvm_test_top.env.pa.out_mon [OUTPUT MONITOR] BRESP = 0 RRESP = 0 RDATA = f3e50000
UVM_INFO axi4_lite_driver.sv(34) @ 6995: uvm_test_top.env.aa.drv [DRV] awaddr = cf163570 wdata = 4f992b2b wstrb = a araddr = 00000010
UVM_INFO axi4_lite_scoreboard.sv(68) @ 6995: uvm_test_top.env.scb [RRESP] Matched : exp_rresp=0 actual_rresp =0 write = 0 read = 1
UVM_INFO axi4_lite_scoreboard.sv(72) @ 6995: uvm_test_top.env.scb [RDATA] Matched : exp_rdata=f3e50000 actual_rdata =f3e50000
UVM_INFO axi4_lite_subscriber.sv(40) @ 7015: uvm_test_top.env.sb [sb] INPUT COVERAGE = 100.00 %
UVM_INFO axi4_lite_inp_monitor.sv(38) @ 7015: uvm_test_top.env.aa.inp_mon [INPUT MONITOR] READ araddr=0000001c
UVM_INFO axi4_lite_out_monitor.sv(28) @ 7025: uvm_test_top.env.pa.out_mon [OUTPUT MONITOR] BRESP = 0 RRESP = 0 RDATA = 1798c26e
UVM_INFO axi4_lite_driver.sv(34) @ 7025: uvm_test_top.env.aa.drv [DRV] awaddr = 09a43464 wdata = a0acbacc wstrb = 3 araddr = 0000001c
UVM_INFO axi4_lite_scoreboard.sv(68) @ 7025: uvm_test_top.env.scb [RRESP] Matched : exp_rresp=0 actual_rresp =0 write = 0 read = 1
UVM_INFO axi4_lite_scoreboard.sv(72) @ 7025: uvm_test_top.env.scb [RDATA] Matched : exp_rdata=1798c26e actual_rdata =1798c26e
UVM_INFO axi4_lite_subscriber.sv(40) @ 7045: uvm_test_top.env.sb [sb] INPUT COVERAGE = 100.00 %
UVM_INFO axi4_lite_inp_monitor.sv(38) @ 7045: uvm_test_top.env.aa.inp_mon [INPUT MONITOR] READ araddr=00000020
UVM_INFO axi4_lite_out_monitor.sv(28) @ 7055: uvm_test_top.env.pa.out_mon [OUTPUT MONITOR] BRESP = 0 RRESP = 0 RDATA = 0d701b25
UVM_INFO axi4_lite_driver.sv(34) @ 7055: uvm_test_top.env.aa.drv [DRV] awaddr = ed6a3394 wdata = 17434ff6 wstrb = 1 araddr = 00000020
UVM_INFO axi4_lite_scoreboard.sv(68) @ 7055: uvm_test_top.env.scb [RRESP] Matched : exp_rresp=0 actual_rresp =0 write = 0 read = 1
UVM_INFO axi4_lite_scoreboard.sv(72) @ 7055: uvm_test_top.env.scb [RDATA] Matched : exp_rdata=0d701b25 actual_rdata =0d701b25
UVM_INFO axi4_lite_subscriber.sv(40) @ 7075: uvm_test_top.env.sb [sb] INPUT COVERAGE = 100.00 %
UVM_INFO axi4_lite_inp_monitor.sv(38) @ 7075: uvm_test_top.env.aa.inp_mon [INPUT MONITOR] READ araddr=0000000c
UVM_INFO axi4_lite_out_monitor.sv(28) @ 7085: uvm_test_top.env.pa.out_mon [OUTPUT MONITOR] BRESP = 0 RRESP = 0 RDATA = 1f3fb0a2
UVM_INFO axi4_lite_driver.sv(34) @ 7085: uvm_test_top.env.aa.drv [DRV] awaddr = b9500fa4 wdata = 0dc39778 wstrb = 4 araddr = 0000000c
UVM_INFO axi4_lite_scoreboard.sv(68) @ 7085: uvm_test_top.env.scb [RRESP] Matched : exp_rresp=0 actual_rresp =0 write = 0 read = 1
UVM_INFO axi4_lite_scoreboard.sv(72) @ 7085: uvm_test_top.env.scb [RDATA] Matched : exp_rdata=1f3fb0a2 actual_rdata =1f3fb0a2
UVM_INFO axi4_lite_subscriber.sv(40) @ 7105: uvm_test_top.env.sb [sb] INPUT COVERAGE = 100.00 %
UVM_INFO axi4_lite_inp_monitor.sv(38) @ 7105: uvm_test_top.env.aa.inp_mon [INPUT MONITOR] READ araddr=00000014
UVM_INFO axi4_lite_out_monitor.sv(28) @ 7115: uvm_test_top.env.pa.out_mon [OUTPUT MONITOR] BRESP = 0 RRESP = 0 RDATA = b7c58b74
UVM_INFO axi4_lite_driver.sv(34) @ 7115: uvm_test_top.env.aa.drv [DRV] awaddr = b0d3f6c0 wdata = 65c6f573 wstrb = 6 araddr = 00000014
UVM_INFO axi4_lite_scoreboard.sv(68) @ 7115: uvm_test_top.env.scb [RRESP] Matched : exp_rresp=0 actual_rresp =0 write = 0 read = 1
UVM_INFO axi4_lite_scoreboard.sv(72) @ 7115: uvm_test_top.env.scb [RDATA] Matched : exp_rdata=b7c58b74 actual_rdata =b7c58b74
UVM_INFO axi4_lite_subscriber.sv(40) @ 7135: uvm_test_top.env.sb [sb] INPUT COVERAGE = 100.00 %
UVM_INFO axi4_lite_inp_monitor.sv(38) @ 7135: uvm_test_top.env.aa.inp_mon [INPUT MONITOR] READ araddr=00000038
UVM_INFO axi4_lite_out_monitor.sv(28) @ 7145: uvm_test_top.env.pa.out_mon [OUTPUT MONITOR] BRESP = 0 RRESP = 2 RDATA = 00000000
UVM_INFO axi4_lite_driver.sv(34) @ 7145: uvm_test_top.env.aa.drv [DRV] awaddr = 583e17b4 wdata = cf3e2878 wstrb = 2 araddr = 00000038
UVM_INFO axi4_lite_scoreboard.sv(68) @ 7145: uvm_test_top.env.scb [RRESP] Matched : exp_rresp=2 actual_rresp =2 write = 0 read = 1
UVM_ERROR axi4_lite_scoreboard.sv(74) @ 7145: uvm_test_top.env.scb [RDATA] Mismatched : exp_rdata= b7c58b74 actual_rdata=00000000 
UVM_INFO axi4_lite_subscriber.sv(40) @ 7165: uvm_test_top.env.sb [sb] INPUT COVERAGE = 100.00 %
UVM_INFO axi4_lite_inp_monitor.sv(38) @ 7165: uvm_test_top.env.aa.inp_mon [INPUT MONITOR] READ araddr=00000020
